CAN;04/10/2025-09:54:23;DOBACK027;Sesión:1;
Fecha-Hora;InterfazCAN;PGN;Número Bytes;Datos
04/10/2025-09:54:23   can0  0CF00400   [8]  30 7D 89 60 14 00 F0 89
04/10/2025-09:54:23   can0  18FEF100   [8]  F3 00 00 10 00 00 00 F0
04/10/2025-09:54:48   can0  0CF00400   [8]  33 89 89 F8 18 27 F0 89
04/10/2025-09:54:48   can0  18FEF100   [8]  F7 00 00 00 00 00 0B F0
04/10/2025-09:55:13   can0  0CF00400   [8]  43 88 88 00 19 27 F0 88
04/10/2025-09:55:13   can0  18FEF100   [8]  F7 00 00 00 00 00 0B F0
04/10/2025-09:55:38   can0  0CF00400   [8]  03 8C 8C 90 25 27 F0 8C
04/10/2025-09:55:38   can0  18FEF100   [8]  F7 00 00 00 00 00 0D F0
04/10/2025-09:56:03   can0  0CF00400   [8]  23 88 88 00 19 27 F0 88
04/10/2025-09:56:03   can0  18FEF100   [8]  F7 00 00 00 00 00 0B F0
04/10/2025-09:56:28   can0  0CF00400   [8]  03 88 88 00 19 27 F0 88
04/10/2025-09:56:28   can0  18FEF100   [8]  F7 00 00 00 00 00 0B F0
04/10/2025-09:56:53   can0  0CF00400   [8]  23 96 96 B0 25 27 F0 96
04/10/2025-09:56:53   can0  18FEF100   [8]  F7 00 00 00 00 00 0D F0
04/10/2025-09:57:18   can0  0CF00400   [8]  63 91 91 88 25 27 F0 92
04/10/2025-09:57:18   can0  18FEF100   [8]  F7 00 00 00 00 00 0D F0
04/10/2025-09:57:43   can0  0CF00400   [8]  73 90 90 98 25 27 F0 91
04/10/2025-09:57:44   can0  18FEF100   [8]  F7 00 00 00 00 00 0D F0
04/10/2025-09:58:08   can0  0CF00400   [8]  63 8C 8B 98 25 27 F0 8C
04/10/2025-09:58:09   can0  18FEF100   [8]  F7 00 00 00 00 00 0D F0
04/10/2025-09:58:33   can0  0CF00400   [8]  23 8D 8D 90 25 27 F0 8D
04/10/2025-09:58:34   can0  18FEF100   [8]  F7 00 00 00 00 00 0D F0
04/10/2025-09:58:58   can0  0CF00400   [8]  13 8B 8B A0 25 27 F0 8B
04/10/2025-09:58:59   can0  18FEF100   [8]  F7 00 00 00 00 00 0D F0
04/10/2025-09:59:23   can0  0CF00400   [8]  13 95 95 70 25 27 F0 95
04/10/2025-09:59:24   can0  18FEF100   [8]  F7 00 00 00 00 00 0D F0
04/10/2025-09:59:48   can0  0CF00400   [8]  03 90 90 88 25 27 F0 90
04/10/2025-09:59:49   can0  18FEF100   [8]  F7 00 00 00 00 00 0D F0
04/10/2025-10:00:13   can0  0CF00400   [8]  03 8D 8D A0 25 27 F0 8D
04/10/2025-10:00:14   can0  18FEF100   [8]  F7 00 00 00 00 00 0D F0
04/10/2025-10:00:38   can0  0CF00400   [8]  13 96 96 90 25 27 F0 96
04/10/2025-10:00:39   can0  18FEF100   [8]  F7 00 00 00 00 00 0D F0
04/10/2025-10:01:03   can0  0CF00400   [8]  43 8C 8C 80 25 27 F0 8D
04/10/2025-10:01:04   can0  18FEF100   [8]  F7 00 00 00 00 00 0D F0
04/10/2025-10:01:28   can0  0CF00400   [8]  43 8B 8B 78 25 27 F0 8B
04/10/2025-10:01:29   can0  18FEF100   [8]  F7 00 00 00 00 00 0D F0
04/10/2025-10:01:53   can0  0CF00400   [8]  53 8E 8E 70 25 27 F0 8F
04/10/2025-10:01:54   can0  18FEF100   [8]  F7 00 00 00 00 00 0D F0
04/10/2025-10:02:18   can0  0CF00400   [8]  73 8F 8F 78 25 27 F0 90
04/10/2025-10:02:19   can0  18FEF100   [8]  F7 00 00 00 00 00 0D F0
04/10/2025-10:02:43   can0  0CF00400   [8]  43 91 91 78 25 27 F0 91
04/10/2025-10:02:44   can0  18FEF100   [8]  F7 00 00 00 00 00 0D F0
04/10/2025-10:03:08   can0  0CF00400   [8]  73 9A 9A 30 25 27 F0 9B
04/10/2025-10:03:09   can0  18FEF100   [8]  F7 00 00 00 00 00 0D F0
04/10/2025-10:03:33   can0  0CF00400   [8]  63 89 89 78 25 27 F0 8A
04/10/2025-10:03:35   can0  18FEF100   [8]  F7 00 00 00 00 00 0D F0
04/10/2025-10:03:58   can0  0CF00400   [8]  73 88 87 10 19 27 F0 88
04/10/2025-10:04:00   can0  18FEF100   [8]  F7 00 00 00 00 00 0B F0
04/10/2025-10:04:23   can0  0CF00400   [8]  63 88 87 08 19 27 F0 88
04/10/2025-10:04:25   can0  18FEF100   [8]  F7 00 00 00 00 00 0B F0
04/10/2025-10:04:48   can0  0CF00400   [8]  43 88 88 08 19 27 F0 88
04/10/2025-10:04:50   can0  18FEF100   [8]  F7 00 00 00 00 00 0D F0
04/10/2025-10:05:13   can0  0CF00400   [8]  63 8C 8C 80 25 27 F0 8D
04/10/2025-10:05:15   can0  18FEF100   [8]  F7 00 00 00 00 00 0D F0
04/10/2025-10:05:38   can0  0CF00400   [8]  13 8D 8D 78 25 27 F0 8D
04/10/2025-10:05:40   can0  18FEF100   [8]  F7 00 00 00 00 00 0D F0
04/10/2025-10:06:03   can0  0CF00400   [8]  43 88 88 08 19 27 F0 89
04/10/2025-10:06:05   can0  18FEF100   [8]  F7 00 00 00 00 00 0B F0
04/10/2025-10:06:28   can0  0CF00400   [8]  53 88 88 F8 18 27 F0 89
04/10/2025-10:06:30   can0  18FEF100   [8]  F7 00 00 00 00 00 0B F0
04/10/2025-10:06:53   can0  0CF00400   [8]  73 88 88 F8 18 27 F0 89
04/10/2025-10:06:55   can0  18FEF100   [8]  F7 00 00 00 00 00 0B F0
04/10/2025-10:07:18   can0  0CF00400   [8]  73 88 88 08 19 27 F0 89
04/10/2025-10:07:20   can0  18FEF100   [8]  F7 00 00 00 00 00 0B F0
04/10/2025-10:07:43   can0  0CF00400   [8]  03 8B 8B 18 24 27 F0 8B
04/10/2025-10:07:45   can0  18FEF100   [8]  F7 00 00 00 00 00 0D F0
04/10/2025-10:08:08   can0  0CF00400   [8]  63 8D 8C 88 25 27 F0 8D
04/10/2025-10:08:10   can0  18FEF100   [8]  F7 00 00 00 00 00 0D F0
04/10/2025-10:08:33   can0  0CF00400   [8]  73 8A 8A 78 25 27 F0 8B
04/10/2025-10:08:36   can0  18FEF100   [8]  F7 00 00 00 00 00 0D F0
04/10/2025-10:08:58   can0  0CF00400   [8]  33 88 88 00 19 27 F0 88
04/10/2025-10:09:01   can0  18FEF100   [8]  F7 00 00 00 00 00 0B F0
04/10/2025-10:09:23   can0  0CF00400   [8]  73 8F 8F 90 25 27 F0 90
04/10/2025-10:09:26   can0  18FEF100   [8]  F7 00 00 00 00 00 0D F0
04/10/2025-10:09:48   can0  0CF00400   [8]  13 88 88 00 19 27 F0 88
04/10/2025-10:09:51   can0  18FEF100   [8]  F7 00 00 00 00 00 0B F0
04/10/2025-10:10:13   can0  0CF00400   [8]  68 B3 AD 48 23 00 F0 7D
04/10/2025-10:10:16   can0  18FEF100   [8]  F3 4F 07 04 00 00 00 F0
CAN;04/10/2025-10:12:01;DOBACK027;Sesión:2;
Fecha-Hora;InterfazCAN;PGN;Número Bytes;Datos
04/10/2025-10:12:01   can0  0CF00400   [8]  60 7D 8A 80 14 00 F0 8B
04/10/2025-10:12:01   can0  18FEF100   [8]  F3 FB 02 10 00 00 00 F0
04/10/2025-10:12:26   can0  0CF00400   [8]  01 A3 A2 10 2C 27 F0 7D
04/10/2025-10:12:26   can0  18FEF100   [8]  F3 E6 12 04 00 00 00 F0
04/10/2025-10:12:51   can0  0CF00400   [8]  10 7D 8A 50 14 00 F0 8A
04/10/2025-10:12:51   can0  18FEF100   [8]  F3 A4 02 10 00 00 00 F0
CAN;04/10/2025-10:22:04;DOBACK027;Sesión:3;
Fecha-Hora;InterfazCAN;PGN;Número Bytes;Datos
04/10/2025-10:22:04   can0  0CF00400   [8]  40 7D 84 20 15 00 F0 85
04/10/2025-10:22:04   can0  18FEF100   [8]  F3 24 01 10 00 00 00 F0
04/10/2025-10:22:29   can0  0CF00400   [8]  20 7D 8A 50 14 00 F0 8A
04/10/2025-10:22:29   can0  18FEF100   [8]  F3 A1 00 10 00 00 00 F0
04/10/2025-10:22:54   can0  0CF00400   [8]  30 7D 8A 68 14 00 F0 8A
04/10/2025-10:22:54   can0  18FEF100   [8]  F3 7D 02 10 00 00 00 F0
CAN;04/10/2025-10:25:38;DOBACK027;Sesión:4;
Fecha-Hora;InterfazCAN;PGN;Número Bytes;Datos
04/10/2025-10:25:38   can0  0CF00400   [8]  01 88 88 30 35 27 F0 7D
04/10/2025-10:25:38   can0  18FEF100   [8]  F3 38 10 04 00 00 00 F0
04/10/2025-10:26:03   can0  0CF00400   [8]  48 E2 AE 90 3C 00 F0 7D
04/10/2025-10:26:03   can0  18FEF100   [8]  F3 1A 1F 04 00 00 00 F0
04/10/2025-10:26:28   can0  0CF00400   [8]  0A 7D 7D 90 31 0B F0 7D
04/10/2025-10:26:28   can0  18FEF100   [8]  F3 6C 32 10 00 00 00 F0
CAN;04/10/2025-14:26:57;DOBACK027;Sesión:5;
Fecha-Hora;InterfazCAN;PGN;Número Bytes;Datos
04/10/2025-14:26:57   can0  0CF00400   [8]  0A 7D 7D B8 2F 0B F0 7D
04/10/2025-14:26:57   can0  18FEF100   [8]  F3 1A 31 10 00 00 00 F0
04/10/2025-14:27:22   can0  0CF00400   [8]  01 AF AF D0 30 27 F0 7D
04/10/2025-14:27:22   can0  18FEF100   [8]  F3 CD 1A 04 00 00 00 F0
CAN;04/10/2025-14:28:28;DOBACK027;Sesión:6;
Fecha-Hora;InterfazCAN;PGN;Número Bytes;Datos
04/10/2025-14:28:28   can0  0CF00400   [8]  01 8B 8B D8 25 27 F0 7D
04/10/2025-14:28:28   can0  18FEF100   [8]  F3 DC 26 04 00 00 00 F0
04/10/2025-14:28:53   can0  0CF00400   [8]  01 C4 C4 F0 2E 27 F0 7D
04/10/2025-14:28:53   can0  18FEF100   [8]  F3 2E 22 00 00 00 00 F0
04/10/2025-14:29:18   can0  0CF00400   [8]  11 83 89 58 14 27 F0 83
04/10/2025-14:29:18   can0  18FEF100   [8]  F3 4F 05 00 00 00 00 F0
04/10/2025-14:29:43   can0  0CF00400   [8]  11 83 88 A0 14 27 F0 82
04/10/2025-14:29:43   can0  18FEF100   [8]  F3 AE 03 00 00 00 00 F0
04/10/2025-14:30:08   can0  0CF00400   [8]  10 7D 8A 38 14 00 F0 8A
04/10/2025-14:30:08   can0  18FEF100   [8]  F3 31 02 10 00 00 00 F0
CAN;04/10/2025-14:31:44;DOBACK027;Sesión:7;
Fecha-Hora;InterfazCAN;PGN;Número Bytes;Datos
04/10/2025-14:31:44   can0  18FEF100   [8]  F3 80 02 00 00 00 00 F0
04/10/2025-14:31:44   can0  0CF00400   [8]  01 91 91 00 1B 27 F0 7D
04/10/2025-14:32:09   can0  0CF00400   [8]  01 8A 8A 88 32 27 F0 7D
04/10/2025-14:32:09   can0  18FEF100   [8]  F3 1C 0F 04 00 00 00 F0
04/10/2025-14:32:34   can0  0CF00400   [8]  63 88 88 F8 18 27 F0 89
