CAN;06/10/2025-09:44:32;DOBACK027;Sesión:1;
Fecha-Hora;InterfazCAN;PGN;Número Bytes;Datos
06/10/2025-09:44:32   can0  0CF00400   [8]  60 7D 88 70 14 00 F0 89
06/10/2025-09:44:32   can0  18FEF100   [8]  F3 00 00 10 00 00 00 F0
06/10/2025-09:44:57   can0  0CF00400   [8]  10 7D 88 50 14 00 F0 88
06/10/2025-09:44:57   can0  18FEF100   [8]  F3 48 02 10 00 00 00 F0
06/10/2025-09:45:22   can0  0CF00400   [8]  23 85 86 40 14 27 F0 86
06/10/2025-09:45:22   can0  18FEF100   [8]  F7 00 00 00 00 00 01 F0
06/10/2025-09:45:47   can0  0CF00400   [8]  13 8B 8F F8 17 27 F0 8F
06/10/2025-09:45:47   can0  18FEF100   [8]  F7 00 00 00 00 00 0B F0
06/10/2025-09:46:12   can0  0CF00400   [8]  33 88 87 20 19 27 F0 87
06/10/2025-09:46:12   can0  18FEF100   [8]  F7 00 00 00 00 00 0B F0
06/10/2025-09:46:37   can0  0CF00400   [8]  73 88 87 08 19 27 F0 88
06/10/2025-09:46:37   can0  18FEF100   [8]  F7 00 00 00 00 00 0B F0
06/10/2025-09:47:02   can0  0CF00400   [8]  03 88 88 00 19 27 F0 88
06/10/2025-09:47:02   can0  18FEF100   [8]  F7 00 00 00 00 00 0B F0
06/10/2025-09:47:27   can0  0CF00400   [8]  53 96 96 68 25 27 F0 97
06/10/2025-09:47:27   can0  18FEF100   [8]  F7 00 00 00 00 00 0D F0
06/10/2025-09:47:52   can0  0CF00400   [8]  03 8A 8B 90 25 27 F0 8B
06/10/2025-09:47:52   can0  18FEF100   [8]  F7 00 00 00 00 00 0D F0
06/10/2025-09:48:17   can0  0CF00400   [8]  33 87 87 F8 18 27 F0 87
06/10/2025-09:48:17   can0  18FEF100   [8]  F7 00 00 00 00 00 0B F0
06/10/2025-09:48:42   can0  0CF00400   [8]  13 92 93 60 25 27 F0 93
06/10/2025-09:48:42   can0  18FEF100   [8]  F7 00 00 00 00 00 0D F0
06/10/2025-09:49:07   can0  0CF00400   [8]  03 8A 8A 88 25 27 F0 8A
06/10/2025-09:49:07   can0  18FEF100   [8]  F7 00 00 00 00 00 0D F0
06/10/2025-09:49:32   can0  0CF00400   [8]  73 87 86 10 19 27 F0 87
06/10/2025-09:49:32   can0  18FEF100   [8]  F7 00 00 00 00 00 0B F0
06/10/2025-09:49:57   can0  0CF00400   [8]  23 87 87 F8 18 27 F0 87
06/10/2025-09:49:57   can0  18FEF100   [8]  F7 00 00 00 00 00 0B F0
06/10/2025-09:50:22   can0  0CF00400   [8]  03 87 87 00 19 27 F0 87
06/10/2025-09:50:22   can0  18FEF100   [8]  F7 00 00 00 00 00 0B F0
06/10/2025-09:50:47   can0  0CF00400   [8]  73 87 86 08 19 27 F0 87
06/10/2025-09:50:47   can0  18FEF100   [8]  F7 00 00 00 00 00 0B F0
06/10/2025-09:51:12   can0  0CF00400   [8]  63 8C 8C 80 25 27 F0 8D
06/10/2025-09:51:12   can0  18FEF100   [8]  F7 00 00 00 00 00 0D F0
06/10/2025-09:51:37   can0  0CF00400   [8]  43 8C 8C 68 25 27 F0 8C
06/10/2025-09:51:37   can0  18FEF100   [8]  F7 00 00 00 00 00 0D F0
06/10/2025-09:52:02   can0  0CF00400   [8]  53 8C 8C 70 25 27 F0 8D
06/10/2025-09:52:02   can0  18FEF100   [8]  F7 00 00 00 00 00 0D F0
06/10/2025-09:52:27   can0  0CF00400   [8]  33 8E 8E 58 25 27 F0 8E
06/10/2025-09:52:27   can0  18FEF100   [8]  F7 00 00 00 00 00 0D F0
06/10/2025-09:52:52   can0  0CF00400   [8]  63 8C 8C 78 25 27 F0 8D
06/10/2025-09:52:52   can0  18FEF100   [8]  F7 00 00 00 00 00 0D F0
06/10/2025-09:53:17   can0  0CF00400   [8]  43 8B 8B 80 25 27 F0 8C
06/10/2025-09:53:17   can0  18FEF100   [8]  F7 00 00 00 00 00 0D F0
06/10/2025-09:53:42   can0  0CF00400   [8]  33 8B 8B 80 25 27 F0 8B
06/10/2025-09:53:42   can0  18FEF100   [8]  F7 00 00 00 00 00 0D F0
06/10/2025-09:54:07   can0  0CF00400   [8]  73 8A 8A 78 25 27 F0 8B
06/10/2025-09:54:07   can0  18FEF100   [8]  F7 00 00 00 00 00 0D F0
06/10/2025-09:54:32   can0  0CF00400   [8]  03 8C 8C 88 25 27 F0 8C
06/10/2025-09:54:32   can0  18FEF100   [8]  F7 00 00 00 00 00 0D F0
06/10/2025-09:54:57   can0  0CF00400   [8]  23 8D 8D 80 25 27 F0 8D
06/10/2025-09:54:57   can0  18FEF100   [8]  F7 00 00 00 00 00 0D F0
06/10/2025-09:55:22   can0  0CF00400   [8]  33 8B 8B 70 25 27 F0 8B
06/10/2025-09:55:22   can0  18FEF100   [8]  F7 00 00 00 00 00 0D F0
06/10/2025-09:55:47   can0  0CF00400   [8]  73 8B 8A 80 25 27 F0 8B
06/10/2025-09:55:47   can0  18FEF100   [8]  F7 00 00 00 00 00 0D F0
06/10/2025-09:56:12   can0  0CF00400   [8]  73 89 89 70 25 27 F0 8A
06/10/2025-09:56:12   can0  18FEF100   [8]  F7 00 00 00 00 00 0D F0
06/10/2025-09:56:37   can0  0CF00400   [8]  00 93 7D 40 22 00 F0 7D
06/10/2025-09:56:37   can0  18FEF100   [8]  F7 00 00 00 00 00 09 F0
06/10/2025-09:57:02   can0  0CF00400   [8]  53 8C 8C 08 25 27 F0 8D
06/10/2025-09:57:02   can0  18FEF100   [8]  F7 00 00 00 00 00 0D F0
06/10/2025-09:57:27   can0  0CF00400   [8]  63 8D 8D 70 25 27 F0 8E
06/10/2025-09:57:27   can0  18FEF100   [8]  F7 00 00 00 00 00 0D F0
06/10/2025-09:57:52   can0  0CF00400   [8]  03 89 89 90 25 27 F0 89
06/10/2025-09:57:52   can0  18FEF100   [8]  F7 00 00 00 00 00 0D F0
06/10/2025-09:58:17   can0  0CF00400   [8]  53 8E 8E 70 25 27 F0 8F
06/10/2025-09:58:17   can0  18FEF100   [8]  F7 00 00 00 00 00 0D F0
06/10/2025-09:58:42   can0  0CF00400   [8]  13 8C 8D 70 25 27 F0 8D
06/10/2025-09:58:42   can0  18FEF100   [8]  F7 00 00 00 00 00 0D F0
06/10/2025-09:59:07   can0  0CF00400   [8]  03 8A 8B 80 25 27 F0 8B
06/10/2025-09:59:07   can0  18FEF100   [8]  F7 00 00 00 00 00 0D F0
06/10/2025-09:59:32   can0  0CF00400   [8]  23 88 88 08 19 27 F0 88
06/10/2025-09:59:32   can0  18FEF100   [8]  F7 00 00 00 00 00 0B F0
06/10/2025-09:59:57   can0  0CF00400   [8]  33 88 88 F8 18 27 F0 88
06/10/2025-09:59:57   can0  18FEF100   [8]  F7 00 00 00 00 00 0B F0
06/10/2025-10:00:22   can0  0CF00400   [8]  53 88 88 08 19 27 F0 89
06/10/2025-10:00:22   can0  18FEF100   [8]  F7 00 00 00 00 00 0B F0
06/10/2025-10:00:47   can0  0CF00400   [8]  33 8B 8B 88 25 27 F0 8B
06/10/2025-10:00:47   can0  18FEF100   [8]  F7 00 00 00 00 00 0D F0
06/10/2025-10:01:12   can0  0CF00400   [8]  63 8D 8D 68 25 27 F0 8E
06/10/2025-10:01:12   can0  18FEF100   [8]  F7 00 00 00 00 00 0D F0
06/10/2025-10:01:37   can0  0CF00400   [8]  03 8C 8D 80 25 27 F0 8D
06/10/2025-10:01:37   can0  18FEF100   [8]  F7 00 00 00 00 00 0D F0
06/10/2025-10:02:02   can0  0CF00400   [8]  03 8A 8A 88 25 27 F0 8A
06/10/2025-10:02:02   can0  18FEF100   [8]  F7 00 00 00 00 00 0D F0
06/10/2025-10:02:27   can0  0CF00400   [8]  53 8F 8F 70 25 27 F0 90
06/10/2025-10:02:27   can0  18FEF100   [8]  F7 00 00 00 00 00 0D F0
06/10/2025-10:02:52   can0  0CF00400   [8]  53 97 8D D8 19 27 F0 8E
06/10/2025-10:02:53   can0  18FEF100   [8]  F7 00 00 00 00 00 0B F0
06/10/2025-10:03:17   can0  0CF00400   [8]  03 88 88 08 19 27 F0 88
06/10/2025-10:03:18   can0  18FEF100   [8]  F7 00 00 00 00 00 0B F0
06/10/2025-10:03:42   can0  0CF00400   [8]  23 88 88 F8 18 27 F0 88
06/10/2025-10:03:43   can0  18FEF100   [8]  F7 00 00 00 00 00 0B F0
06/10/2025-10:04:07   can0  0CF00400   [8]  73 88 87 10 19 27 F0 88
06/10/2025-10:04:08   can0  18FEF100   [8]  F7 00 00 00 00 00 0B F0
06/10/2025-10:04:32   can0  0CF00400   [8]  13 88 88 00 19 27 F0 88
06/10/2025-10:04:33   can0  18FEF100   [8]  F7 00 00 00 00 00 0B F0
06/10/2025-10:04:57   can0  0CF00400   [8]  03 88 88 08 19 27 F0 88
06/10/2025-10:04:58   can0  18FEF100   [8]  F7 00 00 00 00 00 0B F0
06/10/2025-10:05:22   can0  0CF00400   [8]  33 88 88 F0 18 27 F0 88
06/10/2025-10:05:23   can0  18FEF100   [8]  F7 00 00 00 00 00 0B F0
06/10/2025-10:05:47   can0  0CF00400   [8]  73 88 87 08 19 27 F0 88
06/10/2025-10:05:48   can0  18FEF100   [8]  F7 00 00 00 00 00 0B F0
06/10/2025-10:06:12   can0  0CF00400   [8]  13 88 88 00 19 27 F0 88
06/10/2025-10:06:13   can0  18FEF100   [8]  F7 00 00 00 00 00 0B F0
06/10/2025-10:06:37   can0  0CF00400   [8]  33 88 88 00 19 27 F0 88
06/10/2025-10:06:38   can0  18FEF100   [8]  F7 00 00 00 00 00 0B F0
06/10/2025-10:07:02   can0  0CF00400   [8]  43 88 88 F0 18 27 F0 88
06/10/2025-10:07:03   can0  18FEF100   [8]  F7 00 00 00 00 00 0B F0
06/10/2025-10:07:27   can0  0CF00400   [8]  03 88 88 10 19 27 F0 88
06/10/2025-10:07:29   can0  18FEF100   [8]  F7 00 00 00 00 00 0B F0
06/10/2025-10:07:52   can0  0CF00400   [8]  23 88 88 F8 18 27 F0 88
06/10/2025-10:07:54   can0  18FEF100   [8]  F7 00 00 00 00 00 0B F0
06/10/2025-10:08:17   can0  0CF00400   [8]  13 88 88 08 19 27 F0 88
06/10/2025-10:08:19   can0  18FEF100   [8]  F7 00 00 00 00 00 0B F0
06/10/2025-10:08:42   can0  0CF00400   [8]  33 88 88 F8 18 27 F0 88
06/10/2025-10:08:44   can0  18FEF100   [8]  F7 00 00 00 00 00 0B F0
06/10/2025-10:09:07   can0  0CF00400   [8]  63 88 87 10 19 27 F0 88
06/10/2025-10:09:09   can0  18FEF100   [8]  F7 00 00 00 00 00 0B F0
06/10/2025-10:09:32   can0  0CF00400   [8]  03 88 88 00 19 27 F0 88
06/10/2025-10:09:34   can0  18FEF100   [8]  F7 00 00 00 00 00 0B F0
06/10/2025-10:09:57   can0  0CF00400   [8]  73 88 87 08 19 27 F0 88
06/10/2025-10:09:59   can0  18FEF100   [8]  F7 00 00 00 00 00 0B F0
06/10/2025-10:10:22   can0  0CF00400   [8]  23 88 88 F0 18 27 F0 88
06/10/2025-10:10:24   can0  18FEF100   [8]  F7 00 00 00 00 00 0B F0
06/10/2025-10:10:47   can0  0CF00400   [8]  73 88 87 10 19 27 F0 88
06/10/2025-10:10:49   can0  18FEF100   [8]  F7 00 00 00 00 00 0B F0
06/10/2025-10:11:12   can0  0CF00400   [8]  50 7D 81 E8 16 00 F0 82
06/10/2025-10:11:14   can0  18FEF100   [8]  F3 00 00 10 00 00 00 F0
06/10/2025-10:11:37   can0  0CF00400   [8]  60 7D 8A 48 14 00 F0 8B
06/10/2025-10:11:40   can0  18FEF100   [8]  F3 EC 01 10 00 00 00 F0
06/10/2025-10:12:02   can0  0CF00400   [8]  10 7D 8A 20 14 00 F0 8A
06/10/2025-10:12:05   can0  18FEF100   [8]  F3 57 04 00 00 00 00 F0
06/10/2025-10:12:27   can0  0CF00400   [8]  30 7D 84 58 14 00 F0 84
06/10/2025-10:12:30   can0  18FEF100   [8]  F7 00 00 10 00 00 00 F0
CAN;06/10/2025-10:14:47;DOBACK027;Sesión:2;
Fecha-Hora;InterfazCAN;PGN;Número Bytes;Datos
06/10/2025-10:14:47   can0  0CF00400   [8]  60 7D 84 50 14 00 F0 85
06/10/2025-10:14:47   can0  18FEF100   [8]  F7 00 00 00 00 00 03 F0
CAN;06/10/2025-12:37:20;DOBACK027;Sesión:3;
Fecha-Hora;InterfazCAN;PGN;Número Bytes;Datos
06/10/2025-12:37:20   can0  0CF00400   [8]  00 7F 7D B8 15 00 F0 7D
06/10/2025-12:37:21   can0  18FEF100   [8]  F3 88 04 00 00 00 00 F0
06/10/2025-12:37:45   can0  0CF00400   [8]  01 BF BF 70 38 27 F0 7D
06/10/2025-12:37:46   can0  18FEF100   [8]  F3 03 15 04 00 00 00 F0
06/10/2025-12:38:10   can0  0CF00400   [8]  01 D3 D3 D8 35 27 F0 7D
06/10/2025-12:38:11   can0  18FEF100   [8]  F3 D2 1D 04 00 00 00 F0
06/10/2025-12:38:35   can0  0CF00400   [8]  0A 7D 7D F8 3C 0B F0 7D
06/10/2025-12:38:36   can0  18FEF100   [8]  F3 61 2C 10 00 00 00 F0
06/10/2025-12:39:00   can0  0CF00400   [8]  01 A2 A2 18 32 27 F0 7D
06/10/2025-12:39:01   can0  18FEF100   [8]  F3 78 0D 04 00 00 00 F0
06/10/2025-12:39:25   can0  0CF00400   [8]  0A 7D 7D 50 26 0B F0 7D
06/10/2025-12:39:26   can0  18FEF100   [8]  F3 F1 19 10 00 00 00 F0
06/10/2025-12:39:50   can0  0CF00400   [8]  00 7D 7D E8 2A 00 F0 7D
06/10/2025-12:39:51   can0  18FEF100   [8]  F3 A9 2B 04 00 00 00 F0
CAN;06/10/2025-12:40:30;DOBACK027;Sesión:4;
Fecha-Hora;InterfazCAN;PGN;Número Bytes;Datos
06/10/2025-12:40:30   can0  0CF00400   [8]  01 C1 C2 68 2A 27 F0 7D
06/10/2025-12:40:30   can0  18FEF100   [8]  F3 54 2B 00 00 00 00 F0
CAN;06/10/2025-12:41:29;DOBACK027;Sesión:5;
Fecha-Hora;InterfazCAN;PGN;Número Bytes;Datos
06/10/2025-12:41:29   can0  0CF00400   [8]  01 87 88 80 21 27 F0 7D
06/10/2025-12:41:29   can0  18FEF100   [8]  F3 6E 12 00 00 00 00 F0
CAN;06/10/2025-12:42:51;DOBACK027;Sesión:6;
Fecha-Hora;InterfazCAN;PGN;Número Bytes;Datos
06/10/2025-12:42:51   can0  0CF00400   [8]  30 7D 89 38 14 00 F0 89
06/10/2025-12:42:51   can0  18FEF100   [8]  F3 F6 03 00 00 00 00 F0
06/10/2025-12:43:16   can0  0CF00400   [8]  01 C6 C6 90 36 27 F0 7D
06/10/2025-12:43:16   can0  18FEF100   [8]  F3 BD 1D 00 00 00 00 F0
06/10/2025-12:43:41   can0  0CF00400   [8]  01 97 98 68 27 27 F0 7D
06/10/2025-12:43:41   can0  18FEF100   [8]  F3 C0 14 04 00 00 00 F0
CAN;06/10/2025-12:44:22;DOBACK027;Sesión:7;
Fecha-Hora;InterfazCAN;PGN;Número Bytes;Datos
06/10/2025-12:44:22   can0  0CF00400   [8]  01 A1 9C F0 33 27 F0 7D
06/10/2025-12:44:22   can0  18FEF100   [8]  F3 61 16 00 00 00 00 F0
CAN;06/10/2025-12:45:18;DOBACK027;Sesión:8;
Fecha-Hora;InterfazCAN;PGN;Número Bytes;Datos
06/10/2025-12:45:18   can0  0CF00400   [8]  08 D0 C7 D8 39 00 F0 7D
06/10/2025-12:45:18   can0  18FEF100   [8]  F3 A9 16 00 00 00 00 F0
06/10/2025-12:45:43   can0  0CF00400   [8]  01 95 95 70 31 27 F0 7D
06/10/2025-12:45:43   can0  18FEF100   [8]  F3 36 1B 04 00 00 00 F0
06/10/2025-12:46:08   can0  0CF00400   [8]  0A 7D 7D D8 2A 0B F0 7D
06/10/2025-12:46:08   can0  18FEF100   [8]  F3 5A 1D 10 00 00 00 F0
06/10/2025-12:46:33   can0  0CF00400   [8]  01 B8 B8 00 28 27 F0 7D
06/10/2025-12:46:33   can0  18FEF100   [8]  F3 0F 29 04 00 00 00 F0
06/10/2025-12:46:58   can0  0CF00400   [8]  00 7D 7D 18 20 00 F0 7D
06/10/2025-12:46:58   can0  18FEF100   [8]  F3 64 11 10 00 00 00 F0
06/10/2025-12:47:23   can0  0CF00400   [8]  01 82 80 58 29 27 F0 7D
06/10/2025-12:47:23   can0  18FEF100   [8]  F3 97 16 04 00 00 00 F0
06/10/2025-12:47:48   can0  0CF00400   [8]  01 A3 A7 60 26 27 F0 7D
06/10/2025-12:47:48   can0  18FEF100   [8]  F3 57 13 04 00 00 00 F0
06/10/2025-12:48:13   can0  0CF00400   [8]  01 93 94 08 20 27 F0 7D
06/10/2025-12:48:14   can0  18FEF100   [8]  F3 FD 0E 04 00 00 00 F0
06/10/2025-12:48:38   can0  0CF00400   [8]  0A 7D 7D 80 0F 0B F0 AA
06/10/2025-12:48:39   can0  18FEF100   [8]  F7 00 00 20 00 00 03 F0
CAN;06/10/2025-12:50:41;DOBACK027;Sesión:9;
Fecha-Hora;InterfazCAN;PGN;Número Bytes;Datos
06/10/2025-12:50:41   can0  18FEF100   [8]  F3 00 00 10 00 00 00 F0
06/10/2025-12:50:41   can0  0CF00400   [8]  40 7D 8C 80 14 00 F0 8D
06/10/2025-12:51:06   can0  18FEF100   [8]  F3 C0 18 04 00 00 00 F0
06/10/2025-12:51:06   can0  0CF00400   [8]  00 7D 7D 58 2C 00 F0 7D
06/10/2025-12:51:31   can0  0CF00400   [8]  40 7D 82 20 15 00 F0 83
06/10/2025-12:51:31   can0  18FEF100   [8]  F3 A9 0D 10 00 00 00 F0
06/10/2025-12:51:56   can0  0CF00400   [8]  0A 7D 7D 20 27 0B F0 7D
06/10/2025-12:51:56   can0  18FEF100   [8]  F3 2E 28 10 00 00 00 F0
CAN;06/10/2025-12:54:37;DOBACK027;Sesión:10;
Fecha-Hora;InterfazCAN;PGN;Número Bytes;Datos
06/10/2025-12:54:37   can0  18FEF100   [8]  F3 17 18 00 00 00 00 F0
06/10/2025-12:54:37   can0  0CF00400   [8]  0A 7D 7D D8 2B 0B F0 7D
06/10/2025-12:55:02   can0  18FEF100   [8]  F3 E9 02 10 00 00 00 F0
06/10/2025-12:55:02   can0  0CF00400   [8]  20 7D 8C E8 13 00 F0 8C
06/10/2025-12:55:27   can0  18FEF100   [8]  F3 64 16 10 00 00 00 F0
06/10/2025-12:55:27   can0  0CF00400   [8]  00 7D 7D F0 26 00 F0 7D
06/10/2025-12:55:52   can0  18FEF100   [8]  F3 DF 22 04 00 00 00 F0
06/10/2025-12:55:52   can0  0CF00400   [8]  01 89 89 80 30 27 F0 7D
06/10/2025-12:56:17   can0  0CF00400   [8]  01 8B 8C F0 25 27 F0 7D
06/10/2025-12:56:17   can0  18FEF100   [8]  F3 C0 1B 04 00 00 00 F0
06/10/2025-12:56:42   can0  0CF00400   [8]  01 93 93 38 35 27 F0 7D
06/10/2025-12:56:43   can0  18FEF100   [8]  F3 B8 26 04 00 00 00 F0
CAN;06/10/2025-12:57:42;DOBACK027;Sesión:11;
Fecha-Hora;InterfazCAN;PGN;Número Bytes;Datos
06/10/2025-12:57:42   can0  0CF00400   [8]  01 92 91 48 30 27 F0 7D
06/10/2025-12:57:42   can0  18FEF100   [8]  F3 97 1A 04 00 00 00 F0
CAN;06/10/2025-12:58:36;DOBACK027;Sesión:12;
Fecha-Hora;InterfazCAN;PGN;Número Bytes;Datos
06/10/2025-12:58:36   can0  0CF00400   [8]  01 A7 A7 10 31 27 F0 7D
06/10/2025-12:58:36   can0  18FEF100   [8]  F3 71 16 04 00 00 00 F0
06/10/2025-12:59:01   can0  0CF00400   [8]  00 7D 7D B0 34 00 F0 7D
06/10/2025-12:59:01   can0  18FEF100   [8]  F3 45 26 04 00 00 00 F0
06/10/2025-12:59:26   can0  0CF00400   [8]  01 B1 B1 20 32 27 F0 7D
06/10/2025-12:59:26   can0  18FEF100   [8]  F3 C8 24 04 00 00 00 F0
06/10/2025-12:59:51   can0  0CF00400   [8]  0A 7D 7D 38 25 0B F0 7D
06/10/2025-12:59:51   can0  18FEF100   [8]  F3 36 14 04 00 00 00 F0
06/10/2025-13:00:16   can0  0CF00400   [8]  01 9B 94 90 31 27 F0 7D
06/10/2025-13:00:16   can0  18FEF100   [8]  F3 83 32 04 00 00 00 F0
06/10/2025-13:00:41   can0  0CF00400   [8]  01 CD CC 98 3C 27 F0 7D
06/10/2025-13:00:41   can0  18FEF100   [8]  F3 5A 2C 00 00 00 00 F0
06/10/2025-13:01:06   can0  0CF00400   [8]  01 AB AB 50 37 27 F0 7D
06/10/2025-13:01:06   can0  18FEF100   [8]  F3 8D 1E 00 00 00 00 F0
06/10/2025-13:01:31   can0  0CF00400   [8]  00 7D 7D 80 22 00 F0 7D
06/10/2025-13:01:31   can0  18FEF100   [8]  F3 D2 12 04 00 00 00 F0
06/10/2025-13:01:56   can0  0CF00400   [8]  30 7D 89 48 14 00 F0 89
06/10/2025-13:01:56   can0  18FEF100   [8]  F3 7B 02 10 00 00 00 F0
06/10/2025-13:02:21   can0  0CF00400   [8]  10 7D 84 B0 14 00 F0 84
06/10/2025-13:02:21   can0  18FEF100   [8]  F7 00 00 10 00 00 00 F0
CAN;06/10/2025-13:02:38;DOBACK027;Sesión:13;
Fecha-Hora;InterfazCAN;PGN;Número Bytes;Datos
06/10/2025-13:02:38   can0  0CF00400   [8]  30 7D 8A 58 14 00 F0 8A
06/10/2025-13:02:38   can0  18FEF100   [8]  F7 00 00 00 00 00 03 F0
06/10/2025-13:03:03   can0  0CF00400   [8]  50 7D 87 60 14 00 F0 88
06/10/2025-13:03:03   can0  18FEF100   [8]  F3 00 00 10 00 00 00 F0
06/10/2025-13:03:28   can0  0CF00400   [8]  40 7D 86 48 14 00 F0 86
06/10/2025-13:03:28   can0  18FEF100   [8]  F3 00 00 10 00 00 00 F0
