CAN;02/10/2025-09:50:14;DOBACK027;Sesión:1;
Fecha-Hora;InterfazCAN;PGN;Número Bytes;Datos
02/10/2025-09:50:14   can0  0CF00400   [8]  01 90 8F 30 21 27 F0 7D
02/10/2025-09:50:14   can0  18FEF100   [8]  F3 DC 06 04 00 00 00 F0
02/10/2025-09:50:39   can0  0CF00400   [8]  20 7D 87 88 14 00 F0 87
02/10/2025-09:50:39   can0  18FEF100   [8]  F3 F1 03 10 00 00 00 F0
02/10/2025-09:51:04   can0  0CF00400   [8]  00 7D 89 50 14 00 F0 89
02/10/2025-09:51:04   can0  18FEF100   [8]  F3 00 00 10 00 00 00 F0
02/10/2025-09:51:29   can0  0CF00400   [8]  01 9C 9C A0 27 27 F0 7D
02/10/2025-09:51:29   can0  18FEF100   [8]  F3 EE 11 04 00 00 00 F0
CAN;02/10/2025-09:52:12;DOBACK027;Sesión:2;
Fecha-Hora;InterfazCAN;PGN;Número Bytes;Datos
02/10/2025-09:52:12   can0  0CF00400   [8]  30 7D 86 70 14 00 F0 86
02/10/2025-09:52:12   can0  18FEF100   [8]  F3 94 03 10 00 00 00 F0
CAN;02/10/2025-09:53:05;DOBACK027;Sesión:3;
Fecha-Hora;InterfazCAN;PGN;Número Bytes;Datos
02/10/2025-09:53:05   can0  18FEF100   [8]  F3 88 03 10 00 00 00 F0
02/10/2025-09:53:05   can0  0CF00400   [8]  50 7D 87 28 14 00 F0 88
02/10/2025-09:53:30   can0  0CF00400   [8]  23 88 88 18 19 27 F0 88
02/10/2025-09:53:30   can0  18FEF100   [8]  F7 00 00 00 00 00 0B F0
02/10/2025-09:53:55   can0  0CF00400   [8]  33 87 87 08 19 27 F0 87
02/10/2025-09:53:55   can0  18FEF100   [8]  F7 00 00 00 00 00 0B F0
02/10/2025-09:54:20   can0  0CF00400   [8]  53 87 87 F8 18 27 F0 88
02/10/2025-09:54:20   can0  18FEF100   [8]  F7 00 00 00 00 00 0B F0
02/10/2025-09:54:45   can0  0CF00400   [8]  33 87 87 10 19 27 F0 87
02/10/2025-09:54:45   can0  18FEF100   [8]  F7 00 00 00 00 00 0B F0
02/10/2025-09:55:10   can0  0CF00400   [8]  23 87 87 00 19 27 F0 87
02/10/2025-09:55:10   can0  18FEF100   [8]  F7 00 00 00 00 00 0B F0
02/10/2025-09:55:35   can0  0CF00400   [8]  13 87 87 08 19 27 F0 87
02/10/2025-09:55:35   can0  18FEF100   [8]  F7 00 00 00 00 00 0B F0
02/10/2025-09:56:00   can0  0CF00400   [8]  23 87 87 F8 18 27 F0 87
02/10/2025-09:56:01   can0  18FEF100   [8]  F7 00 00 00 00 00 0B F0
02/10/2025-09:56:25   can0  0CF00400   [8]  33 90 90 80 25 27 F0 90
02/10/2025-09:56:26   can0  18FEF100   [8]  F7 00 00 00 00 00 0D F0
02/10/2025-09:56:50   can0  0CF00400   [8]  13 98 94 A0 22 27 F0 94
02/10/2025-09:56:51   can0  18FEF100   [8]  F7 00 00 00 00 00 0D F0
02/10/2025-09:57:15   can0  0CF00400   [8]  73 86 86 F8 18 27 F0 87
02/10/2025-09:57:16   can0  18FEF100   [8]  F7 00 00 00 00 00 0B F0
02/10/2025-09:57:40   can0  0CF00400   [8]  43 86 86 10 19 27 F0 86
02/10/2025-09:57:41   can0  18FEF100   [8]  F7 00 00 00 00 00 0B F0
02/10/2025-09:58:05   can0  0CF00400   [8]  73 86 86 00 19 27 F0 87
02/10/2025-09:58:06   can0  18FEF100   [8]  F7 00 00 00 00 00 0B F0
02/10/2025-09:58:30   can0  0CF00400   [8]  13 87 87 00 19 27 F0 87
02/10/2025-09:58:31   can0  18FEF100   [8]  F7 00 00 00 00 00 0B F0
02/10/2025-09:58:55   can0  0CF00400   [8]  73 86 86 F8 18 27 F0 87
02/10/2025-09:58:56   can0  18FEF100   [8]  F7 00 00 00 00 00 0B F0
02/10/2025-09:59:20   can0  0CF00400   [8]  63 86 86 08 19 27 F0 87
02/10/2025-09:59:21   can0  18FEF100   [8]  F7 00 00 00 00 00 0B F0
02/10/2025-09:59:45   can0  0CF00400   [8]  33 86 86 08 19 27 F0 86
02/10/2025-09:59:46   can0  18FEF100   [8]  F7 00 00 00 00 00 0B F0
02/10/2025-10:00:10   can0  0CF00400   [8]  63 95 95 78 25 27 F0 96
02/10/2025-10:00:11   can0  18FEF100   [8]  F7 00 00 00 00 00 0D F0
02/10/2025-10:00:35   can0  0CF00400   [8]  43 8C 8C 78 25 27 F0 8D
02/10/2025-10:00:36   can0  18FEF100   [8]  F7 00 00 00 00 00 0D F0
02/10/2025-10:01:00   can0  0CF00400   [8]  03 8B 8C 78 25 27 F0 8C
02/10/2025-10:01:01   can0  18FEF100   [8]  F7 00 00 00 00 00 0D F0
02/10/2025-10:01:25   can0  0CF00400   [8]  23 8B 8B 88 25 27 F0 8B
02/10/2025-10:01:26   can0  18FEF100   [8]  F7 00 00 00 00 00 0D F0
02/10/2025-10:01:50   can0  0CF00400   [8]  63 8A 8A 98 25 27 F0 8B
02/10/2025-10:01:51   can0  18FEF100   [8]  F7 00 00 00 00 00 0D F0
02/10/2025-10:02:15   can0  0CF00400   [8]  63 8B 8A C8 25 27 F0 8B
02/10/2025-10:02:16   can0  18FEF100   [8]  F7 00 00 00 00 00 0D F0
02/10/2025-10:02:40   can0  0CF00400   [8]  33 89 88 A0 25 27 F0 88
02/10/2025-10:02:41   can0  18FEF100   [8]  F7 00 00 00 00 00 0D F0
02/10/2025-10:03:05   can0  0CF00400   [8]  63 88 88 80 25 27 F0 89
02/10/2025-10:03:07   can0  18FEF100   [8]  F7 00 00 00 00 00 0D F0
02/10/2025-10:03:30   can0  0CF00400   [8]  53 89 89 88 25 27 F0 8A
02/10/2025-10:03:32   can0  18FEF100   [8]  F7 00 00 00 00 00 0D F0
02/10/2025-10:03:55   can0  0CF00400   [8]  43 8B 8C 50 25 27 F0 8C
02/10/2025-10:03:57   can0  18FEF100   [8]  F7 00 00 00 00 00 0D F0
02/10/2025-10:04:20   can0  0CF00400   [8]  33 8B 8B 88 25 27 F0 8B
02/10/2025-10:04:22   can0  18FEF100   [8]  F7 00 00 00 00 00 0D F0
02/10/2025-10:04:45   can0  0CF00400   [8]  73 89 89 A8 25 27 F0 8A
02/10/2025-10:04:47   can0  18FEF100   [8]  F7 00 00 00 00 00 0D F0
02/10/2025-10:05:10   can0  0CF00400   [8]  53 8E 8E 78 25 27 F0 8F
02/10/2025-10:05:12   can0  18FEF100   [8]  F7 00 00 00 00 00 0D F0
02/10/2025-10:05:35   can0  0CF00400   [8]  33 8B 8B 80 25 27 F0 8B
02/10/2025-10:05:37   can0  18FEF100   [8]  F7 00 00 00 00 00 0D F0
02/10/2025-10:06:00   can0  0CF00400   [8]  13 88 88 F8 18 27 F0 88
02/10/2025-10:06:02   can0  18FEF100   [8]  F7 00 00 00 00 00 0B F0
02/10/2025-10:06:25   can0  0CF00400   [8]  13 88 88 08 19 27 F0 88
02/10/2025-10:06:27   can0  18FEF100   [8]  F7 00 00 00 00 00 0B F0
02/10/2025-10:06:50   can0  0CF00400   [8]  53 88 88 F8 18 27 F0 89
02/10/2025-10:06:52   can0  18FEF100   [8]  F7 00 00 00 00 00 0B F0
02/10/2025-10:07:15   can0  0CF00400   [8]  33 88 88 08 19 27 F0 88
02/10/2025-10:07:17   can0  18FEF100   [8]  F7 00 00 00 00 00 0B F0
02/10/2025-10:07:40   can0  0CF00400   [8]  23 88 88 08 19 27 F0 88
02/10/2025-10:07:42   can0  18FEF100   [8]  F7 00 00 00 00 00 0B F0
02/10/2025-10:08:05   can0  0CF00400   [8]  43 88 88 00 19 27 F0 89
02/10/2025-10:08:07   can0  18FEF100   [8]  F7 00 00 00 00 00 0B F0
02/10/2025-10:08:30   can0  0CF00400   [8]  53 88 88 F8 18 27 F0 89
02/10/2025-10:08:32   can0  18FEF100   [8]  F7 00 00 00 00 00 0B F0
02/10/2025-10:08:55   can0  0CF00400   [8]  53 88 88 08 19 27 F0 89
02/10/2025-10:08:57   can0  18FEF100   [8]  F7 00 00 00 00 00 0B F0
02/10/2025-10:09:20   can0  0CF00400   [8]  33 88 88 08 19 27 F0 88
02/10/2025-10:09:22   can0  18FEF100   [8]  F7 00 00 00 00 00 0B F0
02/10/2025-10:09:45   can0  0CF00400   [8]  63 88 88 00 19 27 F0 89
02/10/2025-10:09:47   can0  18FEF100   [8]  F7 00 00 00 00 00 0B F0
02/10/2025-10:10:10   can0  0CF00400   [8]  53 88 88 00 19 27 F0 89
02/10/2025-10:10:13   can0  18FEF100   [8]  F7 00 00 00 00 00 0B F0
02/10/2025-10:10:35   can0  0CF00400   [8]  63 88 88 00 19 27 F0 89
02/10/2025-10:10:38   can0  18FEF100   [8]  F7 00 00 00 00 00 0B F0
02/10/2025-10:11:00   can0  0CF00400   [8]  33 88 88 08 19 27 F0 88
02/10/2025-10:11:03   can0  18FEF100   [8]  F7 00 00 00 00 00 0B F0
02/10/2025-10:11:25   can0  0CF00400   [8]  33 88 88 F8 18 27 F0 88
02/10/2025-10:11:28   can0  18FEF100   [8]  F7 00 00 00 00 00 0B F0
02/10/2025-10:11:50   can0  0CF00400   [8]  73 88 87 08 19 27 F0 88
02/10/2025-10:11:53   can0  18FEF100   [8]  F7 00 00 00 00 00 0B F0
02/10/2025-10:12:15   can0  0CF00400   [8]  23 88 88 00 19 27 F0 88
02/10/2025-10:12:18   can0  18FEF100   [8]  F7 00 00 00 00 00 0B F0
02/10/2025-10:12:40   can0  0CF00400   [8]  03 88 88 10 19 27 F0 88
02/10/2025-10:12:43   can0  18FEF100   [8]  F7 00 00 00 00 00 0B F0
02/10/2025-10:13:05   can0  0CF00400   [8]  33 88 88 F8 18 27 F0 88
02/10/2025-10:13:08   can0  18FEF100   [8]  F7 00 00 00 00 00 0B F0
02/10/2025-10:13:30   can0  0CF00400   [8]  63 88 87 08 19 27 F0 88
02/10/2025-10:13:33   can0  18FEF100   [8]  F7 00 00 00 00 00 0B F0
02/10/2025-10:13:55   can0  0CF00400   [8]  03 88 88 00 19 27 F0 88
02/10/2025-10:13:58   can0  18FEF100   [8]  F7 00 00 00 00 00 0B F0
02/10/2025-10:14:20   can0  0CF00400   [8]  33 88 88 00 19 27 F0 88
02/10/2025-10:14:23   can0  18FEF100   [8]  F7 00 00 00 00 00 0B F0
02/10/2025-10:14:45   can0  0CF00400   [8]  13 88 88 00 19 27 F0 88
02/10/2025-10:14:48   can0  18FEF100   [8]  F7 00 00 00 00 00 0B F0
02/10/2025-10:15:10   can0  0CF00400   [8]  23 88 88 00 19 27 F0 88
02/10/2025-10:15:13   can0  18FEF100   [8]  F7 00 00 00 00 00 0B F0
02/10/2025-10:15:35   can0  0CF00400   [8]  03 88 88 08 19 27 F0 88
02/10/2025-10:15:38   can0  18FEF100   [8]  F7 00 00 00 00 00 0B F0
02/10/2025-10:16:00   can0  0CF00400   [8]  23 88 88 F0 18 27 F0 88
02/10/2025-10:16:03   can0  18FEF100   [8]  F7 00 00 00 00 00 0B F0
02/10/2025-10:16:25   can0  0CF00400   [8]  03 88 88 10 19 27 F0 88
02/10/2025-10:16:29   can0  18FEF100   [8]  F7 00 00 00 00 00 0B F0
02/10/2025-10:16:50   can0  0CF00400   [8]  13 88 88 00 19 27 F0 88
02/10/2025-10:16:54   can0  18FEF100   [8]  F7 00 00 00 00 00 0B F0
02/10/2025-10:17:15   can0  0CF00400   [8]  03 88 88 08 19 27 F0 88
02/10/2025-10:17:19   can0  18FEF100   [8]  F7 00 00 00 00 00 0B F0
02/10/2025-10:17:40   can0  0CF00400   [8]  33 88 88 F8 18 27 F0 88
02/10/2025-10:17:44   can0  18FEF100   [8]  F7 00 00 00 00 00 0B F0
02/10/2025-10:18:05   can0  0CF00400   [8]  03 88 88 10 19 27 F0 88
02/10/2025-10:18:09   can0  18FEF100   [8]  F7 00 00 00 00 00 0B F0
02/10/2025-10:18:30   can0  0CF00400   [8]  13 88 88 F8 18 27 F0 88
02/10/2025-10:18:34   can0  18FEF100   [8]  F7 00 00 00 00 00 0B F0
02/10/2025-10:18:55   can0  0CF00400   [8]  73 88 87 10 19 27 F0 88
02/10/2025-10:18:59   can0  18FEF100   [8]  F7 00 00 00 00 00 0B F0
02/10/2025-10:19:20   can0  0CF00400   [8]  23 88 88 F0 18 27 F0 88
02/10/2025-10:19:24   can0  18FEF100   [8]  F7 00 00 00 00 00 0B F0
02/10/2025-10:19:45   can0  0CF00400   [8]  73 92 92 68 25 27 F0 93
02/10/2025-10:19:49   can0  18FEF100   [8]  F7 00 00 00 00 00 0D F0
02/10/2025-10:20:10   can0  0CF00400   [8]  63 87 87 18 19 27 F0 88
02/10/2025-10:20:14   can0  18FEF100   [8]  F7 00 00 00 00 00 0B F0
02/10/2025-10:20:36   can0  0CF00400   [8]  73 88 87 08 19 27 F0 88
02/10/2025-10:20:39   can0  18FEF100   [8]  F7 00 00 00 00 00 0B F0
02/10/2025-10:21:01   can0  0CF00400   [8]  23 88 88 F8 18 27 F0 88
02/10/2025-10:21:04   can0  18FEF100   [8]  F7 00 00 00 00 00 0B F0
02/10/2025-10:21:26   can0  0CF00400   [8]  53 88 87 10 19 27 F0 88
02/10/2025-10:21:29   can0  18FEF100   [8]  F7 00 00 00 00 00 0B F0
02/10/2025-10:21:51   can0  0CF00400   [8]  23 88 88 F8 18 27 F0 88
02/10/2025-10:21:55   can0  18FEF100   [8]  F7 00 00 00 00 00 0B F0
02/10/2025-10:22:16   can0  0CF00400   [8]  73 88 87 08 19 27 F0 88
02/10/2025-10:22:20   can0  18FEF100   [8]  F7 00 00 00 00 00 0B F0
02/10/2025-10:22:41   can0  0CF00400   [8]  13 88 88 F8 18 27 F0 88
02/10/2025-10:22:45   can0  18FEF100   [8]  F7 00 00 00 00 00 0B F0
02/10/2025-10:23:06   can0  0CF00400   [8]  63 87 87 10 19 27 F0 88
02/10/2025-10:23:10   can0  18FEF100   [8]  F7 00 00 00 00 00 0B F0
02/10/2025-10:23:31   can0  0CF00400   [8]  43 90 90 A0 25 27 F0 90
02/10/2025-10:23:35   can0  18FEF100   [8]  F7 00 00 00 00 00 0D F0
02/10/2025-10:23:56   can0  0CF00400   [8]  23 8A 8A A0 25 27 F0 8A
02/10/2025-10:24:00   can0  18FEF100   [8]  F7 00 00 00 00 00 0B F0
02/10/2025-10:24:21   can0  0CF00400   [8]  13 88 88 F8 18 27 F0 88
02/10/2025-10:24:25   can0  18FEF100   [8]  F7 00 00 00 00 00 0B F0
02/10/2025-10:24:46   can0  0CF00400   [8]  53 8D 8C A8 25 27 F0 8D
02/10/2025-10:24:50   can0  18FEF100   [8]  F7 00 00 00 00 00 0B F0
02/10/2025-10:25:11   can0  0CF00400   [8]  03 88 88 08 19 27 F0 88
02/10/2025-10:25:15   can0  18FEF100   [8]  F7 00 00 00 00 00 0B F0
02/10/2025-10:25:36   can0  0CF00400   [8]  20 7D 84 88 14 00 F0 84
02/10/2025-10:25:40   can0  18FEF100   [8]  F7 00 00 00 00 00 03 F0
02/10/2025-10:26:01   can0  0CF00400   [8]  20 7D 84 60 14 00 F0 84
02/10/2025-10:26:05   can0  18FEF100   [8]  F7 00 00 00 00 00 03 F0
02/10/2025-10:26:26   can0  0CF00400   [8]  20 7D 84 58 14 00 F0 84
02/10/2025-10:26:31   can0  18FEF100   [8]  F7 00 00 00 00 00 03 F0
02/10/2025-10:26:51   can0  0CF00400   [8]  40 7D 84 50 14 00 F0 85
02/10/2025-10:26:56   can0  18FEF100   [8]  F7 00 00 00 00 00 03 F0
02/10/2025-10:27:16   can0  0CF00400   [8]  50 7D 84 50 14 00 F0 85
02/10/2025-10:27:21   can0  18FEF100   [8]  F7 00 00 00 00 00 03 F0
02/10/2025-10:27:41   can0  0CF00400   [8]  40 7D 84 50 14 00 F0 84
02/10/2025-10:27:46   can0  18FEF100   [8]  F7 00 00 00 00 00 03 F0
02/10/2025-10:28:06   can0  0CF00400   [8]  30 7D 84 58 14 00 F0 84
02/10/2025-10:28:11   can0  18FEF100   [8]  F7 00 00 00 00 00 03 F0
02/10/2025-10:28:31   can0  0CF00400   [8]  60 7D 84 48 14 00 F0 85
02/10/2025-10:28:36   can0  18FEF100   [8]  F7 00 00 00 00 00 03 F0
02/10/2025-10:28:56   can0  0CF00400   [8]  30 7D 84 58 14 00 F0 84
02/10/2025-10:29:01   can0  18FEF100   [8]  F7 00 00 00 00 00 03 F0
02/10/2025-10:29:21   can0  0CF00400   [8]  50 7D 84 48 14 00 F0 85
02/10/2025-10:29:26   can0  18FEF100   [8]  F7 00 00 00 00 00 03 F0
02/10/2025-10:29:46   can0  0CF00400   [8]  30 7D 84 50 14 00 F0 84
02/10/2025-10:29:51   can0  18FEF100   [8]  F7 00 00 00 00 00 03 F0
02/10/2025-10:30:11   can0  0CF00400   [8]  60 7D 84 48 14 00 F0 85
02/10/2025-10:30:16   can0  18FEF100   [8]  F7 00 00 00 00 00 03 F0
02/10/2025-10:30:36   can0  0CF00400   [8]  40 7D 84 50 14 00 F0 84
02/10/2025-10:30:41   can0  18FEF100   [8]  F3 00 00 10 00 00 00 F0
02/10/2025-10:31:01   can0  0CF00400   [8]  11 83 8A F0 14 27 F0 84
02/10/2025-10:31:06   can0  18FEF100   [8]  F3 36 05 04 00 00 00 F0
02/10/2025-10:31:26   can0  0CF00400   [8]  01 88 88 48 17 27 F0 7D
02/10/2025-10:31:31   can0  18FEF100   [8]  F3 9A 10 04 00 00 00 F0
02/10/2025-10:31:51   can0  0CF00400   [8]  00 7D 85 10 14 00 F0 85
02/10/2025-10:31:56   can0  18FEF100   [8]  F3 F6 00 00 00 00 00 F0
02/10/2025-10:32:16   can0  0CF00400   [8]  30 7D 8A 40 14 00 F0 8A
02/10/2025-10:32:21   can0  18FEF100   [8]  F3 00 00 10 00 00 00 F0
02/10/2025-10:32:41   can0  0CF00400   [8]  20 7D 89 70 14 00 F0 89
02/10/2025-10:32:46   can0  18FEF100   [8]  F3 0F 02 10 00 00 00 F0
02/10/2025-10:33:06   can0  0CF00400   [8]  10 7D 89 40 14 00 F0 89
02/10/2025-10:33:11   can0  18FEF100   [8]  F3 CA 01 10 00 00 00 F0
02/10/2025-10:33:31   can0  0CF00400   [8]  30 7D 83 40 14 00 F0 83
02/10/2025-10:33:36   can0  18FEF100   [8]  F7 00 00 00 00 00 03 F0
02/10/2025-10:33:56   can0  0CF00400   [8]  20 7D 83 48 14 00 F0 83
02/10/2025-10:34:01   can0  18FEF100   [8]  F7 00 00 00 00 00 03 F0
02/10/2025-10:34:21   can0  0CF00400   [8]  70 7D 82 58 14 00 F0 83
02/10/2025-10:34:27   can0  18FEF100   [8]  F7 00 00 00 00 00 03 F0
02/10/2025-10:34:46   can0  0CF00400   [8]  00 7D 83 58 14 00 F0 83
02/10/2025-10:34:52   can0  18FEF100   [8]  F7 00 00 00 00 00 03 F0
                                                                                                                                        CAN;02/10/2025-10:37:13;DOBACK027;Sesión:4;
Fecha-Hora;InterfazCAN;PGN;Número Bytes;Datos
02/10/2025-10:37:13   can0  0CF00400   [8]  01 89 89 C0 2A 27 F0 7D
02/10/2025-10:37:13   can0  18FEF100   [8]  F3 73 17 04 00 00 00 F0
02/10/2025-10:37:38   can0  0CF00400   [8]  01 A5 A7 C0 2D 27 F0 7D
02/10/2025-10:37:38   can0  18FEF100   [8]  F3 AE 13 04 00 00 00 F0
CAN;02/10/2025-10:38:14;DOBACK027;Sesión:5;
Fecha-Hora;InterfazCAN;PGN;Número Bytes;Datos
02/10/2025-10:38:14   can0  0CF00400   [8]  53 88 88 08 19 27 F0 89
02/10/2025-10:38:14   can0  18FEF100   [8]  F7 00 00 00 00 00 0B F0
