CAN;30/09/2025-09:38:54;DOBACK027;Sesión:1;
Fecha-Hora;InterfazCAN;PGN;Número Bytes;Datos
30/09/2025-09:38:54   can0  0CF00400   [8]  20 7D 86 50 14 00 F0 86
30/09/2025-09:38:54   can0  18FEF100   [8]  F7 00 00 00 00 00 03 F0
30/09/2025-09:39:19   can0  0CF00400   [8]  20 7D 86 60 14 00 F0 86
30/09/2025-09:39:19   can0  18FEF100   [8]  F3 00 00 10 00 00 00 F0
30/09/2025-09:39:44   can0  0CF00400   [8]  68 AD A8 D8 24 00 F0 7D
30/09/2025-09:39:44   can0  18FEF100   [8]  F3 5C 08 04 00 00 00 F0
30/09/2025-09:40:09   can0  0CF00400   [8]  01 AD AC 88 2E 27 F0 7D
30/09/2025-09:40:09   can0  18FEF100   [8]  F3 7B 19 04 00 00 00 F0
30/09/2025-09:40:34   can0  0CF00400   [8]  01 9C 9C 48 2D 27 F0 7D
30/09/2025-09:40:34   can0  18FEF100   [8]  F3 AE 20 04 00 00 00 F0
30/09/2025-09:40:59   can0  0CF00400   [8]  00 7D 7D A8 2B 00 F0 7D
30/09/2025-09:40:59   can0  18FEF100   [8]  F3 38 18 04 00 00 00 F0
30/09/2025-09:41:24   can0  0CF00400   [8]  01 91 90 B0 2A 27 F0 7D
30/09/2025-09:41:24   can0  18FEF100   [8]  F3 3D 16 04 00 00 00 F0
30/09/2025-09:41:49   can0  0CF00400   [8]  01 AF AF 18 2D 27 F0 7D
30/09/2025-09:41:49   can0  18FEF100   [8]  F3 40 19 04 00 00 00 F0
30/09/2025-09:42:14   can0  0CF00400   [8]  01 8F 8F 58 30 27 F0 7D
30/09/2025-09:42:14   can0  18FEF100   [8]  F3 45 23 04 00 00 00 F0
30/09/2025-09:42:39   can0  0CF00400   [8]  20 7D 81 40 15 00 F0 81
30/09/2025-09:42:40   can0  18FEF100   [8]  F3 1C 0F 04 00 00 00 F0
30/09/2025-09:43:04   can0  0CF00400   [8]  01 8F 8E B8 33 27 F0 7D
30/09/2025-09:43:05   can0  18FEF100   [8]  F3 F6 25 04 00 00 00 F0
30/09/2025-09:43:29   can0  0CF00400   [8]  01 8D 8D C8 31 27 F0 7D
30/09/2025-09:43:30   can0  18FEF100   [8]  F3 4D 1B 04 00 00 00 F0
30/09/2025-09:43:54   can0  0CF00400   [8]  01 8B 8B C8 20 27 F0 7D
30/09/2025-09:43:55   can0  18FEF100   [8]  F3 3D 17 04 00 00 00 F0
30/09/2025-09:44:19   can0  0CF00400   [8]  30 7D 81 60 14 00 F0 81
30/09/2025-09:44:20   can0  18FEF100   [8]  F3 14 07 10 00 00 00 F0
30/09/2025-09:44:44   can0  0CF00400   [8]  30 7D 83 50 14 00 F0 83
30/09/2025-09:44:45   can0  18FEF100   [8]  F7 00 00 00 00 00 03 F0
30/09/2025-09:45:09   can0  0CF00400   [8]  30 7D 83 58 14 00 F0 83
30/09/2025-09:45:10   can0  18FEF100   [8]  F7 00 00 00 00 00 03 F0
30/09/2025-09:45:34   can0  0CF00400   [8]  40 7D 83 50 14 00 F0 84
30/09/2025-09:45:35   can0  18FEF100   [8]  F7 00 00 00 00 00 03 F0
30/09/2025-09:45:59   can0  0CF00400   [8]  40 7D 83 50 14 00 F0 84
30/09/2025-09:46:00   can0  18FEF100   [8]  F7 00 00 00 00 00 03 F0
30/09/2025-09:46:24   can0  0CF00400   [8]  00 7D 84 50 14 00 F0 84
30/09/2025-09:46:25   can0  18FEF100   [8]  F3 00 00 10 00 00 00 F0
30/09/2025-09:46:49   can0  0CF00400   [8]  01 93 93 30 2D 27 F0 7D
30/09/2025-09:46:50   can0  18FEF100   [8]  F3 94 0C 04 00 00 00 F0
30/09/2025-09:47:14   can0  0CF00400   [8]  01 AC AC F0 30 27 F0 7D
30/09/2025-09:47:15   can0  18FEF100   [8]  F3 2E 15 04 00 00 00 F0
30/09/2025-09:47:39   can0  0CF00400   [8]  01 8F 8E 50 29 27 F0 7D
30/09/2025-09:47:40   can0  18FEF100   [8]  F3 7B 0B 04 00 00 00 F0
30/09/2025-09:48:04   can0  0CF00400   [8]  20 7D 81 48 14 00 F0 81
30/09/2025-09:48:05   can0  18FEF100   [8]  F3 E6 0D 10 00 00 00 F0
30/09/2025-09:48:29   can0  0CF00400   [8]  53 8B 8A 98 17 27 F0 8B
30/09/2025-09:48:30   can0  18FEF100   [8]  F7 00 00 00 00 00 0B F0
30/09/2025-09:48:54   can0  0CF00400   [8]  53 87 87 F0 18 27 F0 88
30/09/2025-09:48:55   can0  18FEF100   [8]  F7 00 00 00 00 00 0B F0
30/09/2025-09:49:19   can0  0CF00400   [8]  23 87 87 08 19 27 F0 87
30/09/2025-09:49:20   can0  18FEF100   [8]  F7 00 00 00 00 00 0B F0
30/09/2025-09:49:44   can0  0CF00400   [8]  03 86 87 F0 18 27 F0 87
30/09/2025-09:49:45   can0  18FEF100   [8]  F7 00 00 00 00 00 0B F0
30/09/2025-09:50:09   can0  0CF00400   [8]  13 88 88 08 19 27 F0 88
30/09/2025-09:50:10   can0  18FEF100   [8]  F7 00 00 00 00 00 0B F0
30/09/2025-09:50:34   can0  0CF00400   [8]  43 88 88 F8 18 27 F0 89
30/09/2025-09:50:35   can0  18FEF100   [8]  F7 00 00 00 00 00 0B F0
30/09/2025-09:50:59   can0  0CF00400   [8]  63 88 88 00 19 27 F0 89
30/09/2025-09:51:00   can0  18FEF100   [8]  F7 00 00 00 00 00 0B F0
30/09/2025-09:51:24   can0  0CF00400   [8]  13 8E 8E 88 25 27 F0 8E
30/09/2025-09:51:25   can0  18FEF100   [8]  F7 00 00 00 00 00 0D F0
30/09/2025-09:51:49   can0  0CF00400   [8]  13 8B 8B 88 25 27 F0 8B
30/09/2025-09:51:50   can0  18FEF100   [8]  F7 00 00 00 00 00 0D F0
30/09/2025-09:52:14   can0  0CF00400   [8]  23 88 88 10 19 27 F0 88
30/09/2025-09:52:15   can0  18FEF100   [8]  F7 00 00 00 00 00 0B F0
30/09/2025-09:52:39   can0  0CF00400   [8]  53 88 88 00 19 27 F0 89
30/09/2025-09:52:40   can0  18FEF100   [8]  F7 00 00 00 00 00 0B F0
30/09/2025-09:53:04   can0  0CF00400   [8]  53 8D 8D 70 25 27 F0 8E
30/09/2025-09:53:05   can0  18FEF100   [8]  F7 00 00 00 00 00 0D F0
30/09/2025-09:53:29   can0  0CF00400   [8]  03 8A 8A 90 25 27 F0 8A
30/09/2025-09:53:30   can0  18FEF100   [8]  F7 00 00 00 00 00 0D F0
30/09/2025-09:53:54   can0  0CF00400   [8]  23 8E 8E 88 25 27 F0 8E
30/09/2025-09:53:55   can0  18FEF100   [8]  F7 00 00 00 00 00 0D F0
30/09/2025-09:54:19   can0  0CF00400   [8]  73 88 87 00 19 27 F0 88
30/09/2025-09:54:20   can0  18FEF100   [8]  F7 00 00 00 00 00 0B F0
30/09/2025-09:54:44   can0  0CF00400   [8]  43 8D 8D 70 25 27 F0 8D
30/09/2025-09:54:45   can0  18FEF100   [8]  F7 00 00 00 00 00 0D F0
30/09/2025-09:55:09   can0  0CF00400   [8]  23 89 89 A8 25 27 F0 89
30/09/2025-09:55:10   can0  18FEF100   [8]  F7 00 00 00 00 00 0D F0
30/09/2025-09:55:34   can0  0CF00400   [8]  63 8B 8B 78 25 27 F0 8C
30/09/2025-09:55:35   can0  18FEF100   [8]  F7 00 00 00 00 00 0D F0
30/09/2025-09:55:59   can0  0CF00400   [8]  53 8B 8B 70 25 27 F0 8C
30/09/2025-09:56:00   can0  18FEF100   [8]  F7 00 00 00 00 00 0D F0
30/09/2025-09:56:24   can0  0CF00400   [8]  13 89 8A 70 25 27 F0 8A
30/09/2025-09:56:25   can0  18FEF100   [8]  F7 00 00 00 00 00 0D F0
30/09/2025-09:56:49   can0  0CF00400   [8]  43 8A 89 A0 25 27 F0 89
30/09/2025-09:56:50   can0  18FEF100   [8]  F7 00 00 00 00 00 0D F0
30/09/2025-09:57:14   can0  0CF00400   [8]  53 8A 89 A0 25 27 F0 8A
30/09/2025-09:57:15   can0  18FEF100   [8]  F7 00 00 00 00 00 0D F0
30/09/2025-09:57:39   can0  0CF00400   [8]  33 8A 89 A8 25 27 F0 89
30/09/2025-09:57:40   can0  18FEF100   [8]  F7 00 00 00 00 00 0D F0
30/09/2025-09:58:04   can0  0CF00400   [8]  43 8A 8A 80 25 27 F0 8A
30/09/2025-09:58:05   can0  18FEF100   [8]  F7 00 00 00 00 00 0D F0
30/09/2025-09:58:29   can0  0CF00400   [8]  23 92 92 E8 25 27 F0 92
30/09/2025-09:58:30   can0  18FEF100   [8]  F7 00 00 00 00 00 0D F0
30/09/2025-09:58:54   can0  0CF00400   [8]  63 90 90 68 25 27 F0 91
30/09/2025-09:58:55   can0  18FEF100   [8]  F7 00 00 00 00 00 0D F0
30/09/2025-09:59:19   can0  0CF00400   [8]  43 8E 8D A0 25 27 F0 8E
30/09/2025-09:59:20   can0  18FEF100   [8]  F7 00 00 00 00 00 0D F0
30/09/2025-09:59:44   can0  0CF00400   [8]  23 8C 8B A0 25 27 F0 8B
30/09/2025-09:59:45   can0  18FEF100   [8]  F7 00 00 00 00 00 0D F0
30/09/2025-10:00:09   can0  0CF00400   [8]  13 87 88 F8 18 27 F0 88
30/09/2025-10:00:10   can0  18FEF100   [8]  F7 00 00 00 00 00 0B F0
30/09/2025-10:00:34   can0  0CF00400   [8]  03 87 88 00 19 27 F0 88
30/09/2025-10:00:35   can0  18FEF100   [8]  F7 00 00 00 00 00 0B F0
30/09/2025-10:00:59   can0  0CF00400   [8]  23 8F 8F E8 18 27 F0 8F
30/09/2025-10:01:00   can0  18FEF100   [8]  F7 00 00 00 00 00 0D F0
30/09/2025-10:01:24   can0  0CF00400   [8]  53 87 87 08 19 27 F0 88
30/09/2025-10:01:25   can0  18FEF100   [8]  F7 00 00 00 00 00 0B F0
30/09/2025-10:01:49   can0  0CF00400   [8]  13 87 88 F0 18 27 F0 88
30/09/2025-10:01:50   can0  18FEF100   [8]  F7 00 00 00 00 00 0B F0
30/09/2025-10:02:14   can0  0CF00400   [8]  63 87 87 08 19 27 F0 88
30/09/2025-10:02:15   can0  18FEF100   [8]  F7 00 00 00 00 00 0B F0
30/09/2025-10:02:39   can0  0CF00400   [8]  40 7D 84 50 14 00 F0 85
30/09/2025-10:02:40   can0  18FEF100   [8]  F7 00 00 00 00 00 03 F0
30/09/2025-10:03:04   can0  0CF00400   [8]  50 7D 8B 70 14 00 F0 8C
30/09/2025-10:03:05   can0  18FEF100   [8]  F3 D4 03 10 00 00 00 F0
CAN;30/09/2025-10:03:50;DOBACK027;Sesión:2;
Fecha-Hora;InterfazCAN;PGN;Número Bytes;Datos
30/09/2025-10:03:50   can0  0CF00400   [8]  20 7D 88 58 14 00 F0 88
30/09/2025-10:03:50   can0  18FEF100   [8]  F3 94 03 10 00 00 00 F0
CAN;30/09/2025-10:05:44;DOBACK027;Sesión:3;
Fecha-Hora;InterfazCAN;PGN;Número Bytes;Datos
30/09/2025-10:05:44   can0  0CF00400   [8]  41 7F 90 08 12 27 F0 8D
30/09/2025-10:05:44   can0  18FEF100   [8]  F7 00 00 00 00 00 03 F0
30/09/2025-10:06:09   can0  0CF00400   [8]  51 7E 8A 58 14 27 F0 8A
30/09/2025-10:06:09   can0  18FEF100   [8]  F7 00 00 00 00 00 03 F0
30/09/2025-10:06:34   can0  0CF00400   [8]  10 7D 8E 58 14 00 F0 8E
30/09/2025-10:06:34   can0  18FEF100   [8]  F7 00 00 10 00 00 00 F0
30/09/2025-10:06:59   can0  0CF00400   [8]  01 99 99 F8 32 27 F0 7D
30/09/2025-10:06:59   can0  18FEF100   [8]  F3 4F 0E 04 00 00 00 F0
