CAN;03/10/2025-09:47:31;DOBACK027;Sesión:1;
Fecha-Hora;InterfazCAN;PGN;Número Bytes;Datos
03/10/2025-09:47:31   can0  0CF00400   [8]  13 8F 95 48 17 27 F0 95
03/10/2025-09:47:31   can0  18FEF100   [8]  F7 00 00 00 00 00 0B F0
03/10/2025-09:47:56   can0  0CF00400   [8]  43 87 87 08 19 27 F0 88
03/10/2025-09:47:56   can0  18FEF100   [8]  F7 00 00 00 00 00 0B F0
03/10/2025-09:48:21   can0  0CF00400   [8]  73 87 87 F8 18 27 F0 88
03/10/2025-09:48:21   can0  18FEF100   [8]  F7 00 00 00 00 00 0B F0
03/10/2025-09:48:46   can0  0CF00400   [8]  53 97 97 60 25 27 F0 98
03/10/2025-09:48:46   can0  18FEF100   [8]  F7 00 00 00 00 00 0D F0
03/10/2025-09:49:11   can0  0CF00400   [8]  63 8F 8F 68 25 27 F0 90
03/10/2025-09:49:11   can0  18FEF100   [8]  F7 00 00 00 00 00 0D F0
03/10/2025-09:49:36   can0  0CF00400   [8]  63 91 91 38 25 27 F0 92
03/10/2025-09:49:36   can0  18FEF100   [8]  F7 00 00 00 00 00 0D F0
03/10/2025-09:50:01   can0  0CF00400   [8]  43 8A 8A 68 25 27 F0 8B
03/10/2025-09:50:01   can0  18FEF100   [8]  F7 00 00 00 00 00 0D F0
03/10/2025-09:50:26   can0  0CF00400   [8]  13 8C 8D 78 25 27 F0 8D
03/10/2025-09:50:26   can0  18FEF100   [8]  F7 00 00 00 00 00 0D F0
03/10/2025-09:50:51   can0  0CF00400   [8]  13 8C 8C 88 25 27 F0 8C
03/10/2025-09:50:51   can0  18FEF100   [8]  F7 00 00 00 00 00 0D F0
03/10/2025-09:51:16   can0  0CF00400   [8]  23 8B 8B 98 25 27 F0 8B
03/10/2025-09:51:16   can0  18FEF100   [8]  F7 00 00 00 00 00 0D F0
03/10/2025-09:51:41   can0  0CF00400   [8]  03 8C 8C A0 25 27 F0 8C
03/10/2025-09:51:41   can0  18FEF100   [8]  F7 00 00 00 00 00 0D F0
03/10/2025-09:52:06   can0  0CF00400   [8]  63 8B 8A 98 25 27 F0 8B
03/10/2025-09:52:06   can0  18FEF100   [8]  F7 00 00 00 00 00 0D F0
03/10/2025-09:52:31   can0  0CF00400   [8]  13 8B 8B 80 25 27 F0 8B
03/10/2025-09:52:31   can0  18FEF100   [8]  F7 00 00 00 00 00 0D F0
03/10/2025-09:52:56   can0  0CF00400   [8]  23 8D 8E 50 25 27 F0 8E
03/10/2025-09:52:56   can0  18FEF100   [8]  F7 00 00 00 00 00 0D F0
03/10/2025-09:53:21   can0  0CF00400   [8]  33 8D 8D 80 25 27 F0 8D
03/10/2025-09:53:21   can0  18FEF100   [8]  F7 00 00 00 00 00 0D F0
03/10/2025-09:53:46   can0  0CF00400   [8]  73 8A 8A 88 25 27 F0 8B
03/10/2025-09:53:46   can0  18FEF100   [8]  F7 00 00 00 00 00 0D F0
03/10/2025-09:54:11   can0  0CF00400   [8]  13 93 A0 18 1E 27 F0 A0
03/10/2025-09:54:12   can0  18FEF100   [8]  F7 00 00 00 00 00 0D F0
03/10/2025-09:54:36   can0  0CF00400   [8]  03 87 87 58 19 27 F0 87
03/10/2025-09:54:37   can0  18FEF100   [8]  F7 00 00 00 00 00 0B F0
03/10/2025-09:55:01   can0  0CF00400   [8]  03 8A 8B 50 25 27 F0 8B
03/10/2025-09:55:02   can0  18FEF100   [8]  F7 00 00 00 00 00 0D F0
03/10/2025-09:55:26   can0  0CF00400   [8]  63 89 89 60 25 27 F0 8A
03/10/2025-09:55:27   can0  18FEF100   [8]  F7 00 00 00 00 00 0D F0
03/10/2025-09:55:51   can0  0CF00400   [8]  03 87 87 20 19 27 F0 87
03/10/2025-09:55:52   can0  18FEF100   [8]  F7 00 00 00 00 00 0B F0
03/10/2025-09:56:16   can0  0CF00400   [8]  73 87 86 00 19 27 F0 87
03/10/2025-09:56:17   can0  18FEF100   [8]  F7 00 00 00 00 00 0B F0
03/10/2025-09:56:41   can0  0CF00400   [8]  33 87 87 F8 18 27 F0 87
03/10/2025-09:56:42   can0  18FEF100   [8]  F7 00 00 00 00 00 0B F0
03/10/2025-09:57:06   can0  0CF00400   [8]  43 88 88 F8 18 27 F0 89
03/10/2025-09:57:07   can0  18FEF100   [8]  F7 00 00 00 00 00 0B F0
03/10/2025-09:57:31   can0  0CF00400   [8]  63 88 88 00 19 27 F0 89
03/10/2025-09:57:32   can0  18FEF100   [8]  F7 00 00 00 00 00 0B F0
03/10/2025-09:57:56   can0  0CF00400   [8]  53 88 88 00 19 27 F0 89
03/10/2025-09:57:57   can0  18FEF100   [8]  F7 00 00 00 00 00 0B F0
03/10/2025-09:58:21   can0  0CF00400   [8]  53 88 88 00 19 27 F0 89
03/10/2025-09:58:22   can0  18FEF100   [8]  F7 00 00 00 00 00 0B F0
03/10/2025-09:58:46   can0  0CF00400   [8]  63 88 88 08 19 27 F0 89
03/10/2025-09:58:47   can0  18FEF100   [8]  F7 00 00 00 00 00 0B F0
03/10/2025-09:59:11   can0  0CF00400   [8]  53 8E 8E 88 25 27 F0 8F
03/10/2025-09:59:12   can0  18FEF100   [8]  F7 00 00 00 00 00 0D F0
03/10/2025-09:59:36   can0  0CF00400   [8]  63 92 92 A8 25 27 F0 93
03/10/2025-09:59:37   can0  18FEF100   [8]  F7 00 00 00 00 00 0D F0
03/10/2025-10:00:01   can0  0CF00400   [8]  73 90 90 60 25 27 F0 91
03/10/2025-10:00:02   can0  18FEF100   [8]  F7 00 00 00 00 00 0D F0
03/10/2025-10:00:26   can0  0CF00400   [8]  13 8A 8B 60 25 27 F0 8B
03/10/2025-10:00:27   can0  18FEF100   [8]  F7 00 00 00 00 00 0D F0
03/10/2025-10:00:51   can0  0CF00400   [8]  43 8C 8C 68 25 27 F0 8D
03/10/2025-10:00:52   can0  18FEF100   [8]  F7 00 00 00 00 00 0D F0
03/10/2025-10:01:16   can0  0CF00400   [8]  43 8D 8C A8 25 27 F0 8C
03/10/2025-10:01:17   can0  18FEF100   [8]  F7 00 00 00 00 00 0D F0
03/10/2025-10:01:41   can0  0CF00400   [8]  13 88 88 28 19 27 F0 88
03/10/2025-10:01:43   can0  18FEF100   [8]  F7 00 00 00 00 00 0B F0
03/10/2025-10:02:06   can0  0CF00400   [8]  03 8A 8A F0 18 27 F0 8A
03/10/2025-10:02:08   can0  18FEF100   [8]  F7 00 00 00 00 00 0D F0
03/10/2025-10:02:31   can0  0CF00400   [8]  33 8C 8C 80 25 27 F0 8C
03/10/2025-10:02:33   can0  18FEF100   [8]  F7 00 00 00 00 00 0D F0
03/10/2025-10:02:56   can0  0CF00400   [8]  53 94 93 90 25 27 F0 94
03/10/2025-10:02:58   can0  18FEF100   [8]  F7 00 00 00 00 00 0D F0
03/10/2025-10:03:21   can0  0CF00400   [8]  08 7D 7D 00 00 00 F0 7D
03/10/2025-10:03:23   can0  18FEF100   [8]  F7 00 00 00 00 00 00 F0
03/10/2025-10:03:46   can0  0CF00400   [8]  23 89 89 10 19 27 F0 89
03/10/2025-10:03:48   can0  18FEF100   [8]  F7 00 00 00 00 00 0B F0
03/10/2025-10:04:11   can0  0CF00400   [8]  33 89 8A D8 18 27 F0 8A
03/10/2025-10:04:13   can0  18FEF100   [8]  F7 00 00 00 00 00 03 F0
03/10/2025-10:04:36   can0  0CF00400   [8]  33 89 89 F8 18 27 F0 89
03/10/2025-10:04:38   can0  18FEF100   [8]  F7 00 00 00 00 00 0B F0
03/10/2025-10:05:01   can0  0CF00400   [8]  53 92 92 68 25 27 F0 93
03/10/2025-10:05:03   can0  18FEF100   [8]  F7 00 00 00 00 00 0D F0
03/10/2025-10:05:26   can0  0CF00400   [8]  53 8A 8A 88 25 27 F0 8B
03/10/2025-10:05:28   can0  18FEF100   [8]  F7 00 00 00 00 00 0D F0
03/10/2025-10:05:51   can0  0CF00400   [8]  63 8F 8F 80 25 27 F0 90
03/10/2025-10:05:54   can0  18FEF100   [8]  F7 00 00 00 00 00 0D F0
03/10/2025-10:06:16   can0  0CF00400   [8]  33 8C 8C 88 25 27 F0 8C
03/10/2025-10:06:19   can0  18FEF100   [8]  F7 00 00 00 00 00 0D F0
03/10/2025-10:06:41   can0  0CF00400   [8]  73 88 87 08 19 27 F0 88
03/10/2025-10:06:44   can0  18FEF100   [8]  F7 00 00 00 00 00 0B F0
03/10/2025-10:07:06   can0  0CF00400   [8]  23 88 88 00 19 27 F0 88
03/10/2025-10:07:09   can0  18FEF100   [8]  F7 00 00 00 00 00 0B F0
03/10/2025-10:07:31   can0  0CF00400   [8]  03 88 88 08 19 27 F0 88
03/10/2025-10:07:34   can0  18FEF100   [8]  F7 00 00 00 00 00 0B F0
03/10/2025-10:07:56   can0  0CF00400   [8]  53 88 88 F0 18 27 F0 89
03/10/2025-10:07:59   can0  18FEF100   [8]  F7 00 00 00 00 00 0B F0
03/10/2025-10:08:21   can0  0CF00400   [8]  73 88 87 10 19 27 F0 88
03/10/2025-10:08:24   can0  18FEF100   [8]  F7 00 00 00 00 00 0B F0
03/10/2025-10:08:46   can0  0CF00400   [8]  23 88 88 F8 18 27 F0 88
03/10/2025-10:08:49   can0  18FEF100   [8]  F7 00 00 00 00 00 0B F0
03/10/2025-10:09:11   can0  0CF00400   [8]  13 88 88 08 19 27 F0 88
03/10/2025-10:09:14   can0  18FEF100   [8]  F7 00 00 00 00 00 0B F0
03/10/2025-10:09:36   can0  0CF00400   [8]  23 88 88 F8 18 27 F0 88
03/10/2025-10:09:39   can0  18FEF100   [8]  F7 00 00 00 00 00 0B F0
03/10/2025-10:10:01   can0  0CF00400   [8]  73 88 87 10 19 27 F0 88
03/10/2025-10:10:05   can0  18FEF100   [8]  F7 00 00 00 00 00 0B F0
03/10/2025-10:10:26   can0  0CF00400   [8]  13 88 88 F8 18 27 F0 88
03/10/2025-10:10:30   can0  18FEF100   [8]  F7 00 00 00 00 00 0B F0
03/10/2025-10:10:51   can0  0CF00400   [8]  73 88 87 10 19 27 F0 88
03/10/2025-10:10:55   can0  18FEF100   [8]  F7 00 00 00 00 00 0B F0
03/10/2025-10:11:16   can0  0CF00400   [8]  23 88 88 F8 18 27 F0 88
03/10/2025-10:11:20   can0  18FEF100   [8]  F7 00 00 00 00 00 0B F0
03/10/2025-10:11:41   can0  0CF00400   [8]  33 88 88 00 19 27 F0 88
03/10/2025-10:11:45   can0  18FEF100   [8]  F7 00 00 00 00 00 0B F0
03/10/2025-10:12:06   can0  0CF00400   [8]  13 88 88 08 19 27 F0 88
03/10/2025-10:12:10   can0  18FEF100   [8]  F7 00 00 00 00 00 0B F0
03/10/2025-10:12:31   can0  0CF00400   [8]  43 88 88 00 19 27 F0 89
03/10/2025-10:12:35   can0  18FEF100   [8]  F7 00 00 00 00 00 0B F0
03/10/2025-10:12:56   can0  0CF00400   [8]  33 88 88 F8 18 27 F0 88
03/10/2025-10:13:00   can0  18FEF100   [8]  F7 00 00 00 00 00 0B F0
03/10/2025-10:13:21   can0  0CF00400   [8]  23 88 88 00 19 27 F0 88
03/10/2025-10:13:25   can0  18FEF100   [8]  F7 00 00 00 00 00 0B F0
03/10/2025-10:13:46   can0  0CF00400   [8]  13 88 88 08 19 27 F0 88
03/10/2025-10:13:50   can0  18FEF100   [8]  F7 00 00 00 00 00 0B F0
03/10/2025-10:14:11   can0  0CF00400   [8]  23 88 88 F8 18 27 F0 88
03/10/2025-10:14:15   can0  18FEF100   [8]  F7 00 00 00 00 00 0B F0
03/10/2025-10:14:36   can0  0CF00400   [8]  23 88 88 18 19 27 F0 88
03/10/2025-10:14:41   can0  18FEF100   [8]  F7 00 00 00 00 00 0B F0
03/10/2025-10:15:01   can0  0CF00400   [8]  13 88 88 00 19 27 F0 88
03/10/2025-10:15:06   can0  18FEF100   [8]  F7 00 00 00 00 00 0B F0
03/10/2025-10:15:26   can0  0CF00400   [8]  23 88 88 00 19 27 F0 88
03/10/2025-10:15:31   can0  18FEF100   [8]  F7 00 00 00 00 00 0B F0
03/10/2025-10:15:51   can0  0CF00400   [8]  13 87 87 08 19 27 F0 87
03/10/2025-10:15:56   can0  18FEF100   [8]  F7 00 00 00 00 00 0B F0
03/10/2025-10:16:16   can0  0CF00400   [8]  53 85 85 00 19 27 F0 86
03/10/2025-10:16:21   can0  18FEF100   [8]  F7 00 00 00 00 00 0B F0
03/10/2025-10:16:41   can0  0CF00400   [8]  43 85 85 08 19 27 F0 86
03/10/2025-10:16:46   can0  18FEF100   [8]  F7 00 00 00 00 00 0B F0
03/10/2025-10:17:06   can0  0CF00400   [8]  63 85 85 F8 18 27 F0 86
03/10/2025-10:17:11   can0  18FEF100   [8]  F7 00 00 00 00 00 0B F0
03/10/2025-10:17:31   can0  0CF00400   [8]  73 88 87 08 19 27 F0 88
03/10/2025-10:17:36   can0  18FEF100   [8]  F7 00 00 00 00 00 0B F0
03/10/2025-10:17:56   can0  0CF00400   [8]  03 88 88 F8 18 27 F0 88
03/10/2025-10:18:01   can0  18FEF100   [8]  F7 00 00 00 00 00 0B F0
03/10/2025-10:18:21   can0  0CF00400   [8]  03 88 88 08 19 27 F0 88
03/10/2025-10:18:26   can0  18FEF100   [8]  F7 00 00 00 00 00 0B F0
03/10/2025-10:18:46   can0  0CF00400   [8]  23 88 88 F8 18 27 F0 88
03/10/2025-10:18:51   can0  18FEF100   [8]  F7 00 00 00 00 00 0B F0
03/10/2025-10:19:11   can0  0CF00400   [8]  63 88 87 18 19 27 F0 88
03/10/2025-10:19:16   can0  18FEF100   [8]  F7 00 00 00 00 00 0B F0
03/10/2025-10:19:36   can0  0CF00400   [8]  03 88 88 00 19 27 F0 88
03/10/2025-10:19:42   can0  18FEF100   [8]  F7 00 00 00 00 00 0B F0
03/10/2025-10:20:01   can0  0CF00400   [8]  33 88 88 00 19 27 F0 88
03/10/2025-10:20:07   can0  18FEF100   [8]  F7 00 00 00 00 00 0B F0
03/10/2025-10:20:26   can0  0CF00400   [8]  23 88 88 00 19 27 F0 88
03/10/2025-10:20:32   can0  18FEF100   [8]  F7 00 00 00 00 00 0B F0
03/10/2025-10:20:51   can0  0CF00400   [8]  43 88 88 F8 18 27 F0 88
03/10/2025-10:20:57   can0  18FEF100   [8]  F7 00 00 00 00 00 0B F0
03/10/2025-10:21:16   can0  0CF00400   [8]  03 88 88 08 19 27 F0 88
03/10/2025-10:21:22   can0  18FEF100   [8]  F7 00 00 00 00 00 0B F0
03/10/2025-10:21:41   can0  0CF00400   [8]  33 88 88 F8 18 27 F0 88
03/10/2025-10:21:47   can0  18FEF100   [8]  F7 00 00 00 00 00 0B F0
03/10/2025-10:22:06   can0  0CF00400   [8]  73 88 87 08 19 27 F0 88
03/10/2025-10:22:12   can0  18FEF100   [8]  F7 00 00 00 00 00 0B F0
03/10/2025-10:22:31   can0  0CF00400   [8]  73 87 87 F8 18 27 F0 88
03/10/2025-10:22:37   can0  18FEF100   [8]  F7 00 00 00 00 00 0B F0
03/10/2025-10:22:56   can0  0CF00400   [8]  73 88 87 10 19 27 F0 88
03/10/2025-10:23:02   can0  18FEF100   [8]  F7 00 00 00 00 00 0B F0
03/10/2025-10:23:21   can0  0CF00400   [8]  43 88 88 F0 18 27 F0 88
03/10/2025-10:23:27   can0  18FEF100   [8]  F7 00 00 00 00 00 0B F0
03/10/2025-10:23:46   can0  0CF00400   [8]  73 88 87 10 19 27 F0 88
03/10/2025-10:23:52   can0  18FEF100   [8]  F7 00 00 00 00 00 0B F0
03/10/2025-10:24:11   can0  0CF00400   [8]  73 87 87 08 19 27 F0 88
03/10/2025-10:24:18   can0  18FEF100   [8]  F7 00 00 00 00 00 0B F0
03/10/2025-10:24:36   can0  0CF00400   [8]  23 88 88 00 19 27 F0 88
03/10/2025-10:24:43   can0  18FEF100   [8]  F7 00 00 00 00 00 0B F0
03/10/2025-10:25:01   can0  0CF00400   [8]  23 88 88 F8 18 27 F0 88
03/10/2025-10:25:08   can0  18FEF100   [8]  F7 00 00 00 00 00 0B F0
03/10/2025-10:25:26   can0  0CF00400   [8]  13 9D 9B E8 23 27 F0 9B
03/10/2025-10:25:33   can0  18FEF100   [8]  F7 00 00 00 00 00 0D F0
03/10/2025-10:25:51   can0  0CF00400   [8]  13 87 88 F8 18 27 F0 88
03/10/2025-10:25:58   can0  18FEF100   [8]  F7 00 00 00 00 00 0B F0
03/10/2025-10:26:16   can0  0CF00400   [8]  73 88 87 00 19 27 F0 88
03/10/2025-10:26:23   can0  18FEF100   [8]  F7 00 00 00 00 00 0B F0
03/10/2025-10:26:41   can0  0CF00400   [8]  13 88 88 00 19 27 F0 88
03/10/2025-10:26:48   can0  18FEF100   [8]  F7 00 00 00 00 00 0B F0
03/10/2025-10:27:06   can0  0CF00400   [8]  43 88 87 08 19 27 F0 88
03/10/2025-10:27:13   can0  18FEF100   [8]  F7 00 00 00 00 00 0B F0
03/10/2025-10:27:31   can0  0CF00400   [8]  73 87 87 F8 18 27 F0 88
03/10/2025-10:27:38   can0  18FEF100   [8]  F7 00 00 00 00 00 0B F0
03/10/2025-10:27:56   can0  0CF00400   [8]  23 88 88 00 19 27 F0 88
03/10/2025-10:28:03   can0  18FEF100   [8]  F7 00 00 00 00 00 0B F0
03/10/2025-10:28:21   can0  0CF00400   [8]  13 88 88 00 19 27 F0 88
03/10/2025-10:28:28   can0  18FEF100   [8]  F7 00 00 00 00 00 0B F0
03/10/2025-10:28:46   can0  0CF00400   [8]  23 88 88 F8 18 27 F0 88
03/10/2025-10:28:53   can0  18FEF100   [8]  F7 00 00 00 00 00 0B F0
03/10/2025-10:29:11   can0  0CF00400   [8]  03 88 88 08 19 27 F0 88
03/10/2025-10:29:18   can0  18FEF100   [8]  F7 00 00 00 00 00 0B F0
03/10/2025-10:29:36   can0  0CF00400   [8]  23 88 88 F8 18 27 F0 88
03/10/2025-10:29:44   can0  18FEF100   [8]  F7 00 00 00 00 00 0B F0
03/10/2025-10:30:01   can0  0CF00400   [8]  43 87 87 10 19 27 F0 88
03/10/2025-10:30:09   can0  18FEF100   [8]  F7 00 00 00 00 00 0B F0
03/10/2025-10:30:26   can0  0CF00400   [8]  73 87 87 00 19 27 F0 88
03/10/2025-10:30:34   can0  18FEF100   [8]  F7 00 00 00 00 00 0B F0
03/10/2025-10:30:51   can0  0CF00400   [8]  23 88 88 F8 18 27 F0 88
03/10/2025-10:30:59   can0  18FEF100   [8]  F7 00 00 00 00 00 0B F0
03/10/2025-10:31:16   can0  0CF00400   [8]  03 88 88 00 19 27 F0 88
03/10/2025-10:31:24   can0  18FEF100   [8]  F7 00 00 00 00 00 0B F0
03/10/2025-10:31:41   can0  0CF00400   [8]  03 87 88 00 19 27 F0 88
03/10/2025-10:31:49   can0  18FEF100   [8]  F7 00 00 00 00 00 0B F0
03/10/2025-10:32:06   can0  0CF00400   [8]  73 88 87 08 19 27 F0 88
03/10/2025-10:32:14   can0  18FEF100   [8]  F7 00 00 00 00 00 0B F0
03/10/2025-10:32:31   can0  0CF00400   [8]  13 87 88 F8 18 27 F0 88
03/10/2025-10:32:39   can0  18FEF100   [8]  F7 00 00 00 00 00 0B F0
03/10/2025-10:32:56   can0  0CF00400   [8]  43 87 87 18 19 27 F0 87
03/10/2025-10:33:04   can0  18FEF100   [8]  F7 00 00 00 00 00 0B F0
03/10/2025-10:33:21   can0  0CF00400   [8]  63 87 87 00 19 27 F0 88
03/10/2025-10:33:29   can0  18FEF100   [8]  F7 00 00 00 00 00 0B F0
03/10/2025-10:33:46   can0  0CF00400   [8]  63 88 87 08 19 27 F0 88
03/10/2025-10:33:54   can0  18FEF100   [8]  F7 00 00 00 00 00 0B F0
03/10/2025-10:34:11   can0  0CF00400   [8]  03 87 88 F0 18 27 F0 88
03/10/2025-10:34:19   can0  18FEF100   [8]  F7 00 00 00 00 00 0B F0
03/10/2025-10:34:36   can0  0CF00400   [8]  03 87 88 00 19 27 F0 88
03/10/2025-10:34:44   can0  18FEF100   [8]  F7 00 00 00 00 00 0B F0
03/10/2025-10:35:01   can0  0CF00400   [8]  73 88 87 08 19 27 F0 88
03/10/2025-10:35:09   can0  18FEF100   [8]  F3 00 00 10 00 00 00 F0
03/10/2025-10:35:26   can0  0CF00400   [8]  01 8F 8F 40 38 27 F0 7D
03/10/2025-10:35:34   can0  18FEF100   [8]  F3 33 0E 04 00 00 00 F0
03/10/2025-10:35:51   can0  0CF00400   [8]  30 7D 88 30 14 00 F0 88
03/10/2025-10:35:59   can0  18FEF100   [8]  F3 31 03 10 00 00 00 F0
03/10/2025-10:36:16   can0  0CF00400   [8]  00 7D 88 40 14 00 F0 88
03/10/2025-10:36:24   can0  18FEF100   [8]  F3 B8 01 10 00 00 00 F0
CAN;03/10/2025-10:38:22;DOBACK027;Sesión:2;
Fecha-Hora;InterfazCAN;PGN;Número Bytes;Datos
03/10/2025-10:38:22   can0  0CF00400   [8]  01 84 84 C0 16 27 F0 7D
03/10/2025-10:38:22   can0  18FEF100   [8]  F3 FD 06 04 00 00 00 F0
03/10/2025-10:38:46   can0  0CF00400   [8]  01 8D 8D 40 33 27 F0 7D
03/10/2025-10:38:47   can0  18FEF100   [8]  F3 E1 0E 04 00 00 00 F0
