CAN;07/10/2025-09:56:05;DOBACK027;Sesión:1;
Fecha-Hora;InterfazCAN;PGN;Número Bytes;Datos
07/10/2025-09:56:05   can0  0CF00400   [8]  20 7D 86 58 14 00 F0 86
07/10/2025-09:56:05   can0  18FEF100   [8]  F3 00 00 10 00 00 00 F0
07/10/2025-09:56:30   can0  0CF00400   [8]  01 9E 9F 80 28 27 F0 7D
07/10/2025-09:56:30   can0  18FEF100   [8]  F3 71 0A 04 00 00 00 F0
07/10/2025-09:56:55   can0  0CF00400   [8]  10 7D 86 B8 14 00 F0 86
07/10/2025-09:56:55   can0  18FEF100   [8]  F7 00 00 00 00 00 00 F0
07/10/2025-09:57:20   can0  0CF00400   [8]  40 7D 85 40 14 00 F0 86
07/10/2025-09:57:20   can0  18FEF100   [8]  F7 00 00 00 00 00 03 F0
07/10/2025-09:57:45   can0  0CF00400   [8]  00 7D 85 58 14 00 F0 85
07/10/2025-09:57:45   can0  18FEF100   [8]  F7 00 00 00 00 00 03 F0
07/10/2025-09:58:10   can0  0CF00400   [8]  20 7D 85 50 14 00 F0 85
07/10/2025-09:58:10   can0  18FEF100   [8]  F7 00 00 00 00 00 03 F0
07/10/2025-09:58:35   can0  0CF00400   [8]  60 7D 85 30 14 00 F0 86
07/10/2025-09:58:35   can0  18FEF100   [8]  F7 00 00 00 00 00 03 F0
07/10/2025-09:59:00   can0  0CF00400   [8]  20 7D 85 50 14 00 F0 85
07/10/2025-09:59:00   can0  18FEF100   [8]  F7 00 00 00 00 00 03 F0
07/10/2025-09:59:25   can0  0CF00400   [8]  10 7D 85 58 14 00 F0 85
07/10/2025-09:59:25   can0  18FEF100   [8]  F7 00 00 00 00 00 03 F0
07/10/2025-09:59:50   can0  0CF00400   [8]  10 7D 85 50 14 00 F0 85
07/10/2025-09:59:50   can0  18FEF100   [8]  F7 00 00 00 00 00 03 F0
07/10/2025-10:00:15   can0  0CF00400   [8]  50 7D 85 40 14 00 F0 86
07/10/2025-10:00:16   can0  18FEF100   [8]  F7 00 00 00 00 00 03 F0
07/10/2025-10:00:40   can0  0CF00400   [8]  40 7D 84 70 14 00 F0 84
07/10/2025-10:00:41   can0  18FEF100   [8]  F7 00 00 00 00 00 03 F0
07/10/2025-10:01:05   can0  0CF00400   [8]  50 7D 84 60 14 00 F0 85
07/10/2025-10:01:06   can0  18FEF100   [8]  F7 00 00 00 00 00 03 F0
07/10/2025-10:01:30   can0  0CF00400   [8]  50 7D 84 60 14 00 F0 85
07/10/2025-10:01:31   can0  18FEF100   [8]  F7 00 00 00 00 00 03 F0
07/10/2025-10:01:55   can0  0CF00400   [8]  70 7D 84 48 14 00 F0 85
07/10/2025-10:01:56   can0  18FEF100   [8]  F7 00 00 00 00 00 03 F0
07/10/2025-10:02:20   can0  0CF00400   [8]  20 7D 84 70 14 00 F0 84
07/10/2025-10:02:21   can0  18FEF100   [8]  F7 00 00 00 00 00 03 F0
07/10/2025-10:02:45   can0  0CF00400   [8]  60 7D 84 50 14 00 F0 85
07/10/2025-10:02:46   can0  18FEF100   [8]  F7 00 00 00 00 00 03 F0
07/10/2025-10:03:10   can0  0CF00400   [8]  70 7D 84 50 14 00 F0 85
07/10/2025-10:03:11   can0  18FEF100   [8]  F7 00 00 00 00 00 03 F0
07/10/2025-10:03:35   can0  0CF00400   [8]  50 7D 84 50 14 00 F0 85
07/10/2025-10:03:36   can0  18FEF100   [8]  F7 00 00 00 00 00 03 F0
07/10/2025-10:04:00   can0  0CF00400   [8]  40 7D 84 58 14 00 F0 84
07/10/2025-10:04:01   can0  18FEF100   [8]  F7 00 00 00 00 00 03 F0
07/10/2025-10:04:25   can0  0CF00400   [8]  20 7D 85 38 14 00 F0 85
07/10/2025-10:04:26   can0  18FEF100   [8]  F7 00 00 00 00 00 03 F0
07/10/2025-10:04:50   can0  0CF00400   [8]  33 8C 8C 90 25 27 F0 8C
07/10/2025-10:04:51   can0  18FEF100   [8]  F7 00 00 00 00 00 09 F0
07/10/2025-10:05:15   can0  0CF00400   [8]  53 87 87 E8 18 27 F0 88
07/10/2025-10:05:16   can0  18FEF100   [8]  F7 00 00 00 00 00 0B F0
07/10/2025-10:05:40   can0  0CF00400   [8]  73 87 86 18 19 27 F0 87
07/10/2025-10:05:41   can0  18FEF100   [8]  F7 00 00 00 00 00 0B F0
07/10/2025-10:06:05   can0  0CF00400   [8]  33 87 87 00 19 27 F0 87
07/10/2025-10:06:06   can0  18FEF100   [8]  F7 00 00 00 00 00 0B F0
07/10/2025-10:06:30   can0  0CF00400   [8]  53 9A 94 C8 23 27 F0 95
07/10/2025-10:06:31   can0  18FEF100   [8]  F7 00 00 00 00 00 0D F0
07/10/2025-10:06:55   can0  0CF00400   [8]  33 87 87 F0 18 27 F0 87
07/10/2025-10:06:56   can0  18FEF100   [8]  F7 00 00 00 00 00 0B F0
07/10/2025-10:07:20   can0  0CF00400   [8]  43 87 86 10 19 27 F0 87
07/10/2025-10:07:21   can0  18FEF100   [8]  F7 00 00 00 00 00 0B F0
07/10/2025-10:07:45   can0  0CF00400   [8]  03 87 87 00 19 27 F0 87
07/10/2025-10:07:46   can0  18FEF100   [8]  F7 00 00 00 00 00 0B F0
07/10/2025-10:08:10   can0  0CF00400   [8]  13 87 87 F8 18 27 F0 87
07/10/2025-10:08:11   can0  18FEF100   [8]  F7 00 00 00 00 00 0B F0
07/10/2025-10:08:35   can0  0CF00400   [8]  33 86 86 18 19 27 F0 86
07/10/2025-10:08:36   can0  18FEF100   [8]  F7 00 00 00 00 00 0B F0
07/10/2025-10:09:00   can0  0CF00400   [8]  63 86 86 00 19 27 F0 87
07/10/2025-10:09:01   can0  18FEF100   [8]  F7 00 00 00 00 00 0B F0
07/10/2025-10:09:25   can0  0CF00400   [8]  03 86 87 F8 18 27 F0 87
07/10/2025-10:09:26   can0  18FEF100   [8]  F7 00 00 00 00 00 0B F0
07/10/2025-10:09:50   can0  0CF00400   [8]  63 8A 8A 68 25 27 F0 8B
07/10/2025-10:09:51   can0  18FEF100   [8]  F7 00 00 00 00 00 0D F0
07/10/2025-10:10:15   can0  0CF00400   [8]  23 8C 8C 70 25 27 F0 8C
07/10/2025-10:10:16   can0  18FEF100   [8]  F7 00 00 00 00 00 0D F0
07/10/2025-10:10:40   can0  0CF00400   [8]  53 8C 8C 70 25 27 F0 8D
07/10/2025-10:10:41   can0  18FEF100   [8]  F7 00 00 00 00 00 0D F0
07/10/2025-10:11:05   can0  0CF00400   [8]  23 88 88 10 19 27 F0 88
07/10/2025-10:11:06   can0  18FEF100   [8]  F7 00 00 00 00 00 0B F0
07/10/2025-10:11:30   can0  0CF00400   [8]  63 88 88 F8 18 27 F0 89
07/10/2025-10:11:31   can0  18FEF100   [8]  F7 00 00 00 00 00 0B F0
07/10/2025-10:11:55   can0  0CF00400   [8]  73 88 88 00 19 27 F0 89
07/10/2025-10:11:56   can0  18FEF100   [8]  F7 00 00 00 00 00 0B F0
07/10/2025-10:12:20   can0  0CF00400   [8]  03 89 89 00 19 27 F0 89
07/10/2025-10:12:22   can0  18FEF100   [8]  F7 00 00 00 00 00 0B F0
07/10/2025-10:12:45   can0  0CF00400   [8]  73 88 88 00 19 27 F0 89
07/10/2025-10:12:47   can0  18FEF100   [8]  F7 00 00 00 00 00 0B F0
07/10/2025-10:13:10   can0  0CF00400   [8]  23 88 88 18 19 27 F0 88
07/10/2025-10:13:12   can0  18FEF100   [8]  F7 00 00 00 00 00 0B F0
07/10/2025-10:13:35   can0  0CF00400   [8]  73 88 88 00 19 27 F0 89
07/10/2025-10:13:37   can0  18FEF100   [8]  F7 00 00 00 00 00 0B F0
07/10/2025-10:14:00   can0  0CF00400   [8]  53 88 88 08 19 27 F0 89
07/10/2025-10:14:02   can0  18FEF100   [8]  F7 00 00 00 00 00 0B F0
07/10/2025-10:14:25   can0  0CF00400   [8]  63 88 88 F8 18 27 F0 89
07/10/2025-10:14:27   can0  18FEF100   [8]  F7 00 00 00 00 00 0B F0
07/10/2025-10:14:50   can0  0CF00400   [8]  33 88 88 08 19 27 F0 88
07/10/2025-10:14:52   can0  18FEF100   [8]  F7 00 00 00 00 00 0B F0
07/10/2025-10:15:15   can0  0CF00400   [8]  53 89 89 F8 18 27 F0 8A
07/10/2025-10:15:17   can0  18FEF100   [8]  F7 00 00 00 00 00 0B F0
07/10/2025-10:15:40   can0  0CF00400   [8]  33 89 89 08 19 27 F0 89
07/10/2025-10:15:42   can0  18FEF100   [8]  F7 00 00 00 00 00 0B F0
07/10/2025-10:16:05   can0  0CF00400   [8]  33 89 89 F8 18 27 F0 89
07/10/2025-10:16:07   can0  18FEF100   [8]  F7 00 00 00 00 00 0B F0
07/10/2025-10:16:30   can0  0CF00400   [8]  13 89 89 10 19 27 F0 89
07/10/2025-10:16:32   can0  18FEF100   [8]  F7 00 00 00 00 00 0B F0
07/10/2025-10:16:55   can0  0CF00400   [8]  03 89 89 08 19 27 F0 89
07/10/2025-10:16:57   can0  18FEF100   [8]  F7 00 00 00 00 00 0B F0
07/10/2025-10:17:20   can0  0CF00400   [8]  43 89 88 10 19 27 F0 88
07/10/2025-10:17:22   can0  18FEF100   [8]  F7 00 00 00 00 00 0B F0
07/10/2025-10:17:45   can0  0CF00400   [8]  03 89 89 00 19 27 F0 89
07/10/2025-10:17:47   can0  18FEF100   [8]  F7 00 00 00 00 00 0B F0
07/10/2025-10:18:10   can0  0CF00400   [8]  13 89 89 00 19 27 F0 89
07/10/2025-10:18:12   can0  18FEF100   [8]  F7 00 00 00 00 00 0B F0
07/10/2025-10:18:35   can0  0CF00400   [8]  13 89 89 08 19 27 F0 89
07/10/2025-10:18:37   can0  18FEF100   [8]  F7 00 00 00 00 00 0B F0
07/10/2025-10:19:00   can0  0CF00400   [8]  73 89 88 08 19 27 F0 89
07/10/2025-10:19:02   can0  18FEF100   [8]  F7 00 00 00 00 00 0B F0
07/10/2025-10:19:25   can0  0CF00400   [8]  03 89 89 F8 18 27 F0 89
07/10/2025-10:19:27   can0  18FEF100   [8]  F7 00 00 00 00 00 0B F0
07/10/2025-10:19:50   can0  0CF00400   [8]  63 88 88 00 19 27 F0 89
07/10/2025-10:19:52   can0  18FEF100   [8]  F7 00 00 00 00 00 0B F0
07/10/2025-10:20:15   can0  0CF00400   [8]  73 88 88 00 19 27 F0 89
07/10/2025-10:20:17   can0  18FEF100   [8]  F7 00 00 00 00 00 0B F0
07/10/2025-10:20:40   can0  0CF00400   [8]  13 88 89 00 19 27 F0 89
07/10/2025-10:20:42   can0  18FEF100   [8]  F7 00 00 00 00 00 0B F0
07/10/2025-10:21:05   can0  0CF00400   [8]  03 89 89 00 19 27 F0 89
07/10/2025-10:21:07   can0  18FEF100   [8]  F7 00 00 00 00 00 0B F0
07/10/2025-10:21:30   can0  0CF00400   [8]  23 89 89 00 19 27 F0 89
07/10/2025-10:21:32   can0  18FEF100   [8]  F7 00 00 00 00 00 0B F0
07/10/2025-10:21:55   can0  0CF00400   [8]  63 88 88 08 19 27 F0 89
07/10/2025-10:21:58   can0  18FEF100   [8]  F7 00 00 00 00 00 0B F0
07/10/2025-10:22:20   can0  0CF00400   [8]  03 89 89 08 19 27 F0 89
07/10/2025-10:22:23   can0  18FEF100   [8]  F7 00 00 00 00 00 0B F0
07/10/2025-10:22:45   can0  0CF00400   [8]  43 88 88 10 19 27 F0 89
07/10/2025-10:22:48   can0  18FEF100   [8]  F7 00 00 00 00 00 0B F0
07/10/2025-10:23:10   can0  0CF00400   [8]  53 88 88 08 19 27 F0 89
07/10/2025-10:23:13   can0  18FEF100   [8]  F7 00 00 00 00 00 0B F0
07/10/2025-10:23:35   can0  0CF00400   [8]  73 88 88 F8 18 27 F0 89
07/10/2025-10:23:38   can0  18FEF100   [8]  F7 00 00 00 00 00 0B F0
07/10/2025-10:24:00   can0  0CF00400   [8]  63 8D 8C 90 25 27 F0 8D
07/10/2025-10:24:03   can0  18FEF100   [8]  F7 00 00 00 00 00 0D F0
07/10/2025-10:24:25   can0  0CF00400   [8]  13 8A 8A A0 25 27 F0 8A
07/10/2025-10:24:28   can0  18FEF100   [8]  F7 00 00 00 00 00 0B F0
07/10/2025-10:24:50   can0  0CF00400   [8]  08 7D 7D 00 00 00 F0 7D
07/10/2025-10:24:53   can0  18FEF100   [8]  F7 00 00 00 00 00 00 F0
07/10/2025-10:25:15   can0  0CF00400   [8]  08 7D 7D 00 00 00 F0 7D
07/10/2025-10:25:18   can0  18FEF100   [8]  F7 00 00 00 00 00 00 F0
07/10/2025-10:25:40   can0  0CF00400   [8]  08 7D 7D 00 00 00 F0 7D
07/10/2025-10:25:43   can0  18FEF100   [8]  F7 00 00 00 00 00 00 F0
07/10/2025-10:26:05   can0  0CF00400   [8]  33 89 89 08 19 27 F0 89
07/10/2025-10:26:08   can0  18FEF100   [8]  F7 00 00 00 00 00 0B F0
07/10/2025-10:26:30   can0  0CF00400   [8]  13 8F 8F 78 25 27 F0 8F
07/10/2025-10:26:33   can0  18FEF100   [8]  F7 00 00 00 00 00 0D F0
07/10/2025-10:26:55   can0  0CF00400   [8]  63 8D 8D 80 25 27 F0 8E
07/10/2025-10:26:58   can0  18FEF100   [8]  F7 00 00 00 00 00 0D F0
07/10/2025-10:27:20   can0  0CF00400   [8]  63 8C 8C A8 25 27 F0 8D
07/10/2025-10:27:23   can0  18FEF100   [8]  F7 00 00 00 00 00 0D F0
07/10/2025-10:27:45   can0  0CF00400   [8]  53 88 88 F8 18 27 F0 89
07/10/2025-10:27:48   can0  18FEF100   [8]  F7 00 00 00 00 00 0B F0
07/10/2025-10:28:10   can0  0CF00400   [8]  13 88 89 F8 18 27 F0 89
07/10/2025-10:28:13   can0  18FEF100   [8]  F7 00 00 00 00 00 0B F0
07/10/2025-10:28:35   can0  0CF00400   [8]  08 7D 7D 00 00 00 F0 7D
07/10/2025-10:28:38   can0  18FEF100   [8]  F7 00 00 00 00 00 00 F0
07/10/2025-10:29:00   can0  0CF00400   [8]  08 7D 7D 00 00 00 F0 7D
07/10/2025-10:29:03   can0  18FEF100   [8]  F7 00 00 00 00 00 00 F0
07/10/2025-10:29:25   can0  0CF00400   [8]  08 7D 7D 00 00 00 F0 7D
07/10/2025-10:29:28   can0  18FEF100   [8]  F7 00 00 00 00 00 00 F0
07/10/2025-10:29:50   can0  0CF00400   [8]  23 8F 8C A8 23 27 F0 8C
07/10/2025-10:29:53   can0  18FEF100   [8]  F7 00 00 00 00 00 0D F0
07/10/2025-10:30:15   can0  0CF00400   [8]  13 8C 8C A8 25 27 F0 8C
07/10/2025-10:30:18   can0  18FEF100   [8]  F7 00 00 00 00 00 0D F0
07/10/2025-10:30:40   can0  0CF00400   [8]  13 88 88 08 19 27 F0 88
07/10/2025-10:30:43   can0  18FEF100   [8]  F7 00 00 00 00 00 0B F0
07/10/2025-10:31:05   can0  0CF00400   [8]  73 88 87 08 19 27 F0 88
07/10/2025-10:31:08   can0  18FEF100   [8]  F7 00 00 00 00 00 0B F0
07/10/2025-10:31:30   can0  0CF00400   [8]  23 88 88 F0 18 27 F0 88
07/10/2025-10:31:33   can0  18FEF100   [8]  F7 00 00 00 00 00 0B F0
07/10/2025-10:31:55   can0  0CF00400   [8]  43 87 87 10 19 27 F0 88
07/10/2025-10:31:58   can0  18FEF100   [8]  F7 00 00 00 00 00 0B F0
07/10/2025-10:32:20   can0  0CF00400   [8]  53 8B 8B 78 25 27 F0 8C
07/10/2025-10:32:23   can0  18FEF100   [8]  F7 00 00 00 00 00 0D F0
07/10/2025-10:32:45   can0  0CF00400   [8]  73 8B 8A 78 25 27 F0 8B
07/10/2025-10:32:48   can0  18FEF100   [8]  F7 00 00 00 00 00 0D F0
07/10/2025-10:33:10   can0  0CF00400   [8]  23 8B 8B 78 25 27 F0 8B
07/10/2025-10:33:13   can0  18FEF100   [8]  F7 00 00 00 00 00 0D F0
07/10/2025-10:33:35   can0  0CF00400   [8]  03 89 8A 68 25 27 F0 8A
07/10/2025-10:33:38   can0  18FEF100   [8]  F7 00 00 00 00 00 0D F0
07/10/2025-10:34:00   can0  0CF00400   [8]  33 8A 8A 88 25 27 F0 8A
07/10/2025-10:34:03   can0  18FEF100   [8]  F7 00 00 00 00 00 0D F0
07/10/2025-10:34:25   can0  0CF00400   [8]  43 8A 8A 80 25 27 F0 8B
07/10/2025-10:34:28   can0  18FEF100   [8]  F7 00 00 00 00 00 0D F0
07/10/2025-10:34:50   can0  0CF00400   [8]  03 8B 8B 80 25 27 F0 8B
07/10/2025-10:34:53   can0  18FEF100   [8]  F7 00 00 00 00 00 0D F0
07/10/2025-10:35:15   can0  0CF00400   [8]  23 8B 8B 78 25 27 F0 8B
07/10/2025-10:35:18   can0  18FEF100   [8]  F7 00 00 00 00 00 0D F0
07/10/2025-10:35:40   can0  0CF00400   [8]  43 87 87 00 19 27 F0 88
07/10/2025-10:35:43   can0  18FEF100   [8]  F7 00 00 00 00 00 0B F0
07/10/2025-10:36:05   can0  0CF00400   [8]  13 87 87 10 19 27 F0 87
07/10/2025-10:36:08   can0  18FEF100   [8]  F7 00 00 00 00 00 0B F0
07/10/2025-10:36:30   can0  0CF00400   [8]  53 87 87 F8 18 27 F0 88
07/10/2025-10:36:33   can0  18FEF100   [8]  F7 00 00 00 00 00 0B F0
07/10/2025-10:36:55   can0  0CF00400   [8]  43 87 87 00 19 27 F0 88
07/10/2025-10:36:58   can0  18FEF100   [8]  F7 00 00 00 00 00 0B F0
07/10/2025-10:37:20   can0  0CF00400   [8]  33 87 87 08 19 27 F0 87
07/10/2025-10:37:23   can0  18FEF100   [8]  F7 00 00 00 00 00 0B F0
07/10/2025-10:37:45   can0  0CF00400   [8]  08 9E A2 50 1E 00 F0 A2
07/10/2025-10:37:48   can0  18FEF100   [8]  F7 00 00 00 00 00 0D F0
07/10/2025-10:38:10   can0  0CF00400   [8]  33 87 87 08 19 27 F0 87
07/10/2025-10:38:13   can0  18FEF100   [8]  F7 00 00 00 00 00 0B F0
07/10/2025-10:38:35   can0  0CF00400   [8]  13 88 88 98 25 27 F0 88
07/10/2025-10:38:39   can0  18FEF100   [8]  F7 00 00 00 00 00 0D F0
07/10/2025-10:39:00   can0  0CF00400   [8]  53 8B 8A 90 25 27 F0 8B
07/10/2025-10:39:04   can0  18FEF100   [8]  F7 00 00 00 00 00 0D F0
07/10/2025-10:39:25   can0  0CF00400   [8]  53 87 87 00 19 27 F0 88
07/10/2025-10:39:29   can0  18FEF100   [8]  F7 00 00 00 00 00 0B F0
07/10/2025-10:39:50   can0  0CF00400   [8]  43 87 87 00 19 27 F0 87
07/10/2025-10:39:54   can0  18FEF100   [8]  F7 00 00 00 00 00 0B F0
07/10/2025-10:40:15   can0  0CF00400   [8]  63 87 87 00 19 27 F0 88
07/10/2025-10:40:19   can0  18FEF100   [8]  F7 00 00 00 00 00 0B F0
07/10/2025-10:40:40   can0  0CF00400   [8]  43 8B 8B 60 25 27 F0 8C
07/10/2025-10:40:44   can0  18FEF100   [8]  F7 00 00 00 00 00 0D F0
07/10/2025-10:41:05   can0  0CF00400   [8]  13 8A 8B 38 25 27 F0 8B
07/10/2025-10:41:09   can0  18FEF100   [8]  F7 00 00 00 00 00 0D F0
07/10/2025-10:41:30   can0  0CF00400   [8]  23 87 87 00 19 27 F0 87
07/10/2025-10:41:34   can0  18FEF100   [8]  F7 00 00 00 00 00 0B F0
07/10/2025-10:41:55   can0  0CF00400   [8]  23 87 87 08 19 27 F0 87
07/10/2025-10:41:59   can0  18FEF100   [8]  F7 00 00 00 00 00 0B F0
07/10/2025-10:42:20   can0  0CF00400   [8]  33 87 87 00 19 27 F0 87
07/10/2025-10:42:24   can0  18FEF100   [8]  F7 00 00 00 00 00 0B F0
07/10/2025-10:42:45   can0  0CF00400   [8]  43 87 87 00 19 27 F0 88
07/10/2025-10:42:49   can0  18FEF100   [8]  F7 00 00 00 00 00 0B F0
07/10/2025-10:43:10   can0  0CF00400   [8]  03 8B 8B 70 25 27 F0 8B
07/10/2025-10:43:14   can0  18FEF100   [8]  F7 00 00 00 00 00 0D F0
07/10/2025-10:43:35   can0  0CF00400   [8]  23 89 89 70 25 27 F0 89
07/10/2025-10:43:39   can0  18FEF100   [8]  F7 00 00 00 00 00 0D F0
07/10/2025-10:44:01   can0  0CF00400   [8]  03 87 87 10 19 27 F0 87
07/10/2025-10:44:04   can0  18FEF100   [8]  F7 00 00 00 00 00 0B F0
07/10/2025-10:44:26   can0  0CF00400   [8]  33 87 87 F8 18 27 F0 87
07/10/2025-10:44:29   can0  18FEF100   [8]  F7 00 00 00 00 00 0B F0
07/10/2025-10:44:51   can0  0CF00400   [8]  43 87 87 00 19 27 F0 88
07/10/2025-10:44:54   can0  18FEF100   [8]  F7 00 00 00 00 00 0D F0
07/10/2025-10:45:16   can0  0CF00400   [8]  73 88 88 60 25 27 F0 89
07/10/2025-10:45:19   can0  18FEF100   [8]  F7 00 00 00 00 00 0B F0
07/10/2025-10:45:41   can0  0CF00400   [8]  13 87 88 68 25 27 F0 88
07/10/2025-10:45:44   can0  18FEF100   [8]  F7 00 00 00 00 00 0B F0
07/10/2025-10:46:06   can0  0CF00400   [8]  23 87 87 08 19 27 F0 87
07/10/2025-10:46:09   can0  18FEF100   [8]  F7 00 00 00 00 00 0B F0
07/10/2025-10:46:31   can0  0CF00400   [8]  33 87 87 00 19 27 F0 87
07/10/2025-10:46:34   can0  18FEF100   [8]  F7 00 00 00 00 00 0B F0
07/10/2025-10:46:56   can0  0CF00400   [8]  23 87 87 10 19 27 F0 87
07/10/2025-10:46:59   can0  18FEF100   [8]  F7 00 00 00 00 00 0B F0
07/10/2025-10:47:21   can0  0CF00400   [8]  33 87 87 F8 18 27 F0 87
07/10/2025-10:47:25   can0  18FEF100   [8]  F7 00 00 00 00 00 0B F0
07/10/2025-10:47:46   can0  0CF00400   [8]  03 88 88 78 25 27 F0 88
07/10/2025-10:47:50   can0  18FEF100   [8]  F7 00 00 00 00 00 0D F0
07/10/2025-10:48:11   can0  0CF00400   [8]  53 87 87 00 19 27 F0 88
07/10/2025-10:48:15   can0  18FEF100   [8]  F7 00 00 00 00 00 0B F0
07/10/2025-10:48:36   can0  0CF00400   [8]  53 87 87 F8 18 27 F0 88
07/10/2025-10:48:40   can0  18FEF100   [8]  F7 00 00 00 00 00 0B F0
07/10/2025-10:49:01   can0  0CF00400   [8]  53 87 87 00 19 27 F0 88
07/10/2025-10:49:05   can0  18FEF100   [8]  F7 00 00 00 00 00 0B F0
07/10/2025-10:49:26   can0  0CF00400   [8]  43 87 87 00 19 27 F0 88
07/10/2025-10:49:30   can0  18FEF100   [8]  F7 00 00 00 00 00 0B F0
07/10/2025-10:49:51   can0  0CF00400   [8]  03 8A 8B 80 25 27 F0 8B
07/10/2025-10:49:55   can0  18FEF100   [8]  F7 00 00 00 00 00 0D F0
07/10/2025-10:50:16   can0  0CF00400   [8]  63 88 87 98 25 27 F0 88
07/10/2025-10:50:20   can0  18FEF100   [8]  F7 00 00 00 00 00 0D F0
07/10/2025-10:50:41   can0  0CF00400   [8]  13 88 88 70 25 27 F0 88
07/10/2025-10:50:45   can0  18FEF100   [8]  F7 00 00 00 00 00 0D F0
07/10/2025-10:51:06   can0  0CF00400   [8]  13 87 87 08 19 27 F0 87
07/10/2025-10:51:10   can0  18FEF100   [8]  F7 00 00 00 00 00 0B F0
07/10/2025-10:51:31   can0  0CF00400   [8]  43 87 87 00 19 27 F0 87
07/10/2025-10:51:35   can0  18FEF100   [8]  F7 00 00 00 00 00 0B F0
07/10/2025-10:51:56   can0  0CF00400   [8]  33 87 87 00 19 27 F0 87
07/10/2025-10:52:01   can0  18FEF100   [8]  F7 00 00 00 00 00 0B F0
07/10/2025-10:52:21   can0  0CF00400   [8]  53 87 87 00 19 27 F0 88
07/10/2025-10:52:26   can0  18FEF100   [8]  F7 00 00 00 00 00 0D F0
07/10/2025-10:52:46   can0  0CF00400   [8]  13 88 88 70 25 27 F0 88
07/10/2025-10:52:51   can0  18FEF100   [8]  F7 00 00 00 00 00 0B F0
07/10/2025-10:53:11   can0  0CF00400   [8]  33 87 87 00 19 27 F0 87
07/10/2025-10:53:16   can0  18FEF100   [8]  F7 00 00 00 00 00 0B F0
07/10/2025-10:53:36   can0  0CF00400   [8]  53 87 87 00 19 27 F0 88
07/10/2025-10:53:41   can0  18FEF100   [8]  F7 00 00 00 00 00 0B F0
07/10/2025-10:54:01   can0  0CF00400   [8]  33 87 87 00 19 27 F0 87
07/10/2025-10:54:06   can0  18FEF100   [8]  F7 00 00 00 00 00 0B F0
07/10/2025-10:54:26   can0  0CF00400   [8]  43 89 89 38 25 27 F0 89
07/10/2025-10:54:31   can0  18FEF100   [8]  F7 00 00 00 00 00 0D F0
07/10/2025-10:54:51   can0  0CF00400   [8]  63 89 88 70 25 27 F0 89
07/10/2025-10:54:56   can0  18FEF100   [8]  F7 00 00 00 00 00 0D F0
07/10/2025-10:55:16   can0  0CF00400   [8]  53 87 87 00 19 27 F0 88
07/10/2025-10:55:21   can0  18FEF100   [8]  F7 00 00 00 00 00 0B F0
07/10/2025-10:55:41   can0  0CF00400   [8]  43 87 87 00 19 27 F0 87
07/10/2025-10:55:46   can0  18FEF100   [8]  F7 00 00 00 00 00 0B F0
07/10/2025-10:56:06   can0  0CF00400   [8]  43 87 87 08 19 27 F0 87
07/10/2025-10:56:11   can0  18FEF100   [8]  F7 00 00 00 00 00 0B F0
07/10/2025-10:56:31   can0  0CF00400   [8]  23 87 87 10 19 27 F0 87
07/10/2025-10:56:37   can0  18FEF100   [8]  F7 00 00 00 00 00 0B F0
07/10/2025-10:56:56   can0  0CF00400   [8]  63 87 87 F8 18 27 F0 88
07/10/2025-10:57:02   can0  18FEF100   [8]  F7 00 00 00 00 00 0B F0
07/10/2025-10:57:21   can0  0CF00400   [8]  23 87 87 08 19 27 F0 87
07/10/2025-10:57:27   can0  18FEF100   [8]  F7 00 00 00 00 00 0B F0
07/10/2025-10:57:46   can0  0CF00400   [8]  53 87 87 F8 18 27 F0 88
07/10/2025-10:57:52   can0  18FEF100   [8]  F7 00 00 00 00 00 0B F0
07/10/2025-10:58:11   can0  0CF00400   [8]  33 87 87 10 19 27 F0 87
07/10/2025-10:58:17   can0  18FEF100   [8]  F7 00 00 00 00 00 0B F0
07/10/2025-10:58:36   can0  0CF00400   [8]  43 87 87 08 19 27 F0 87
07/10/2025-10:58:42   can0  18FEF100   [8]  F7 00 00 00 00 00 0B F0
07/10/2025-10:59:01   can0  0CF00400   [8]  43 87 87 08 19 27 F0 87
07/10/2025-10:59:07   can0  18FEF100   [8]  F7 00 00 00 00 00 0B F0
07/10/2025-10:59:26   can0  0CF00400   [8]  53 87 87 00 19 27 F0 88
07/10/2025-10:59:32   can0  18FEF100   [8]  F7 00 00 00 00 00 0B F0
07/10/2025-10:59:51   can0  0CF00400   [8]  53 8F 8F 48 25 27 F0 90
07/10/2025-10:59:57   can0  18FEF100   [8]  F7 00 00 00 00 00 0D F0
07/10/2025-11:00:16   can0  0CF00400   [8]  53 90 90 50 25 27 F0 91
07/10/2025-11:00:22   can0  18FEF100   [8]  F7 00 00 00 00 00 0D F0
07/10/2025-11:00:41   can0  0CF00400   [8]  13 8C 8C 88 25 27 F0 8C
07/10/2025-11:00:47   can0  18FEF100   [8]  F7 00 00 00 00 00 0D F0
07/10/2025-11:01:06   can0  0CF00400   [8]  53 84 84 78 25 27 F0 85
07/10/2025-11:01:12   can0  18FEF100   [8]  F7 00 00 00 00 00 0D F0
07/10/2025-11:01:31   can0  0CF00400   [8]  63 84 84 08 19 27 F0 85
07/10/2025-11:01:37   can0  18FEF100   [8]  F7 00 00 00 00 00 0B F0
07/10/2025-11:01:56   can0  0CF00400   [8]  23 85 85 F8 18 27 F0 85
07/10/2025-11:02:02   can0  18FEF100   [8]  F7 00 00 00 00 00 0B F0
07/10/2025-11:02:21   can0  0CF00400   [8]  63 85 85 78 25 27 F0 86
07/10/2025-11:02:27   can0  18FEF100   [8]  F7 00 00 00 00 00 09 F0
07/10/2025-11:02:46   can0  0CF00400   [8]  63 84 84 F8 18 27 F0 85
07/10/2025-11:02:52   can0  18FEF100   [8]  F7 00 00 00 00 00 0D F0
07/10/2025-11:03:11   can0  0CF00400   [8]  03 89 89 80 25 27 F0 89
07/10/2025-11:03:17   can0  18FEF100   [8]  F7 00 00 00 00 00 0D F0
07/10/2025-11:03:36   can0  0CF00400   [8]  53 87 87 58 25 27 F0 88
07/10/2025-11:03:42   can0  18FEF100   [8]  F7 00 00 00 00 00 0D F0
07/10/2025-11:04:01   can0  0CF00400   [8]  13 84 85 80 25 27 F0 85
07/10/2025-11:04:07   can0  18FEF100   [8]  F7 00 00 00 00 00 0D F0
07/10/2025-11:04:26   can0  0CF00400   [8]  73 87 87 70 25 27 F0 88
07/10/2025-11:04:33   can0  18FEF100   [8]  F7 00 00 00 00 00 0D F0
07/10/2025-11:04:51   can0  0CF00400   [8]  13 8C 8C 78 25 27 F0 8C
07/10/2025-11:04:58   can0  18FEF100   [8]  F7 00 00 00 00 00 09 F0
07/10/2025-11:05:16   can0  0CF00400   [8]  03 85 86 F8 18 27 F0 86
07/10/2025-11:05:23   can0  18FEF100   [8]  F7 00 00 00 00 00 0B F0
07/10/2025-11:05:41   can0  0CF00400   [8]  73 84 84 00 19 27 F0 85
07/10/2025-11:05:48   can0  18FEF100   [8]  F7 00 00 00 00 00 0B F0
07/10/2025-11:06:06   can0  0CF00400   [8]  33 85 85 F8 18 27 F0 85
07/10/2025-11:06:13   can0  18FEF100   [8]  F7 00 00 00 00 00 0B F0
07/10/2025-11:06:31   can0  0CF00400   [8]  53 85 84 10 19 27 F0 85
07/10/2025-11:06:38   can0  18FEF100   [8]  F7 00 00 00 00 00 0B F0
07/10/2025-11:06:56   can0  0CF00400   [8]  63 86 86 F8 18 27 F0 87
07/10/2025-11:07:03   can0  18FEF100   [8]  F7 00 00 00 00 00 0B F0
07/10/2025-11:07:21   can0  0CF00400   [8]  43 8B 8B 40 25 27 F0 8C
07/10/2025-11:07:28   can0  18FEF100   [8]  F7 00 00 00 00 00 0D F0
07/10/2025-11:07:46   can0  0CF00400   [8]  33 88 88 90 25 27 F0 88
07/10/2025-11:07:53   can0  18FEF100   [8]  F7 00 00 00 00 00 0D F0
07/10/2025-11:08:11   can0  0CF00400   [8]  13 89 88 C0 25 27 F0 88
07/10/2025-11:08:18   can0  18FEF100   [8]  F7 00 00 00 00 00 0D F0
07/10/2025-11:08:36   can0  0CF00400   [8]  53 86 86 08 19 27 F0 87
07/10/2025-11:08:43   can0  18FEF100   [8]  F7 00 00 00 00 00 0B F0
07/10/2025-11:09:01   can0  0CF00400   [8]  03 87 87 F8 18 27 F0 87
07/10/2025-11:09:09   can0  18FEF100   [8]  F7 00 00 00 00 00 0B F0
07/10/2025-11:09:26   can0  0CF00400   [8]  43 8D 8B F8 25 27 F0 8C
07/10/2025-11:09:34   can0  18FEF100   [8]  F7 00 00 00 00 00 0D F0
07/10/2025-11:09:51   can0  0CF00400   [8]  63 86 86 00 19 27 F0 87
07/10/2025-11:09:59   can0  18FEF100   [8]  F7 00 00 00 00 00 0B F0
07/10/2025-11:10:16   can0  0CF00400   [8]  73 86 86 00 19 27 F0 87
07/10/2025-11:10:24   can0  18FEF100   [8]  F7 00 00 00 00 00 0B F0
07/10/2025-11:10:41   can0  0CF00400   [8]  01 8D 8D C0 38 27 F0 7D
07/10/2025-11:10:49   can0  18FEF100   [8]  F3 26 11 04 00 00 00 F0
CAN;07/10/2025-11:11:02;DOBACK027;Sesión:2;
Fecha-Hora;InterfazCAN;PGN;Número Bytes;Datos
07/10/2025-11:11:02   can0  0CF00400   [8]  30 7D 8B 98 14 00 F0 8B
07/10/2025-11:11:02   can0  18FEF100   [8]  F3 85 01 10 00 00 00 F0
CAN;07/10/2025-11:11:02;DOBACK027;Sesión:3;
Fecha-Hora;InterfazCAN;PGN;Número Bytes;Datos
07/10/2025-11:11:02   can0  0CF00400   [8]  40 7D 85 58 14 00 F0 86
07/10/2025-11:11:02   can0  18FEF100   [8]  F7 00 00 00 00 00 03 F0
07/10/2025-11:11:27   can0  0CF00400   [8]  50 7D 85 48 14 00 F0 86
07/10/2025-11:11:27   can0  18FEF100   [8]  F7 00 00 00 00 00 03 F0
07/10/2025-11:11:52   can0  0CF00400   [8]  20 7D 85 58 14 00 F0 85
07/10/2025-11:11:52   can0  18FEF100   [8]  F7 00 00 00 00 00 03 F0
CAN;07/10/2025-20:34:09;DOBACK027;Sesión:4;
Fecha-Hora;InterfazCAN;PGN;Número Bytes;Datos
07/10/2025-20:34:09   can0  0CF00400   [8]  40 7D 85 50 14 00 F0 86
07/10/2025-20:34:09   can0  18FEF100   [8]  F7 00 00 00 00 00 03 F0
07/10/2025-20:34:34   can0  0CF00400   [8]  28 E2 C3 68 3D 00 F0 7D
07/10/2025-20:34:34   can0  18FEF100   [8]  F3 C5 0F 04 00 00 00 F0
07/10/2025-20:34:59   can0  0CF00400   [8]  01 8B 81 48 33 27 F0 7D
07/10/2025-20:34:59   can0  18FEF100   [8]  F3 85 25 04 00 00 00 F0
07/10/2025-20:35:24   can0  0CF00400   [8]  0A 7D 7D 90 38 0B F0 7D
07/10/2025-20:35:24   can0  18FEF100   [8]  F3 F8 39 04 00 00 00 F0
07/10/2025-20:35:49   can0  0CF00400   [8]  38 E2 DF 98 31 00 F0 7D
07/10/2025-20:35:49   can0  18FEF100   [8]  F3 CF 32 04 00 00 00 F0
07/10/2025-20:36:14   can0  0CF00400   [8]  08 E2 B2 A8 2C 00 F0 7D
07/10/2025-20:36:14   can0  18FEF100   [8]  F3 5C 11 04 00 00 00 F0
07/10/2025-20:36:39   can0  0CF00400   [8]  48 E2 D2 08 4B 00 F0 7D
07/10/2025-20:36:39   can0  18FEF100   [8]  F3 57 29 04 00 00 00 F0
CAN;07/10/2025-20:36:59;DOBACK027;Sesión:5;
Fecha-Hora;InterfazCAN;PGN;Número Bytes;Datos
07/10/2025-20:36:59   can0  0CF00400   [8]  18 B5 A5 D0 36 00 F0 7D
07/10/2025-20:36:59   can0  18FEF100   [8]  F3 D2 1C 04 00 00 00 F0
CAN;07/10/2025-20:36:51;DOBACK027;Sesión:6;
Fecha-Hora;InterfazCAN;PGN;Número Bytes;Datos
07/10/2025-20:36:51   can0  0CF00400   [8]  00 7D 85 50 14 00 F0 85
07/10/2025-20:36:51   can0  18FEF100   [8]  F7 00 00 00 00 00 03 F0
CAN;07/10/2025-20:36:51;DOBACK027;Sesión:7;
Fecha-Hora;InterfazCAN;PGN;Número Bytes;Datos
07/10/2025-20:36:51   can0  0CF00400   [8]  10 7D 85 50 14 00 F0 85
07/10/2025-20:36:51   can0  18FEF100   [8]  F7 00 00 00 00 00 03 F0
CAN;07/10/2025-20:36:52;DOBACK027;Sesión:8;
Fecha-Hora;InterfazCAN;PGN;Número Bytes;Datos
07/10/2025-20:36:52   can0  0CF00400   [8]  70 7D 84 58 14 00 F0 85
07/10/2025-20:36:52   can0  18FEF100   [8]  F7 00 00 00 00 00 03 F0
CAN;07/10/2025-20:36:52;DOBACK027;Sesión:9;
Fecha-Hora;InterfazCAN;PGN;Número Bytes;Datos
07/10/2025-20:36:52   can0  0CF00400   [8]  00 7D 85 50 14 00 F0 85
07/10/2025-20:36:52   can0  18FEF100   [8]  F7 00 00 00 00 00 03 F0
CAN;07/10/2025-20:36:51;DOBACK027;Sesión:10;
Fecha-Hora;InterfazCAN;PGN;Número Bytes;Datos
07/10/2025-20:36:51   can0  0CF00400   [8]  20 7D 85 40 14 00 F0 85
07/10/2025-20:36:51   can0  18FEF100   [8]  F7 00 00 00 00 00 03 F0
CAN;07/10/2025-20:36:51;DOBACK027;Sesión:11;
Fecha-Hora;InterfazCAN;PGN;Número Bytes;Datos
07/10/2025-20:36:51   can0  0CF00400   [8]  70 7D 84 50 14 00 F0 85
07/10/2025-20:36:51   can0  18FEF100   [8]  F7 00 00 00 00 00 03 F0
CAN;07/10/2025-20:36:51;DOBACK027;Sesión:12;
Fecha-Hora;InterfazCAN;PGN;Número Bytes;Datos
07/10/2025-20:36:51   can0  0CF00400   [8]  70 7D 85 50 14 00 F0 86
07/10/2025-20:36:51   can0  18FEF100   [8]  F7 00 00 10 00 00 00 F0
CAN;07/10/2025-20:47:33;DOBACK027;Sesión:13;
Fecha-Hora;InterfazCAN;PGN;Número Bytes;Datos
07/10/2025-20:47:33   can0  0CF00400   [8]  01 AF AF 98 2C 27 F0 7D
07/10/2025-20:47:33   can0  18FEF100   [8]  F3 D4 07 04 00 00 00 F0
07/10/2025-20:47:58   can0  0CF00400   [8]  70 7D 85 38 14 00 F0 86
07/10/2025-20:47:58   can0  18FEF100   [8]  F7 00 00 10 00 00 00 F0
CAN;07/10/2025-20:48:19;DOBACK027;Sesión:14;
Fecha-Hora;InterfazCAN;PGN;Número Bytes;Datos
07/10/2025-20:48:19   can0  0CF00400   [8]  0A 83 7D D8 26 0B F0 7D
07/10/2025-20:48:19   can0  18FEF100   [8]  F3 A1 27 00 00 00 00 F0
CAN;07/10/2025-20:48:19;DOBACK027;Sesión:15;
Fecha-Hora;InterfazCAN;PGN;Número Bytes;Datos
07/10/2025-20:48:19   can0  0CF00400   [8]  0A 7D 7D 60 2A 0B F0 7D
07/10/2025-20:48:19   can0  18FEF100   [8]  F3 94 1F 10 00 00 00 F0
CAN;07/10/2025-20:50:51;DOBACK027;Sesión:16;
Fecha-Hora;InterfazCAN;PGN;Número Bytes;Datos
07/10/2025-20:50:51   can0  0CF00400   [8]  01 A3 A5 30 33 27 F0 7D
07/10/2025-20:50:51   can0  18FEF100   [8]  F3 29 1F 00 00 00 00 F0
07/10/2025-20:51:16   can0  0CF00400   [8]  01 9B 9F F8 3B 27 F0 7D
07/10/2025-20:51:16   can0  18FEF100   [8]  F3 8D 2B 00 00 00 00 F0
07/10/2025-20:51:41   can0  0CF00400   [8]  0A 7D 7D 50 27 0B F0 7D
07/10/2025-20:51:41   can0  18FEF100   [8]  F3 5C 15 10 00 00 00 F0
07/10/2025-20:52:06   can0  0CF00400   [8]  01 98 99 00 31 27 F0 7D
07/10/2025-20:52:06   can0  18FEF100   [8]  F3 21 1B 00 00 00 00 F0
CAN;07/10/2025-20:52:39;DOBACK027;Sesión:17;
Fecha-Hora;InterfazCAN;PGN;Número Bytes;Datos
07/10/2025-20:52:39   can0  0CF00400   [8]  01 8D 95 28 30 27 F0 7D
07/10/2025-20:52:39   can0  18FEF100   [8]  F3 73 22 04 00 00 00 F0
CAN;07/10/2025-20:53:59;DOBACK027;Sesión:18;
Fecha-Hora;InterfazCAN;PGN;Número Bytes;Datos
07/10/2025-20:53:59   can0  0CF00400   [8]  71 C5 C4 C0 28 27 F0 7D
07/10/2025-20:53:59   can0  18FEF100   [8]  F3 C5 29 04 00 00 00 F0
07/10/2025-20:54:24   can0  0CF00400   [8]  01 B3 B3 30 28 27 F0 7D
07/10/2025-20:54:24   can0  18FEF100   [8]  F3 33 1D 04 00 00 00 F0
07/10/2025-20:54:49   can0  0CF00400   [8]  01 9E A3 48 1A 27 F0 7D
07/10/2025-20:54:49   can0  18FEF100   [8]  F3 45 09 04 00 00 00 F0
07/10/2025-20:55:14   can0  0CF00400   [8]  10 7D 8B 60 14 00 F0 8B
07/10/2025-20:55:14   can0  18FEF100   [8]  F3 66 02 10 00 00 00 F0
07/10/2025-20:55:39   can0  0CF00400   [8]  30 7D 8A 68 14 00 F0 8A
07/10/2025-20:55:39   can0  18FEF100   [8]  F3 00 02 10 00 00 00 F0
07/10/2025-20:56:04   can0  0CF00400   [8]  30 7D 8B 78 14 00 F0 8B
07/10/2025-20:56:04   can0  18FEF100   [8]  F3 88 01 10 00 00 00 F0
07/10/2025-20:56:29   can0  0CF00400   [8]  10 7D 85 58 15 00 F0 85
07/10/2025-20:56:29   can0  18FEF100   [8]  F7 64 00 00 00 00 03 F0
CAN;07/10/2025-20:56:48;DOBACK027;Sesión:19;
Fecha-Hora;InterfazCAN;PGN;Número Bytes;Datos
07/10/2025-20:56:49   can0  0CF00400   [8]  40 7D 86 58 14 00 F0 87
07/10/2025-20:56:49   can0  18FEF100   [8]  F7 00 00 00 00 00 03 F0
