CAN;05/10/2025-09:40:41;DOBACK027;Sesión:1;
Fecha-Hora;InterfazCAN;PGN;Número Bytes;Datos
05/10/2025-09:40:41   can0  0CF00400   [8]  33 88 88 10 19 27 F0 88
05/10/2025-09:40:41   can0  18FEF100   [8]  F7 00 00 00 00 00 0B F0
05/10/2025-09:41:06   can0  0CF00400   [8]  03 89 89 F0 18 27 F0 89
05/10/2025-09:41:07   can0  18FEF100   [8]  F7 00 00 00 00 00 0B F0
05/10/2025-09:41:31   can0  0CF00400   [8]  73 88 88 10 19 27 F0 89
05/10/2025-09:41:32   can0  18FEF100   [8]  F7 00 00 00 00 00 0B F0
05/10/2025-09:41:56   can0  0CF00400   [8]  73 88 88 F8 18 27 F0 89
05/10/2025-09:41:57   can0  18FEF100   [8]  F7 00 00 00 00 00 0B F0
05/10/2025-09:42:22   can0  0CF00400   [8]  63 8F 8D 18 26 27 F0 8E
05/10/2025-09:42:22   can0  18FEF100   [8]  F7 00 00 00 00 00 0D F0
05/10/2025-09:42:47   can0  0CF00400   [8]  43 88 88 00 19 27 F0 89
05/10/2025-09:42:47   can0  18FEF100   [8]  F7 00 00 00 00 00 0B F0
05/10/2025-09:43:12   can0  0CF00400   [8]  53 88 88 00 19 27 F0 89
05/10/2025-09:43:12   can0  18FEF100   [8]  F7 00 00 00 00 00 0B F0
05/10/2025-09:43:37   can0  0CF00400   [8]  53 88 88 F8 18 27 F0 89
05/10/2025-09:43:37   can0  18FEF100   [8]  F7 00 00 00 00 00 0B F0
05/10/2025-09:44:02   can0  0CF00400   [8]  73 8C 8C B0 25 27 F0 8D
05/10/2025-09:44:02   can0  18FEF100   [8]  F7 00 00 00 00 00 0D F0
05/10/2025-09:44:27   can0  0CF00400   [8]  03 8A 8B 80 25 27 F0 8B
05/10/2025-09:44:27   can0  18FEF100   [8]  F7 00 00 00 00 00 0D F0
05/10/2025-09:44:52   can0  0CF00400   [8]  33 8D 8C D0 25 27 F0 8C
05/10/2025-09:44:52   can0  18FEF100   [8]  F7 00 00 00 00 00 0D F0
05/10/2025-09:45:17   can0  0CF00400   [8]  03 93 93 70 25 27 F0 93
05/10/2025-09:45:17   can0  18FEF100   [8]  F7 00 00 00 00 00 0D F0
05/10/2025-09:45:42   can0  0CF00400   [8]  53 92 92 78 25 27 F0 93
05/10/2025-09:45:42   can0  18FEF100   [8]  F7 00 00 00 00 00 0D F0
05/10/2025-09:46:07   can0  0CF00400   [8]  13 8E 8E 98 25 27 F0 8E
05/10/2025-09:46:07   can0  18FEF100   [8]  F7 00 00 00 00 00 0D F0
05/10/2025-09:46:32   can0  0CF00400   [8]  03 8B 8C 80 25 27 F0 8C
05/10/2025-09:46:32   can0  18FEF100   [8]  F7 00 00 00 00 00 0D F0
05/10/2025-09:46:57   can0  0CF00400   [8]  13 8C 8C 88 25 27 F0 8C
05/10/2025-09:46:57   can0  18FEF100   [8]  F7 00 00 00 00 00 0D F0
05/10/2025-09:47:22   can0  0CF00400   [8]  63 8C 8C 70 25 27 F0 8D
05/10/2025-09:47:23   can0  18FEF100   [8]  F7 00 00 00 00 00 0D F0
05/10/2025-09:47:47   can0  0CF00400   [8]  03 92 92 60 25 27 F0 92
05/10/2025-09:47:48   can0  18FEF100   [8]  F7 00 00 00 00 00 0D F0
05/10/2025-09:48:12   can0  0CF00400   [8]  53 8D 8D 88 25 27 F0 8E
05/10/2025-09:48:13   can0  18FEF100   [8]  F7 00 00 00 00 00 0D F0
05/10/2025-09:48:37   can0  0CF00400   [8]  23 8C 8D 68 25 27 F0 8D
05/10/2025-09:48:38   can0  18FEF100   [8]  F7 00 00 00 00 00 0D F0
05/10/2025-09:49:02   can0  0CF00400   [8]  73 8A 89 98 25 27 F0 8A
05/10/2025-09:49:03   can0  18FEF100   [8]  F7 00 00 00 00 00 0D F0
05/10/2025-09:49:27   can0  0CF00400   [8]  63 90 90 60 25 27 F0 91
05/10/2025-09:49:28   can0  18FEF100   [8]  F7 00 00 00 00 00 0D F0
05/10/2025-09:49:52   can0  0CF00400   [8]  53 8B 8B 88 25 27 F0 8C
05/10/2025-09:49:53   can0  18FEF100   [8]  F7 00 00 00 00 00 0D F0
05/10/2025-09:50:17   can0  0CF00400   [8]  03 88 88 08 19 27 F0 88
05/10/2025-09:50:18   can0  18FEF100   [8]  F7 00 00 00 00 00 0B F0
05/10/2025-09:50:42   can0  0CF00400   [8]  13 87 88 F8 18 27 F0 88
05/10/2025-09:50:43   can0  18FEF100   [8]  F7 00 00 00 00 00 0B F0
05/10/2025-09:51:07   can0  0CF00400   [8]  03 8B 8B A0 25 27 F0 8B
05/10/2025-09:51:08   can0  18FEF100   [8]  F7 00 00 00 00 00 0D F0
05/10/2025-09:51:32   can0  0CF00400   [8]  43 8D 8D 78 25 27 F0 8E
05/10/2025-09:51:33   can0  18FEF100   [8]  F7 00 00 00 00 00 0D F0
05/10/2025-09:51:57   can0  0CF00400   [8]  03 8C 8D 70 25 27 F0 8D
05/10/2025-09:51:58   can0  18FEF100   [8]  F7 00 00 00 00 00 0D F0
05/10/2025-09:52:22   can0  0CF00400   [8]  03 8C 8D 78 25 27 F0 8D
05/10/2025-09:52:23   can0  18FEF100   [8]  F7 00 00 00 00 00 0D F0
05/10/2025-09:52:47   can0  0CF00400   [8]  13 8E 8E 80 25 27 F0 8E
05/10/2025-09:52:49   can0  18FEF100   [8]  F7 00 00 00 00 00 0D F0
05/10/2025-09:53:12   can0  0CF00400   [8]  73 92 91 A0 25 27 F0 92
05/10/2025-09:53:14   can0  18FEF100   [8]  F7 00 00 00 00 00 0D F0
05/10/2025-09:53:37   can0  0CF00400   [8]  23 8A 8A 68 25 27 F0 8A
05/10/2025-09:53:39   can0  18FEF100   [8]  F7 00 00 00 00 00 09 F0
05/10/2025-09:54:02   can0  0CF00400   [8]  33 89 89 10 19 27 F0 89
05/10/2025-09:54:04   can0  18FEF100   [8]  F7 00 00 00 00 00 0B F0
05/10/2025-09:54:27   can0  0CF00400   [8]  43 89 89 00 19 27 F0 89
05/10/2025-09:54:29   can0  18FEF100   [8]  F7 00 00 00 00 00 0B F0
05/10/2025-09:54:52   can0  0CF00400   [8]  73 8E 8E 68 25 27 F0 8F
05/10/2025-09:54:54   can0  18FEF100   [8]  F7 00 00 00 00 00 0D F0
05/10/2025-09:55:17   can0  0CF00400   [8]  33 8E 8F 80 25 27 F0 8F
05/10/2025-09:55:19   can0  18FEF100   [8]  F7 00 00 00 00 00 0D F0
05/10/2025-09:55:42   can0  0CF00400   [8]  23 89 89 98 25 27 F0 89
05/10/2025-09:55:44   can0  18FEF100   [8]  F7 00 00 00 00 00 0B F0
05/10/2025-09:56:07   can0  0CF00400   [8]  53 89 89 F8 18 27 F0 8A
05/10/2025-09:56:09   can0  18FEF100   [8]  F7 00 00 00 00 00 0B F0
05/10/2025-09:56:32   can0  0CF00400   [8]  23 89 89 08 19 27 F0 89
05/10/2025-09:56:34   can0  18FEF100   [8]  F7 00 00 00 00 00 0B F0
05/10/2025-09:56:57   can0  0CF00400   [8]  53 8E 8E 80 25 27 F0 8F
05/10/2025-09:56:59   can0  18FEF100   [8]  F7 00 00 00 00 00 0D F0
05/10/2025-09:57:22   can0  0CF00400   [8]  03 8F 8F A8 25 27 F0 8F
05/10/2025-09:57:24   can0  18FEF100   [8]  F7 00 00 00 00 00 0D F0
05/10/2025-09:57:47   can0  0CF00400   [8]  33 8C 8C 78 25 27 F0 8C
05/10/2025-09:57:50   can0  18FEF100   [8]  F7 00 00 00 00 00 0D F0
05/10/2025-09:58:12   can0  0CF00400   [8]  13 8C 8C 78 25 27 F0 8C
05/10/2025-09:58:15   can0  18FEF100   [8]  F7 00 00 00 00 00 0D F0
05/10/2025-09:58:37   can0  0CF00400   [8]  23 89 89 40 19 27 F0 89
05/10/2025-09:58:40   can0  18FEF100   [8]  F7 00 00 00 00 00 0B F0
05/10/2025-09:59:02   can0  0CF00400   [8]  13 89 89 00 19 27 F0 89
05/10/2025-09:59:05   can0  18FEF100   [8]  F7 00 00 00 00 00 0B F0
05/10/2025-09:59:27   can0  0CF00400   [8]  53 89 89 00 19 27 F0 8A
05/10/2025-09:59:30   can0  18FEF100   [8]  F7 00 00 00 00 00 0B F0
05/10/2025-09:59:52   can0  0CF00400   [8]  13 89 89 00 19 27 F0 89
05/10/2025-09:59:55   can0  18FEF100   [8]  F7 00 00 00 00 00 0B F0
05/10/2025-10:00:17   can0  0CF00400   [8]  33 89 89 00 19 27 F0 89
05/10/2025-10:00:20   can0  18FEF100   [8]  F7 00 00 00 00 00 0B F0
05/10/2025-10:00:42   can0  0CF00400   [8]  23 89 89 08 19 27 F0 89
05/10/2025-10:00:45   can0  18FEF100   [8]  F7 00 00 00 00 00 0B F0
05/10/2025-10:01:07   can0  0CF00400   [8]  33 89 89 F0 18 27 F0 89
05/10/2025-10:01:10   can0  18FEF100   [8]  F7 00 00 00 00 00 0B F0
05/10/2025-10:01:32   can0  0CF00400   [8]  73 89 88 10 19 27 F0 89
05/10/2025-10:01:35   can0  18FEF100   [8]  F7 00 00 00 00 00 0B F0
05/10/2025-10:01:57   can0  0CF00400   [8]  33 89 89 F8 18 27 F0 89
05/10/2025-10:02:00   can0  18FEF100   [8]  F7 00 00 00 00 00 0B F0
05/10/2025-10:02:22   can0  0CF00400   [8]  33 89 89 F8 18 27 F0 89
05/10/2025-10:02:25   can0  18FEF100   [8]  F7 00 00 00 00 00 0B F0
05/10/2025-10:02:47   can0  0CF00400   [8]  03 89 89 08 19 27 F0 89
05/10/2025-10:02:50   can0  18FEF100   [8]  F7 00 00 00 00 00 0B F0
05/10/2025-10:03:12   can0  0CF00400   [8]  13 89 89 00 19 27 F0 89
05/10/2025-10:03:15   can0  18FEF100   [8]  F7 00 00 00 00 00 0B F0
05/10/2025-10:03:37   can0  0CF00400   [8]  03 89 89 00 19 27 F0 89
05/10/2025-10:03:40   can0  18FEF100   [8]  F7 00 00 00 00 00 0B F0
05/10/2025-10:04:02   can0  0CF00400   [8]  13 88 89 F8 18 27 F0 89
05/10/2025-10:04:05   can0  18FEF100   [8]  F7 00 00 00 00 00 0B F0
05/10/2025-10:04:27   can0  0CF00400   [8]  03 89 89 08 19 27 F0 89
05/10/2025-10:04:30   can0  18FEF100   [8]  F7 00 00 00 00 00 0B F0
05/10/2025-10:04:52   can0  0CF00400   [8]  63 89 88 08 19 27 F0 89
05/10/2025-10:04:55   can0  18FEF100   [8]  F7 00 00 00 00 00 0B F0
05/10/2025-10:05:17   can0  0CF00400   [8]  03 89 89 F8 18 27 F0 89
05/10/2025-10:05:20   can0  18FEF100   [8]  F7 00 00 00 00 00 0B F0
05/10/2025-10:05:42   can0  0CF00400   [8]  03 89 89 08 19 27 F0 89
05/10/2025-10:05:45   can0  18FEF100   [8]  F7 00 00 00 00 00 0B F0
05/10/2025-10:06:07   can0  0CF00400   [8]  73 89 88 08 19 27 F0 89
05/10/2025-10:06:10   can0  18FEF100   [8]  F7 00 00 00 00 00 0B F0
05/10/2025-10:06:32   can0  0CF00400   [8]  33 89 89 F8 18 27 F0 89
05/10/2025-10:06:36   can0  18FEF100   [8]  F7 00 00 00 00 00 0B F0
05/10/2025-10:06:57   can0  0CF00400   [8]  13 89 89 00 19 27 F0 89
05/10/2025-10:07:01   can0  18FEF100   [8]  F7 00 00 00 00 00 0B F0
05/10/2025-10:07:22   can0  0CF00400   [8]  13 89 89 F8 18 27 F0 89
05/10/2025-10:07:26   can0  18FEF100   [8]  F7 00 00 00 00 00 0B F0
05/10/2025-10:07:47   can0  0CF00400   [8]  13 89 89 10 19 27 F0 89
05/10/2025-10:07:51   can0  18FEF100   [8]  F7 00 00 00 00 00 0B F0
05/10/2025-10:08:12   can0  0CF00400   [8]  03 89 89 08 19 27 F0 89
05/10/2025-10:08:16   can0  18FEF100   [8]  F7 00 00 00 00 00 0B F0
05/10/2025-10:08:37   can0  0CF00400   [8]  03 89 89 00 19 27 F0 89
05/10/2025-10:08:41   can0  18FEF100   [8]  F7 00 00 00 00 00 0B F0
05/10/2025-10:09:02   can0  0CF00400   [8]  43 88 88 10 19 27 F0 89
05/10/2025-10:09:06   can0  18FEF100   [8]  F7 00 00 00 00 00 0B F0
05/10/2025-10:09:27   can0  0CF00400   [8]  23 89 89 F0 18 27 F0 89
05/10/2025-10:09:31   can0  18FEF100   [8]  F7 00 00 00 00 00 0B F0
05/10/2025-10:09:52   can0  0CF00400   [8]  13 89 89 F8 18 27 F0 89
05/10/2025-10:09:56   can0  18FEF100   [8]  F7 00 00 00 00 00 0B F0
05/10/2025-10:10:17   can0  0CF00400   [8]  53 88 88 00 19 27 F0 89
05/10/2025-10:10:21   can0  18FEF100   [8]  F7 00 00 00 00 00 0B F0
05/10/2025-10:10:42   can0  0CF00400   [8]  43 89 88 18 19 27 F0 89
05/10/2025-10:10:46   can0  18FEF100   [8]  F7 00 00 00 00 00 0B F0
05/10/2025-10:11:07   can0  0CF00400   [8]  43 8D 8D 98 25 27 F0 8E
05/10/2025-10:11:11   can0  18FEF100   [8]  F7 00 00 00 00 00 0D F0
05/10/2025-10:11:32   can0  0CF00400   [8]  33 88 88 10 19 27 F0 88
05/10/2025-10:11:36   can0  18FEF100   [8]  F7 00 00 00 00 00 0B F0
05/10/2025-10:11:57   can0  0CF00400   [8]  10 7D 83 E8 15 00 F0 83
05/10/2025-10:12:01   can0  18FEF100   [8]  F7 00 00 10 00 00 00 F0
05/10/2025-10:12:22   can0  0CF00400   [8]  01 A9 A9 58 31 27 F0 7D
05/10/2025-10:12:26   can0  18FEF100   [8]  F3 8F 12 04 00 00 00 F0
05/10/2025-10:12:47   can0  0CF00400   [8]  50 7D 87 50 14 00 F0 88
05/10/2025-10:12:51   can0  18FEF100   [8]  F3 4D 02 10 00 00 00 F0
05/10/2025-10:13:12   can0  0CF00400   [8]  00 7D 89 40 14 00 F0 89
05/10/2025-10:13:17   can0  18FEF100   [8]  F3 97 01 10 00 00 00 F0
CAN;05/10/2025-10:15:07;DOBACK027;Sesión:2;
Fecha-Hora;InterfazCAN;PGN;Número Bytes;Datos
05/10/2025-10:15:07   can0  18FEF100   [8]  F7 00 00 10 00 00 00 F0
05/10/2025-10:15:07   can0  0CF00400   [8]  00 7D 8C 78 14 00 F0 8C
05/10/2025-10:15:32   can0  18FEF100   [8]  F3 00 00 00 00 00 03 F0
05/10/2025-10:15:32   can0  0CF00400   [8]  41 A1 A8 18 1A 27 F0 7D
CAN;05/10/2025-16:04:39;DOBACK027;Sesión:3;
Fecha-Hora;InterfazCAN;PGN;Número Bytes;Datos
05/10/2025-16:04:39   can0  0CF00400   [8]  58 E2 DF 40 3B 00 F0 7D
05/10/2025-16:04:39   can0  18FEF100   [8]  F3 31 2B 04 00 00 00 F0
05/10/2025-16:05:04   can0  0CF00400   [8]  00 7D 7D 68 42 00 F0 7D
05/10/2025-16:05:04   can0  18FEF100   [8]  F3 03 44 10 00 00 00 F0
05/10/2025-16:05:29   can0  0CF00400   [8]  28 E2 DD 98 40 00 F0 7D
05/10/2025-16:05:29   can0  18FEF100   [8]  F3 E9 41 04 00 00 00 F0
05/10/2025-16:05:54   can0  0CF00400   [8]  71 CC CC A8 2F 27 F0 7D
05/10/2025-16:05:54   can0  18FEF100   [8]  F3 4F 41 04 00 00 00 F0
05/10/2025-16:06:19   can0  0CF00400   [8]  01 8E 8A 70 2D 27 F0 7D
05/10/2025-16:06:19   can0  18FEF100   [8]  F3 A9 3D 04 00 00 00 F0
05/10/2025-16:06:44   can0  0CF00400   [8]  48 A7 AB 78 1C 00 F0 7D
05/10/2025-16:06:44   can0  18FEF100   [8]  F3 EE 01 00 00 00 00 F0
05/10/2025-16:07:09   can0  0CF00400   [8]  40 7D 89 68 14 00 F0 8A
05/10/2025-16:07:09   can0  18FEF100   [8]  F3 F6 03 10 00 00 00 F0
05/10/2025-16:07:34   can0  0CF00400   [8]  50 7D 83 58 14 00 F0 84
05/10/2025-16:07:34   can0  18FEF100   [8]  F7 00 00 00 00 00 00 F0
05/10/2025-16:07:59   can0  0CF00400   [8]  10 7D 84 48 14 00 F0 84
05/10/2025-16:07:59   can0  18FEF100   [8]  F7 00 00 00 00 00 00 F0
05/10/2025-16:08:24   can0  0CF00400   [8]  70 7D 83 58 14 00 F0 84
05/10/2025-16:08:24   can0  18FEF100   [8]  F7 00 00 00 00 00 00 F0
05/10/2025-16:08:49   can0  0CF00400   [8]  40 7D 83 68 14 00 F0 84
05/10/2025-16:08:49   can0  18FEF100   [8]  F7 00 00 00 00 00 00 F0
05/10/2025-16:09:14   can0  0CF00400   [8]  10 7D 84 50 14 00 F0 84
05/10/2025-16:09:14   can0  18FEF100   [8]  F7 00 00 00 00 00 00 F0
05/10/2025-16:09:39   can0  0CF00400   [8]  00 7D 84 58 14 00 F0 84
05/10/2025-16:09:39   can0  18FEF100   [8]  F7 00 00 00 00 00 00 F0
05/10/2025-16:10:04   can0  0CF00400   [8]  10 7D 84 48 14 00 F0 84
05/10/2025-16:10:04   can0  18FEF100   [8]  F7 00 00 00 00 00 00 F0
05/10/2025-16:10:29   can0  0CF00400   [8]  70 7D 83 50 14 00 F0 84
05/10/2025-16:10:29   can0  18FEF100   [8]  F7 00 00 00 00 00 00 F0
05/10/2025-16:10:54   can0  0CF00400   [8]  50 7D 84 48 14 00 F0 85
05/10/2025-16:10:54   can0  18FEF100   [8]  F7 00 00 00 00 00 00 F0
05/10/2025-16:11:19   can0  0CF00400   [8]  50 7D 84 58 14 00 F0 85
05/10/2025-16:11:19   can0  18FEF100   [8]  F7 00 00 00 00 00 00 F0
05/10/2025-16:11:44   can0  0CF00400   [8]  40 7D 84 60 14 00 F0 85
05/10/2025-16:11:44   can0  18FEF100   [8]  F7 00 00 00 00 00 00 F0
05/10/2025-16:12:09   can0  0CF00400   [8]  70 7D 84 50 14 00 F0 85
05/10/2025-16:12:09   can0  18FEF100   [8]  F7 00 00 00 00 00 00 F0
05/10/2025-16:12:34   can0  0CF00400   [8]  50 7D 84 58 14 00 F0 85
05/10/2025-16:12:34   can0  18FEF100   [8]  F7 00 00 00 00 00 00 F0
05/10/2025-16:12:59   can0  0CF00400   [8]  00 7D 85 40 14 00 F0 85
05/10/2025-16:12:59   can0  18FEF100   [8]  F7 00 00 00 00 00 00 F0
05/10/2025-16:13:24   can0  0CF00400   [8]  50 7D 84 58 14 00 F0 85
05/10/2025-16:13:24   can0  18FEF100   [8]  F7 00 00 00 00 00 00 F0
05/10/2025-16:13:49   can0  0CF00400   [8]  60 7D 84 50 14 00 F0 85
05/10/2025-16:13:49   can0  18FEF100   [8]  F7 00 00 00 00 00 00 F0
05/10/2025-16:14:14   can0  0CF00400   [8]  60 7D 84 58 14 00 F0 85
05/10/2025-16:14:14   can0  18FEF100   [8]  F7 00 00 00 00 00 00 F0
05/10/2025-16:14:39   can0  0CF00400   [8]  40 7D 84 58 14 00 F0 84
05/10/2025-16:14:39   can0  18FEF100   [8]  F7 00 00 00 00 00 00 F0
05/10/2025-16:15:04   can0  0CF00400   [8]  40 7D 84 58 14 00 F0 85
05/10/2025-16:15:04   can0  18FEF100   [8]  F7 00 00 00 00 00 00 F0
05/10/2025-16:15:29   can0  0CF00400   [8]  70 7D 84 50 14 00 F0 85
05/10/2025-16:15:29   can0  18FEF100   [8]  F7 00 00 00 00 00 00 F0
05/10/2025-16:15:54   can0  0CF00400   [8]  60 7D 84 50 14 00 F0 85
05/10/2025-16:15:54   can0  18FEF100   [8]  F7 00 00 00 00 00 00 F0
05/10/2025-16:16:19   can0  0CF00400   [8]  60 7D 84 50 14 00 F0 85
05/10/2025-16:16:19   can0  18FEF100   [8]  F7 00 00 00 00 00 00 F0
05/10/2025-16:16:44   can0  0CF00400   [8]  70 7D 84 48 14 00 F0 85
05/10/2025-16:16:44   can0  18FEF100   [8]  F7 00 00 00 00 00 00 F0
05/10/2025-16:17:09   can0  0CF00400   [8]  60 7D 84 50 14 00 F0 85
05/10/2025-16:17:09   can0  18FEF100   [8]  F7 00 00 00 00 00 00 F0
05/10/2025-16:17:34   can0  0CF00400   [8]  50 7D 84 50 14 00 F0 85
05/10/2025-16:17:34   can0  18FEF100   [8]  F7 00 00 10 00 00 00 F0
05/10/2025-16:17:59   can0  0CF00400   [8]  40 7D 84 60 14 00 F0 85
05/10/2025-16:17:59   can0  18FEF100   [8]  F7 00 00 10 00 00 00 F0
05/10/2025-16:18:24   can0  0CF00400   [8]  60 7D 84 50 14 00 F0 85
05/10/2025-16:18:24   can0  18FEF100   [8]  F7 00 00 10 00 00 00 F0
05/10/2025-16:18:49   can0  0CF00400   [8]  70 7D 84 50 14 00 F0 85
05/10/2025-16:18:49   can0  18FEF100   [8]  F7 00 00 10 00 00 00 F0
05/10/2025-16:19:14   can0  0CF00400   [8]  50 7D 84 50 14 00 F0 85
05/10/2025-16:19:14   can0  18FEF100   [8]  F7 00 00 10 00 00 00 F0
05/10/2025-16:19:39   can0  0CF00400   [8]  60 7D 84 48 14 00 F0 85
05/10/2025-16:19:39   can0  18FEF100   [8]  F7 00 00 10 00 00 00 F0
05/10/2025-16:20:04   can0  0CF00400   [8]  40 7D 84 58 14 00 F0 85
05/10/2025-16:20:04   can0  18FEF100   [8]  F7 00 00 10 00 00 00 F0
05/10/2025-16:20:29   can0  0CF00400   [8]  40 7D 84 58 14 00 F0 84
05/10/2025-16:20:29   can0  18FEF100   [8]  F7 00 00 10 00 00 00 F0
05/10/2025-16:20:54   can0  0CF00400   [8]  50 7D 84 58 14 00 F0 85
05/10/2025-16:20:54   can0  18FEF100   [8]  F7 00 00 10 00 00 00 F0
05/10/2025-16:21:19   can0  0CF00400   [8]  70 7D 84 60 14 00 F0 85
05/10/2025-16:21:19   can0  18FEF100   [8]  F7 00 00 10 00 00 00 F0
05/10/2025-16:21:44   can0  0CF00400   [8]  40 7D 85 50 14 00 F0 85
05/10/2025-16:21:44   can0  18FEF100   [8]  F7 00 00 10 00 00 00 F0
05/10/2025-16:22:09   can0  0CF00400   [8]  30 7D 8D 48 14 00 F0 8D
05/10/2025-16:22:09   can0  18FEF100   [8]  F3 00 00 10 00 00 00 F0
05/10/2025-16:22:34   can0  0CF00400   [8]  01 8F 8D 10 22 27 F0 7D
05/10/2025-16:22:34   can0  18FEF100   [8]  F3 EE 08 04 00 00 00 F0
05/10/2025-16:22:59   can0  0CF00400   [8]  10 7D 8A 48 14 00 F0 8A
05/10/2025-16:22:59   can0  18FEF100   [8]  F3 00 00 10 00 00 00 F0
05/10/2025-16:23:24   can0  0CF00400   [8]  70 7D 89 70 14 00 F0 8A
05/10/2025-16:23:24   can0  18FEF100   [8]  F3 03 00 10 00 00 00 F0
05/10/2025-16:23:49   can0  0CF00400   [8]  01 A9 A9 28 33 27 F0 7D
05/10/2025-16:23:49   can0  18FEF100   [8]  F3 6E 0D 04 00 00 00 F0
05/10/2025-16:24:14   can0  0CF00400   [8]  01 A0 A0 F0 2C 27 F0 7D
05/10/2025-16:24:14   can0  18FEF100   [8]  F3 C0 18 04 00 00 00 F0
05/10/2025-16:24:39   can0  0CF00400   [8]  40 7D 89 40 14 00 F0 8A
05/10/2025-16:24:39   can0  18FEF100   [8]  F3 00 00 10 00 00 00 F0
05/10/2025-16:25:04   can0  0CF00400   [8]  00 82 7D 08 21 00 F0 7D
05/10/2025-16:25:04   can0  18FEF100   [8]  F3 31 08 14 00 00 00 F0
05/10/2025-16:25:29   can0  0CF00400   [8]  01 90 8F 30 34 27 F0 7D
05/10/2025-16:25:29   can0  18FEF100   [8]  F3 F1 25 04 00 00 00 F0
05/10/2025-16:25:54   can0  0CF00400   [8]  01 82 82 B0 31 27 F0 7D
05/10/2025-16:25:54   can0  18FEF100   [8]  F3 24 24 04 00 00 00 F0
05/10/2025-16:26:19   can0  0CF00400   [8]  01 81 81 C0 28 27 F0 7D
05/10/2025-16:26:19   can0  18FEF100   [8]  F3 92 1D 04 00 00 00 F0
05/10/2025-16:26:44   can0  0CF00400   [8]  01 A2 A2 A0 33 27 F0 7D
05/10/2025-16:26:45   can0  18FEF100   [8]  F3 76 25 04 00 00 00 F0
05/10/2025-16:27:09   can0  0CF00400   [8]  00 7D 7D 68 28 00 F0 7D
05/10/2025-16:27:10   can0  18FEF100   [8]  F3 21 16 04 00 00 00 F0
05/10/2025-16:27:34   can0  0CF00400   [8]  28 BC B8 20 37 00 F0 7D
05/10/2025-16:27:35   can0  18FEF100   [8]  F3 78 1E 04 00 00 00 F0
05/10/2025-16:27:59   can0  0CF00400   [8]  00 7D 7D 48 2B 00 F0 7D
05/10/2025-16:28:00   can0  18FEF100   [8]  F3 24 16 10 00 00 00 F0
05/10/2025-16:28:24   can0  0CF00400   [8]  01 AA AA 28 29 27 F0 7D
05/10/2025-16:28:25   can0  18FEF100   [8]  F3 2C 1E 04 00 00 00 F0
05/10/2025-16:28:49   can0  0CF00400   [8]  01 A8 A8 C8 33 27 F0 7D
05/10/2025-16:28:50   can0  18FEF100   [8]  F3 FD 25 04 00 00 00 F0
05/10/2025-16:29:14   can0  0CF00400   [8]  01 AA AA 48 2F 27 F0 7D
05/10/2025-16:29:15   can0  18FEF100   [8]  F3 88 14 04 00 00 00 F0
CAN;05/10/2025-16:29:35;DOBACK027;Sesión:4;
Fecha-Hora;InterfazCAN;PGN;Número Bytes;Datos
05/10/2025-16:29:35   can0  0CF00400   [8]  00 7D 7D 90 27 00 F0 7D
05/10/2025-16:29:35   can0  18FEF100   [8]  F3 9F 28 04 00 00 00 F0
CAN;05/10/2025-16:31:01;DOBACK027;Sesión:5;
Fecha-Hora;InterfazCAN;PGN;Número Bytes;Datos
05/10/2025-16:31:01   can0  0CF00400   [8]  01 A1 A1 00 35 27 F0 7D
05/10/2025-16:31:01   can0  18FEF100   [8]  F3 B6 26 04 00 00 00 F0
05/10/2025-16:31:26   can0  0CF00400   [8]  00 7D 7D 28 32 00 F0 7D
05/10/2025-16:31:26   can0  18FEF100   [8]  F3 5C 24 04 00 00 00 F0
05/10/2025-16:31:51   can0  0CF00400   [8]  00 7D 7D 88 28 00 F0 7D
05/10/2025-16:31:51   can0  18FEF100   [8]  F3 A6 28 10 00 00 00 F0
05/10/2025-16:32:16   can0  0CF00400   [8]  00 7D 7D 98 24 00 F0 7D
05/10/2025-16:32:16   can0  18FEF100   [8]  F3 B1 14 10 00 00 00 F0
05/10/2025-16:32:41   can0  0CF00400   [8]  50 7D 80 40 14 00 F0 81
05/10/2025-16:32:41   can0  18FEF100   [8]  F3 83 08 10 00 00 00 F0
05/10/2025-16:33:06   can0  0CF00400   [8]  00 7D 7D B8 3B 00 F0 7D
05/10/2025-16:33:06   can0  18FEF100   [8]  F3 F3 20 10 00 00 00 F0
05/10/2025-16:33:31   can0  0CF00400   [8]  01 9D 9D E0 3B 27 F0 7D
05/10/2025-16:33:31   can0  18FEF100   [8]  F3 0A 11 04 00 00 00 F0
05/10/2025-16:33:56   can0  0CF00400   [8]  00 7D 7D A8 26 00 F0 7D
05/10/2025-16:33:56   can0  18FEF100   [8]  F3 CD 14 10 00 00 00 F0
05/10/2025-16:34:21   can0  0CF00400   [8]  01 A7 A7 20 30 27 F0 7D
05/10/2025-16:34:21   can0  18FEF100   [8]  F3 A6 15 04 00 00 00 F0
05/10/2025-16:34:46   can0  0CF00400   [8]  00 7D 7D B8 2A 00 F0 7D
05/10/2025-16:34:46   can0  18FEF100   [8]  F3 4D 2B 10 00 00 00 F0
CAN;05/10/2025-16:35:18;DOBACK027;Sesión:6;
Fecha-Hora;InterfazCAN;PGN;Número Bytes;Datos
05/10/2025-16:35:18   can0  0CF00400   [8]  01 9E 9E E8 33 27 F0 7D
05/10/2025-16:35:18   can0  18FEF100   [8]  F3 21 1C 04 00 00 00 F0
CAN;05/10/2025-16:36:38;DOBACK027;Sesión:7;
Fecha-Hora;InterfazCAN;PGN;Número Bytes;Datos
05/10/2025-16:36:38   can0  0CF00400   [8]  01 8A 8A 68 2B 27 F0 7D
05/10/2025-16:36:38   can0  18FEF100   [8]  F3 2C 2C 04 00 00 00 F0
05/10/2025-16:37:03   can0  0CF00400   [8]  00 7D 7D E8 34 00 F0 7D
05/10/2025-16:37:03   can0  18FEF100   [8]  F3 C3 26 10 00 00 00 F0
05/10/2025-16:37:28   can0  0CF00400   [8]  01 90 94 F0 27 27 F0 7D
05/10/2025-16:37:28   can0  18FEF100   [8]  F3 BB 15 04 00 00 00 F0
05/10/2025-16:37:53   can0  0CF00400   [8]  00 7D 7D 48 2E 00 F0 7D
05/10/2025-16:37:53   can0  18FEF100   [8]  F3 A9 2F 04 00 00 00 F0
CAN;05/10/2025-16:38:07;DOBACK027;Sesión:8;
Fecha-Hora;InterfazCAN;PGN;Número Bytes;Datos
05/10/2025-16:38:07   can0  0CF00400   [8]  60 7D 89 68 14 00 F0 8A
05/10/2025-16:38:07   can0  18FEF100   [8]  F3 97 00 10 00 00 00 F0
CAN;05/10/2025-16:39:29;DOBACK027;Sesión:9;
Fecha-Hora;InterfazCAN;PGN;Número Bytes;Datos
05/10/2025-16:39:29   can0  0CF00400   [8]  70 7D 8A 40 14 00 F0 8B
05/10/2025-16:39:29   can0  18FEF100   [8]  F3 00 00 10 00 00 00 F0
05/10/2025-16:39:54   can0  0CF00400   [8]  20 7D 8A 50 14 00 F0 8A
05/10/2025-16:39:54   can0  18FEF100   [8]  F3 00 00 10 00 00 00 F0
05/10/2025-16:40:19   can0  0CF00400   [8]  01 85 85 58 29 27 F0 7D
05/10/2025-16:40:19   can0  18FEF100   [8]  F3 69 0C 04 00 00 00 F0
05/10/2025-16:40:44   can0  0CF00400   [8]  30 7D 88 80 14 00 F0 88
05/10/2025-16:40:44   can0  18FEF100   [8]  F3 61 03 10 00 00 00 F0
CAN;05/10/2025-16:41:16;DOBACK027;Sesión:10;
Fecha-Hora;InterfazCAN;PGN;Número Bytes;Datos
05/10/2025-16:41:16   can0  0CF00400   [8]  20 7D 8F 48 14 00 F0 8F
05/10/2025-16:41:16   can0  18FEF100   [8]  F3 69 01 10 00 00 00 F0
05/10/2025-16:41:41   can0  0CF00400   [8]  01 AB AB F0 2B 27 F0 7D
05/10/2025-16:41:41   can0  18FEF100   [8]  F3 1F 0A 04 00 00 00 F0
05/10/2025-16:42:06   can0  0CF00400   [8]  60 7D 88 60 14 00 F0 89
05/10/2025-16:42:06   can0  18FEF100   [8]  F3 97 00 10 00 00 00 F0
