CAN;01/10/2025-09:52:32;DOBACK027;Sesión:1;
Fecha-Hora;InterfazCAN;PGN;Número Bytes;Datos
01/10/2025-09:52:32   can0  0CF00400   [8]  01 97 97 90 32 27 F0 7D
01/10/2025-09:52:32   can0  18FEF100   [8]  F3 1A 0E 04 00 00 00 F0
01/10/2025-09:52:57   can0  0CF00400   [8]  60 7D 88 40 14 00 F0 89
01/10/2025-09:52:57   can0  18FEF100   [8]  F3 9A 01 10 00 00 00 F0
01/10/2025-09:53:22   can0  0CF00400   [8]  13 85 8A F8 15 27 F0 8A
01/10/2025-09:53:22   can0  18FEF100   [8]  F7 00 00 00 00 00 0B F0
01/10/2025-09:53:47   can0  0CF00400   [8]  13 89 89 00 19 27 F0 89
01/10/2025-09:53:47   can0  18FEF100   [8]  F7 00 00 00 00 00 0B F0
01/10/2025-09:54:12   can0  0CF00400   [8]  53 88 88 10 19 27 F0 89
01/10/2025-09:54:12   can0  18FEF100   [8]  F7 00 00 00 00 00 0B F0
01/10/2025-09:54:37   can0  0CF00400   [8]  03 91 91 58 25 27 F0 91
01/10/2025-09:54:37   can0  18FEF100   [8]  F7 00 00 00 00 00 0D F0
01/10/2025-09:55:02   can0  0CF00400   [8]  43 88 88 F8 18 27 F0 88
01/10/2025-09:55:03   can0  18FEF100   [8]  F7 00 00 00 00 00 0B F0
01/10/2025-09:55:27   can0  0CF00400   [8]  33 88 88 08 19 27 F0 88
01/10/2025-09:55:28   can0  18FEF100   [8]  F7 00 00 00 00 00 0B F0
01/10/2025-09:55:52   can0  0CF00400   [8]  03 8C 8C 78 25 27 F0 8C
01/10/2025-09:55:53   can0  18FEF100   [8]  F7 00 00 00 00 00 0D F0
01/10/2025-09:56:17   can0  0CF00400   [8]  53 8E 8D 98 25 27 F0 8E
01/10/2025-09:56:18   can0  18FEF100   [8]  F7 00 00 00 00 00 0D F0
01/10/2025-09:56:42   can0  0CF00400   [8]  53 8D 8D 88 25 27 F0 8E
01/10/2025-09:56:43   can0  18FEF100   [8]  F7 00 00 00 00 00 0D F0
01/10/2025-09:57:07   can0  0CF00400   [8]  63 90 90 68 25 27 F0 91
01/10/2025-09:57:08   can0  18FEF100   [8]  F7 00 00 00 00 00 0D F0
01/10/2025-09:57:32   can0  0CF00400   [8]  13 8D 8D 80 25 27 F0 8D
01/10/2025-09:57:33   can0  18FEF100   [8]  F7 00 00 00 00 00 0D F0
01/10/2025-09:57:57   can0  0CF00400   [8]  43 90 90 70 25 27 F0 91
01/10/2025-09:57:58   can0  18FEF100   [8]  F7 00 00 00 00 00 0D F0
01/10/2025-09:58:22   can0  0CF00400   [8]  53 8E 8D C0 25 27 F0 8E
01/10/2025-09:58:23   can0  18FEF100   [8]  F7 00 00 00 00 00 0D F0
01/10/2025-09:58:47   can0  0CF00400   [8]  53 92 91 A0 25 27 F0 92
01/10/2025-09:58:48   can0  18FEF100   [8]  F7 00 00 00 00 00 0D F0
01/10/2025-09:59:12   can0  0CF00400   [8]  43 8C 8C 70 25 27 F0 8D
01/10/2025-09:59:13   can0  18FEF100   [8]  F7 00 00 00 00 00 0D F0
01/10/2025-09:59:37   can0  0CF00400   [8]  63 8A 8A 80 25 27 F0 8B
01/10/2025-09:59:38   can0  18FEF100   [8]  F7 00 00 00 00 00 0D F0
01/10/2025-10:00:02   can0  0CF00400   [8]  53 8C 8C 88 25 27 F0 8D
01/10/2025-10:00:03   can0  18FEF100   [8]  F7 00 00 00 00 00 0D F0
01/10/2025-10:00:27   can0  0CF00400   [8]  33 8C 8C 88 25 27 F0 8C
01/10/2025-10:00:28   can0  18FEF100   [8]  F7 00 00 00 00 00 0D F0
01/10/2025-10:00:52   can0  0CF00400   [8]  53 8D 8D A0 25 27 F0 8E
01/10/2025-10:00:53   can0  18FEF100   [8]  F7 00 00 00 00 00 0D F0
01/10/2025-10:01:17   can0  0CF00400   [8]  73 8B 8B 78 25 27 F0 8C
01/10/2025-10:01:19   can0  18FEF100   [8]  F7 00 00 00 00 00 0D F0
01/10/2025-10:01:42   can0  0CF00400   [8]  73 8C 8B A0 25 27 F0 8C
01/10/2025-10:01:44   can0  18FEF100   [8]  F7 00 00 00 00 00 0D F0
01/10/2025-10:02:07   can0  0CF00400   [8]  53 8B 8A B0 25 27 F0 8B
01/10/2025-10:02:09   can0  18FEF100   [8]  F7 00 00 00 00 00 0D F0
01/10/2025-10:02:32   can0  0CF00400   [8]  23 8C 8B 78 25 27 F0 8B
01/10/2025-10:02:34   can0  18FEF100   [8]  F7 00 00 00 00 00 0D F0
01/10/2025-10:02:57   can0  0CF00400   [8]  63 8E 8E 80 25 27 F0 8F
01/10/2025-10:02:59   can0  18FEF100   [8]  F7 00 00 00 00 00 0D F0
01/10/2025-10:03:22   can0  0CF00400   [8]  73 8B 8B 70 25 27 F0 8C
01/10/2025-10:03:24   can0  18FEF100   [8]  F7 00 00 00 00 00 0D F0
01/10/2025-10:03:47   can0  0CF00400   [8]  53 8C 8C 70 25 27 F0 8D
01/10/2025-10:03:49   can0  18FEF100   [8]  F7 00 00 00 00 00 0D F0
01/10/2025-10:04:12   can0  0CF00400   [8]  23 89 89 F8 18 27 F0 89
01/10/2025-10:04:14   can0  18FEF100   [8]  F7 00 00 00 00 00 0B F0
01/10/2025-10:04:37   can0  0CF00400   [8]  23 8A 8A 78 25 27 F0 8A
01/10/2025-10:04:39   can0  18FEF100   [8]  F7 00 00 00 00 00 0D F0
01/10/2025-10:05:02   can0  0CF00400   [8]  63 91 AD 20 19 27 F0 AE
01/10/2025-10:05:04   can0  18FEF100   [8]  F7 00 00 00 00 00 0D F0
01/10/2025-10:05:27   can0  0CF00400   [8]  03 89 8A 78 25 27 F0 8A
01/10/2025-10:05:29   can0  18FEF100   [8]  F7 00 00 00 00 00 0D F0
01/10/2025-10:05:52   can0  0CF00400   [8]  03 8E 8F 70 25 27 F0 8F
01/10/2025-10:05:55   can0  18FEF100   [8]  F7 00 00 00 00 00 0D F0
01/10/2025-10:06:17   can0  0CF00400   [8]  03 8C 8C A0 25 27 F0 8C
01/10/2025-10:06:20   can0  18FEF100   [8]  F7 00 00 00 00 00 0D F0
01/10/2025-10:06:42   can0  0CF00400   [8]  43 89 89 00 19 27 F0 8A
01/10/2025-10:06:45   can0  18FEF100   [8]  F7 00 00 00 00 00 0B F0
01/10/2025-10:07:07   can0  0CF00400   [8]  43 8A 8A 70 25 27 F0 8A
01/10/2025-10:07:10   can0  18FEF100   [8]  F7 00 00 00 00 00 0D F0
01/10/2025-10:07:32   can0  0CF00400   [8]  33 89 89 00 19 27 F0 89
01/10/2025-10:07:35   can0  18FEF100   [8]  F7 00 00 00 00 00 0B F0
01/10/2025-10:07:57   can0  0CF00400   [8]  23 8A 8A 70 25 27 F0 8A
01/10/2025-10:08:00   can0  18FEF100   [8]  F7 00 00 00 00 00 0D F0
01/10/2025-10:08:22   can0  0CF00400   [8]  63 89 89 F0 18 27 F0 8A
01/10/2025-10:08:25   can0  18FEF100   [8]  F7 00 00 00 00 00 0B F0
01/10/2025-10:08:47   can0  0CF00400   [8]  53 89 89 00 19 27 F0 8A
01/10/2025-10:08:50   can0  18FEF100   [8]  F7 00 00 00 00 00 0B F0
01/10/2025-10:09:12   can0  0CF00400   [8]  13 89 89 10 19 27 F0 89
01/10/2025-10:09:15   can0  18FEF100   [8]  F7 00 00 00 00 00 0B F0
01/10/2025-10:09:37   can0  0CF00400   [8]  33 89 89 F8 18 27 F0 89
01/10/2025-10:09:40   can0  18FEF100   [8]  F7 00 00 00 00 00 0B F0
01/10/2025-10:10:02   can0  0CF00400   [8]  73 8B 8A 70 25 27 F0 8B
01/10/2025-10:10:05   can0  18FEF100   [8]  F7 00 00 00 00 00 0D F0
01/10/2025-10:10:27   can0  0CF00400   [8]  43 8C 8C 90 25 27 F0 8D
01/10/2025-10:10:30   can0  18FEF100   [8]  F7 00 00 00 00 00 0D F0
01/10/2025-10:10:52   can0  0CF00400   [8]  13 8C 8C 90 25 27 F0 8C
01/10/2025-10:10:55   can0  18FEF100   [8]  F7 00 00 00 00 00 0D F0
01/10/2025-10:11:17   can0  0CF00400   [8]  03 8D 8D 80 25 27 F0 8D
01/10/2025-10:11:21   can0  18FEF100   [8]  F7 00 00 00 00 00 0D F0
01/10/2025-10:11:42   can0  0CF00400   [8]  13 8C 8C 80 25 27 F0 8C
01/10/2025-10:11:46   can0  18FEF100   [8]  F7 00 00 00 00 00 0D F0
01/10/2025-10:12:07   can0  0CF00400   [8]  73 96 95 B0 24 27 F0 96
01/10/2025-10:12:11   can0  18FEF100   [8]  F7 00 00 00 00 00 0D F0
01/10/2025-10:12:33   can0  0CF00400   [8]  23 88 88 38 19 27 F0 88
01/10/2025-10:12:36   can0  18FEF100   [8]  F7 00 00 00 00 00 0B F0
CAN;01/10/2025-10:13:05;DOBACK027;Sesión:2;
Fecha-Hora;InterfazCAN;PGN;Número Bytes;Datos
01/10/2025-10:13:05   can0  0CF00400   [8]  50 7D 88 40 14 00 F0 89
01/10/2025-10:13:05   can0  18FEF100   [8]  F7 00 00 10 00 00 00 F0
01/10/2025-10:13:29   can0  0CF00400   [8]  01 9E 9E 50 24 27 F0 7D
01/10/2025-10:13:30   can0  18FEF100   [8]  F3 8A 04 00 00 00 00 F0
01/10/2025-10:13:54   can0  0CF00400   [8]  50 7D 86 48 14 00 F0 87
01/10/2025-10:13:55   can0  18FEF100   [8]  F7 00 00 10 00 00 00 F0
CAN;01/10/2025-11:42:44;DOBACK027;Sesión:3;
Fecha-Hora;InterfazCAN;PGN;Número Bytes;Datos
01/10/2025-11:42:44   can0  0CF00400   [8]  30 7D 86 60 14 00 F0 86
01/10/2025-11:42:44   can0  18FEF100   [8]  F7 00 00 10 00 00 00 F0
01/10/2025-11:43:09   can0  0CF00400   [8]  60 7D 84 50 14 00 F0 85
01/10/2025-11:43:09   can0  18FEF100   [8]  F7 00 00 10 00 00 00 F0
01/10/2025-11:43:34   can0  0CF00400   [8]  73 88 88 00 19 27 F0 89
01/10/2025-11:43:34   can0  18FEF100   [8]  F7 00 00 10 00 00 0B F0
01/10/2025-11:43:59   can0  0CF00400   [8]  43 88 88 00 19 27 F0 88
01/10/2025-11:43:59   can0  18FEF100   [8]  F7 00 00 00 00 00 0B F0
01/10/2025-11:44:24   can0  0CF00400   [8]  33 95 96 48 25 27 F0 96
01/10/2025-11:44:24   can0  18FEF100   [8]  F7 00 00 00 00 00 0D F0
01/10/2025-11:44:49   can0  0CF00400   [8]  63 95 A9 78 1A 27 F0 AA
01/10/2025-11:44:49   can0  18FEF100   [8]  F7 00 00 00 00 00 0D F0
01/10/2025-11:45:14   can0  0CF00400   [8]  43 8C 8B B0 25 27 F0 8B
01/10/2025-11:45:14   can0  18FEF100   [8]  F7 00 00 00 00 00 0D F0
01/10/2025-11:45:39   can0  0CF00400   [8]  73 89 89 F8 18 27 F0 8A
01/10/2025-11:45:40   can0  18FEF100   [8]  F7 00 00 00 00 00 0B F0
01/10/2025-11:46:04   can0  0CF00400   [8]  63 89 89 00 19 27 F0 8A
01/10/2025-11:46:05   can0  18FEF100   [8]  F7 00 00 00 00 00 0B F0
01/10/2025-11:46:29   can0  0CF00400   [8]  73 89 89 00 19 27 F0 8A
01/10/2025-11:46:30   can0  18FEF100   [8]  F7 00 00 00 00 00 0B F0
01/10/2025-11:46:54   can0  0CF00400   [8]  73 89 89 F8 18 27 F0 8A
01/10/2025-11:46:55   can0  18FEF100   [8]  F7 00 00 00 00 00 0B F0
01/10/2025-11:47:19   can0  0CF00400   [8]  63 89 89 F8 18 27 F0 8A
01/10/2025-11:47:20   can0  18FEF100   [8]  F7 00 00 00 00 00 0B F0
01/10/2025-11:47:44   can0  0CF00400   [8]  33 89 89 00 19 27 F0 89
01/10/2025-11:47:45   can0  18FEF100   [8]  F7 00 00 00 00 00 0B F0
01/10/2025-11:48:09   can0  0CF00400   [8]  23 8B 8B 98 25 27 F0 8B
01/10/2025-11:48:10   can0  18FEF100   [8]  F7 00 00 00 00 00 0D F0
01/10/2025-11:48:34   can0  0CF00400   [8]  43 89 89 00 19 27 F0 89
01/10/2025-11:48:35   can0  18FEF100   [8]  F7 00 00 00 00 00 0B F0
01/10/2025-11:48:59   can0  0CF00400   [8]  23 89 89 00 19 27 F0 89
01/10/2025-11:49:00   can0  18FEF100   [8]  F7 00 00 00 00 00 0B F0
01/10/2025-11:49:24   can0  0CF00400   [8]  63 8F 8E 98 25 27 F0 8F
01/10/2025-11:49:25   can0  18FEF100   [8]  F7 00 00 00 00 00 0D F0
01/10/2025-11:49:49   can0  0CF00400   [8]  43 8B 8B 68 25 27 F0 8C
01/10/2025-11:49:50   can0  18FEF100   [8]  F7 00 00 00 00 00 0D F0
01/10/2025-11:50:14   can0  0CF00400   [8]  03 8B 8B 70 25 27 F0 8B
01/10/2025-11:50:15   can0  18FEF100   [8]  F7 00 00 00 00 00 0D F0
01/10/2025-11:50:39   can0  0CF00400   [8]  53 8B 8A 90 25 27 F0 8B
01/10/2025-11:50:40   can0  18FEF100   [8]  F7 00 00 00 00 00 0D F0
01/10/2025-11:51:04   can0  0CF00400   [8]  53 88 88 10 19 27 F0 89
01/10/2025-11:51:05   can0  18FEF100   [8]  F7 00 00 00 00 00 0B F0
01/10/2025-11:51:29   can0  0CF00400   [8]  63 89 88 08 19 27 F0 89
01/10/2025-11:51:30   can0  18FEF100   [8]  F7 00 00 00 00 00 0B F0
01/10/2025-11:51:54   can0  0CF00400   [8]  33 89 89 F8 18 27 F0 89
01/10/2025-11:51:55   can0  18FEF100   [8]  F7 00 00 00 00 00 0B F0
01/10/2025-11:52:19   can0  0CF00400   [8]  23 89 89 00 19 27 F0 89
01/10/2025-11:52:21   can0  18FEF100   [8]  F7 00 00 00 00 00 0B F0
01/10/2025-11:52:44   can0  0CF00400   [8]  13 89 89 08 19 27 F0 89
01/10/2025-11:52:46   can0  18FEF100   [8]  F7 00 00 00 00 00 0B F0
01/10/2025-11:53:09   can0  0CF00400   [8]  23 89 89 08 19 27 F0 89
01/10/2025-11:53:11   can0  18FEF100   [8]  F7 00 00 00 00 00 0B F0
01/10/2025-11:53:34   can0  0CF00400   [8]  43 8B 8B 60 25 27 F0 8B
01/10/2025-11:53:36   can0  18FEF100   [8]  F7 00 00 00 00 00 0D F0
01/10/2025-11:53:59   can0  0CF00400   [8]  63 8B 8B 60 25 27 F0 8C
01/10/2025-11:54:01   can0  18FEF100   [8]  F7 00 00 00 00 00 0D F0
01/10/2025-11:54:24   can0  0CF00400   [8]  53 8A 8A 70 25 27 F0 8B
01/10/2025-11:54:26   can0  18FEF100   [8]  F7 00 00 00 00 00 0D F0
01/10/2025-11:54:49   can0  0CF00400   [8]  13 8A 8A 90 25 27 F0 8A
01/10/2025-11:54:51   can0  18FEF100   [8]  F7 00 00 00 00 00 0D F0
01/10/2025-11:55:14   can0  0CF00400   [8]  73 8A 89 98 25 27 F0 8A
01/10/2025-11:55:16   can0  18FEF100   [8]  F7 00 00 00 00 00 0D F0
01/10/2025-11:55:39   can0  0CF00400   [8]  63 89 89 90 25 27 F0 8A
01/10/2025-11:55:41   can0  18FEF100   [8]  F7 00 00 00 00 00 0D F0
01/10/2025-11:56:04   can0  0CF00400   [8]  13 8E 8E 80 25 27 F0 8E
01/10/2025-11:56:06   can0  18FEF100   [8]  F7 00 00 00 00 00 0D F0
01/10/2025-11:56:29   can0  0CF00400   [8]  43 8B 8A 88 25 27 F0 8A
01/10/2025-11:56:31   can0  18FEF100   [8]  F7 00 00 00 00 00 0D F0
01/10/2025-11:56:54   can0  0CF00400   [8]  53 8B 8B 58 25 27 F0 8C
01/10/2025-11:56:56   can0  18FEF100   [8]  F7 00 00 00 00 00 0D F0
01/10/2025-11:57:19   can0  0CF00400   [8]  08 7D 7D 00 00 00 F0 7D
01/10/2025-11:57:21   can0  18FEF100   [8]  F7 00 00 00 00 00 00 F0
01/10/2025-11:57:44   can0  0CF00400   [8]  73 88 88 F8 18 27 F0 89
01/10/2025-11:57:46   can0  18FEF100   [8]  F7 00 00 00 00 00 0B F0
01/10/2025-11:58:09   can0  0CF00400   [8]  13 92 92 78 25 27 F0 92
01/10/2025-11:58:11   can0  18FEF100   [8]  F7 00 00 00 00 00 0D F0
01/10/2025-11:58:34   can0  0CF00400   [8]  03 8D 8E 50 25 27 F0 8E
01/10/2025-11:58:36   can0  18FEF100   [8]  F7 00 00 00 00 00 0D F0
01/10/2025-11:58:59   can0  0CF00400   [8]  00 81 7D 10 1F 00 F0 7D
01/10/2025-11:59:01   can0  18FEF100   [8]  F7 00 00 00 00 00 0B F0
CAN;01/10/2025-11:59:36;DOBACK027;Sesión:4;
Fecha-Hora;InterfazCAN;PGN;Número Bytes;Datos
01/10/2025-11:59:36   can0  0CF00400   [8]  33 89 89 10 19 27 F0 89
01/10/2025-11:59:36   can0  18FEF100   [8]  F7 00 00 00 00 00 0B F0
01/10/2025-12:00:01   can0  0CF00400   [8]  63 8D 8D 80 25 27 F0 8E
01/10/2025-12:00:01   can0  18FEF100   [8]  F7 00 00 00 00 00 0D F0
CAN;01/10/2025-12:38:13;DOBACK027;Sesión:5;
Fecha-Hora;InterfazCAN;PGN;Número Bytes;Datos
01/10/2025-12:38:13   can0  0CF00400   [8]  43 8D 8D 80 25 27 F0 8E
01/10/2025-12:38:13   can0  18FEF100   [8]  F7 00 00 00 00 00 0D F0
01/10/2025-12:38:38   can0  0CF00400   [8]  73 8D 8D 70 25 27 F0 8E
01/10/2025-12:38:38   can0  18FEF100   [8]  F7 00 00 00 00 00 0D F0
01/10/2025-12:39:03   can0  0CF00400   [8]  63 8D 8D 78 25 27 F0 8E
01/10/2025-12:39:03   can0  18FEF100   [8]  F7 00 00 00 00 00 0D F0
01/10/2025-12:39:28   can0  0CF00400   [8]  03 88 89 F0 18 27 F0 89
01/10/2025-12:39:28   can0  18FEF100   [8]  F7 00 00 00 00 00 0B F0
01/10/2025-12:39:53   can0  0CF00400   [8]  73 89 88 00 19 27 F0 89
01/10/2025-12:39:53   can0  18FEF100   [8]  F7 00 00 00 00 00 0B F0
01/10/2025-12:40:18   can0  0CF00400   [8]  13 88 89 F8 18 27 F0 89
01/10/2025-12:40:18   can0  18FEF100   [8]  F7 00 00 00 00 00 0B F0
01/10/2025-12:40:43   can0  0CF00400   [8]  43 8B 8B 80 25 27 F0 8C
01/10/2025-12:40:43   can0  18FEF100   [8]  F7 00 00 00 00 00 0D F0
01/10/2025-12:41:08   can0  0CF00400   [8]  53 8C 8B 90 25 27 F0 8C
01/10/2025-12:41:08   can0  18FEF100   [8]  F7 00 00 00 00 00 0D F0
01/10/2025-12:41:33   can0  0CF00400   [8]  33 88 88 00 19 27 F0 88
01/10/2025-12:41:33   can0  18FEF100   [8]  F7 00 00 00 00 00 0B F0
01/10/2025-12:41:58   can0  0CF00400   [8]  03 88 88 18 19 27 F0 88
01/10/2025-12:41:58   can0  18FEF100   [8]  F7 00 00 00 00 00 0B F0
01/10/2025-12:42:23   can0  0CF00400   [8]  43 88 88 F8 18 27 F0 89
01/10/2025-12:42:23   can0  18FEF100   [8]  F7 00 00 00 00 00 0B F0
01/10/2025-12:42:48   can0  0CF00400   [8]  23 88 88 00 19 27 F0 88
01/10/2025-12:42:48   can0  18FEF100   [8]  F7 00 00 00 00 00 0B F0
01/10/2025-12:43:13   can0  0CF00400   [8]  43 88 88 F0 18 27 F0 88
01/10/2025-12:43:13   can0  18FEF100   [8]  F7 00 00 00 00 00 0B F0
01/10/2025-12:43:38   can0  0CF00400   [8]  43 88 88 08 19 27 F0 88
01/10/2025-12:43:38   can0  18FEF100   [8]  F7 00 00 00 00 00 0B F0
01/10/2025-12:44:03   can0  0CF00400   [8]  23 88 88 F8 18 27 F0 88
01/10/2025-12:44:03   can0  18FEF100   [8]  F7 00 00 00 00 00 0B F0
01/10/2025-12:44:28   can0  0CF00400   [8]  23 8C 8C 90 25 27 F0 8C
01/10/2025-12:44:28   can0  18FEF100   [8]  F7 00 00 00 00 00 0D F0
01/10/2025-12:44:53   can0  0CF00400   [8]  33 89 89 D0 25 27 F0 89
01/10/2025-12:44:53   can0  18FEF100   [8]  F7 00 00 00 00 00 0D F0
01/10/2025-12:45:18   can0  0CF00400   [8]  63 88 87 10 19 27 F0 88
01/10/2025-12:45:18   can0  18FEF100   [8]  F7 00 00 00 00 00 0B F0
01/10/2025-12:45:43   can0  0CF00400   [8]  13 88 88 F8 18 27 F0 88
01/10/2025-12:45:43   can0  18FEF100   [8]  F7 00 00 00 00 00 0B F0
01/10/2025-12:46:08   can0  0CF00400   [8]  03 88 88 08 19 27 F0 88
01/10/2025-12:46:08   can0  18FEF100   [8]  F7 00 00 00 00 00 0B F0
01/10/2025-12:46:33   can0  0CF00400   [8]  03 8C 8D 70 25 27 F0 8D
01/10/2025-12:46:33   can0  18FEF100   [8]  F7 00 00 00 00 00 0D F0
01/10/2025-12:46:58   can0  0CF00400   [8]  03 88 88 00 19 27 F0 88
01/10/2025-12:46:58   can0  18FEF100   [8]  F7 00 00 00 00 00 0B F0
01/10/2025-12:47:23   can0  0CF00400   [8]  13 89 8A 68 25 27 F0 8A
01/10/2025-12:47:24   can0  18FEF100   [8]  F7 00 00 00 00 00 0D F0
01/10/2025-12:47:48   can0  0CF00400   [8]  23 8C 8C 80 25 27 F0 8C
01/10/2025-12:47:49   can0  18FEF100   [8]  F7 00 00 00 00 00 0D F0
01/10/2025-12:48:13   can0  0CF00400   [8]  63 87 87 00 19 27 F0 88
01/10/2025-12:48:14   can0  18FEF100   [8]  F7 00 00 00 00 00 0B F0
01/10/2025-12:48:38   can0  0CF00400   [8]  63 8A 8A 90 25 27 F0 8B
01/10/2025-12:48:39   can0  18FEF100   [8]  F7 00 00 00 00 00 0D F0
01/10/2025-12:49:03   can0  0CF00400   [8]  33 8C 8C 90 25 27 F0 8C
01/10/2025-12:49:04   can0  18FEF100   [8]  F7 00 00 00 00 00 0D F0
01/10/2025-12:49:28   can0  0CF00400   [8]  13 87 88 F8 18 27 F0 88
01/10/2025-12:49:29   can0  18FEF100   [8]  F7 00 00 00 00 00 0B F0
01/10/2025-12:49:53   can0  0CF00400   [8]  13 8B 8C 58 25 27 F0 8C
01/10/2025-12:49:54   can0  18FEF100   [8]  F7 00 00 00 00 00 0D F0
01/10/2025-12:50:18   can0  0CF00400   [8]  73 8E 8E 70 25 27 F0 8F
01/10/2025-12:50:19   can0  18FEF100   [8]  F7 00 00 00 00 00 0D F0
01/10/2025-12:50:43   can0  0CF00400   [8]  53 8A 8A A0 25 27 F0 8B
01/10/2025-12:50:44   can0  18FEF100   [8]  F7 00 00 00 00 00 09 F0
01/10/2025-12:51:08   can0  0CF00400   [8]  03 99 97 D0 25 27 F0 97
01/10/2025-12:51:09   can0  18FEF100   [8]  F7 00 00 00 00 00 0D F0
01/10/2025-12:51:33   can0  0CF00400   [8]  0A 7D 7D B0 11 0B F0 95
01/10/2025-12:51:34   can0  18FEF100   [8]  F7 00 00 20 00 00 00 F0
CAN;01/10/2025-12:53:15;DOBACK027;Sesión:6;
Fecha-Hora;InterfazCAN;PGN;Número Bytes;Datos
01/10/2025-12:53:15   can0  0CF00400   [8]  01 8B 8B B0 28 27 F0 7D
01/10/2025-12:53:15   can0  18FEF100   [8]  F3 C8 0B 04 00 00 00 F0
01/10/2025-12:53:40   can0  0CF00400   [8]  40 7D 8A 30 14 00 F0 8B
01/10/2025-12:53:40   can0  18FEF100   [8]  F3 8D 02 10 00 00 00 F0
CAN;01/10/2025-13:00:40;DOBACK027;Sesión:7;
Fecha-Hora;InterfazCAN;PGN;Número Bytes;Datos
01/10/2025-13:00:40   can0  0CF00400   [8]  70 7D 8A 58 14 00 F0 8B
01/10/2025-13:00:40   can0  18FEF100   [8]  F3 03 02 10 00 00 00 F0
CAN;01/10/2025-13:03:15;DOBACK027;Sesión:8;
Fecha-Hora;InterfazCAN;PGN;Número Bytes;Datos
01/10/2025-13:03:15   can0  0CF00400   [8]  00 7D 7D 38 17 00 F0 7D
01/10/2025-13:03:15   can0  18FEF100   [8]  F3 A9 0A 10 00 00 00 F0
01/10/2025-13:03:40   can0  0CF00400   [8]  00 7D 7D 98 2A 00 F0 7D
01/10/2025-13:03:40   can0  18FEF100   [8]  F3 0D 1F 00 00 00 00 F0
01/10/2025-13:04:05   can0  0CF00400   [8]  00 7D 7D C0 2F 00 F0 7D
01/10/2025-13:04:06   can0  18FEF100   [8]  F3 14 41 10 00 00 00 F0
01/10/2025-13:04:30   can0  0CF00400   [8]  01 C0 B9 90 31 27 F0 7D
01/10/2025-13:04:31   can0  18FEF100   [8]  F3 CF 43 04 00 00 00 F0
CAN;01/10/2025-22:42:25;DOBACK027;Sesión:9;
Fecha-Hora;InterfazCAN;PGN;Número Bytes;Datos
01/10/2025-22:42:25   can0  18FEF100   [8]  F3 21 44 04 00 00 00 F0
01/10/2025-22:42:25   can0  0CF00400   [8]  01 BC BB 30 32 27 F0 7D
CAN;01/10/2025-22:42:54;DOBACK027;Sesión:10;
Fecha-Hora;InterfazCAN;PGN;Número Bytes;Datos
01/10/2025-22:42:54   can0  0CF00400   [8]  01 85 86 08 2E 27 F0 7D
01/10/2025-22:42:54   can0  18FEF100   [8]  F3 0D 23 04 00 00 00 F0
CAN;01/10/2025-22:44:13;DOBACK027;Sesión:11;
Fecha-Hora;InterfazCAN;PGN;Número Bytes;Datos
01/10/2025-22:44:13   can0  0CF00400   [8]  01 C5 C5 48 2D 27 F0 7D
01/10/2025-22:44:13   can0  18FEF100   [8]  F3 F6 20 04 00 00 00 F0
01/10/2025-22:44:38   can0  0CF00400   [8]  01 D2 D2 C8 40 27 F0 7D
01/10/2025-22:44:38   can0  18FEF100   [8]  F3 36 17 04 00 00 00 F0
01/10/2025-22:45:03   can0  0CF00400   [8]  01 C0 C0 98 38 27 F0 7D
01/10/2025-22:45:03   can0  18FEF100   [8]  F3 DA 13 04 00 00 00 F0
01/10/2025-22:45:28   can0  0CF00400   [8]  00 7D 7D 70 2F 00 F0 7D
01/10/2025-22:45:28   can0  18FEF100   [8]  F3 1A 1A 10 00 00 00 F0
01/10/2025-22:45:53   can0  0CF00400   [8]  01 B1 B0 A8 29 27 F0 7D
01/10/2025-22:45:53   can0  18FEF100   [8]  F3 C0 16 04 00 00 00 F0
01/10/2025-22:46:18   can0  0CF00400   [8]  60 7D 8B 48 14 00 F0 8C
01/10/2025-22:46:18   can0  18FEF100   [8]  F3 97 00 10 00 00 00 F0
01/10/2025-22:46:43   can0  0CF00400   [8]  00 7D 8C 50 14 00 F0 8C
01/10/2025-22:46:43   can0  18FEF100   [8]  F3 00 00 10 00 00 00 F0
01/10/2025-22:47:08   can0  0CF00400   [8]  60 7D 8B 50 14 00 F0 8C
01/10/2025-22:47:08   can0  18FEF100   [8]  F3 00 00 10 00 00 00 F0
01/10/2025-22:47:33   can0  0CF00400   [8]  00 7D 8C 60 14 00 F0 8C
01/10/2025-22:47:33   can0  18FEF100   [8]  F3 2E 01 10 00 00 00 F0
01/10/2025-22:47:58   can0  0CF00400   [8]  68 B6 AC 40 1E 00 F0 7D
01/10/2025-22:47:58   can0  18FEF100   [8]  F3 00 00 00 00 00 00 F0
01/10/2025-22:48:23   can0  0CF00400   [8]  01 9C 98 10 35 27 F0 7D
01/10/2025-22:48:23   can0  18FEF100   [8]  F3 CF 0D 04 00 00 00 F0
01/10/2025-22:48:48   can0  0CF00400   [8]  00 7D 7D 28 16 00 F0 7D
01/10/2025-22:48:48   can0  18FEF100   [8]  F3 3B 11 04 00 00 00 F0
01/10/2025-22:49:13   can0  0CF00400   [8]  01 95 93 60 1E 27 F0 7D
01/10/2025-22:49:13   can0  18FEF100   [8]  F3 43 04 00 00 00 00 F0
01/10/2025-22:49:38   can0  0CF00400   [8]  01 84 86 E8 21 27 F0 7D
01/10/2025-22:49:38   can0  18FEF100   [8]  F3 D7 12 04 00 00 00 F0
01/10/2025-22:50:03   can0  0CF00400   [8]  30 7D 8B 48 14 00 F0 8B
01/10/2025-22:50:03   can0  18FEF100   [8]  F3 00 00 10 00 00 00 F0
01/10/2025-22:50:28   can0  0CF00400   [8]  01 94 94 00 22 27 F0 7D
01/10/2025-22:50:28   can0  18FEF100   [8]  F3 26 08 04 00 00 00 F0
01/10/2025-22:50:53   can0  0CF00400   [8]  01 99 99 00 1A 27 F0 7D
01/10/2025-22:50:53   can0  18FEF100   [8]  F3 6C 02 00 00 00 00 F0
01/10/2025-22:51:18   can0  0CF00400   [8]  40 7D 88 80 14 00 F0 89
01/10/2025-22:51:18   can0  18FEF100   [8]  F3 8D 04 10 00 00 00 F0
01/10/2025-22:51:43   can0  0CF00400   [8]  21 8B 9C A0 15 27 F0 87
01/10/2025-22:51:43   can0  18FEF100   [8]  F3 14 01 00 00 00 00 F0
CAN;01/10/2025-22:52:11;DOBACK027;Sesión:12;
Fecha-Hora;InterfazCAN;PGN;Número Bytes;Datos
01/10/2025-22:52:11   can0  0CF00400   [8]  23 8E 8E 78 25 27 F0 8E
01/10/2025-22:52:11   can0  18FEF100   [8]  F7 00 00 00 00 00 0D F0
CAN;01/10/2025-22:52:11;DOBACK027;Sesión:13;
Fecha-Hora;InterfazCAN;PGN;Número Bytes;Datos
01/10/2025-22:52:11   can0  0CF00400   [8]  03 8D 8D A0 25 27 F0 8D
01/10/2025-22:52:11   can0  18FEF100   [8]  F7 00 00 00 00 00 0D F0
CAN;01/10/2025-22:57:15;DOBACK027;Sesión:14;
Fecha-Hora;InterfazCAN;PGN;Número Bytes;Datos
01/10/2025-22:57:15   can0  0CF00400   [8]  13 8E 8E 88 25 27 F0 8E
01/10/2025-22:57:15   can0  18FEF100   [8]  F7 00 00 00 00 00 0D F0
01/10/2025-22:57:40   can0  0CF00400   [8]  03 8D 8E 88 25 27 F0 8E
01/10/2025-22:57:40   can0  18FEF100   [8]  F7 00 00 00 00 00 0D F0
CAN;01/10/2025-22:58:00;DOBACK027;Sesión:15;
Fecha-Hora;InterfazCAN;PGN;Número Bytes;Datos
01/10/2025-22:58:00   can0  0CF00400   [8]  33 88 88 F8 18 27 F0 88
01/10/2025-22:58:00   can0  18FEF100   [8]  F7 00 00 00 00 00 0B F0
CAN;01/10/2025-22:58:00;DOBACK027;Sesión:16;
Fecha-Hora;InterfazCAN;PGN;Número Bytes;Datos
01/10/2025-22:58:00   can0  0CF00400   [8]  63 90 8F 80 25 27 F0 90
01/10/2025-22:58:00   can0  18FEF100   [8]  F7 00 00 00 00 00 0D F0
CAN;01/10/2025-23:00:52;DOBACK027;Sesión:17;
Fecha-Hora;InterfazCAN;PGN;Número Bytes;Datos
01/10/2025-23:00:52   can0  0CF00400   [8]  73 8F 8F 68 25 27 F0 90
01/10/2025-23:00:52   can0  18FEF100   [8]  F7 00 00 00 00 00 0D F0
01/10/2025-23:01:17   can0  0CF00400   [8]  63 90 90 70 25 27 F0 91
01/10/2025-23:01:17   can0  18FEF100   [8]  F7 00 00 00 00 00 0D F0
01/10/2025-23:01:42   can0  0CF00400   [8]  53 8B 8B 88 25 27 F0 8C
01/10/2025-23:01:42   can0  18FEF100   [8]  F7 00 00 00 00 00 0D F0
01/10/2025-23:02:07   can0  0CF00400   [8]  23 88 89 F0 18 27 F0 89
01/10/2025-23:02:07   can0  18FEF100   [8]  F7 00 00 00 00 00 0B F0
01/10/2025-23:02:32   can0  0CF00400   [8]  73 88 88 E0 18 27 F0 89
01/10/2025-23:02:32   can0  18FEF100   [8]  F7 00 00 00 00 00 0B F0
01/10/2025-23:02:57   can0  0CF00400   [8]  03 88 88 00 19 27 F0 88
01/10/2025-23:02:57   can0  18FEF100   [8]  F7 00 00 00 00 00 0B F0
01/10/2025-23:03:22   can0  0CF00400   [8]  23 88 88 00 19 27 F0 88
01/10/2025-23:03:22   can0  18FEF100   [8]  F7 00 00 00 00 00 0B F0
01/10/2025-23:03:47   can0  0CF00400   [8]  03 88 88 10 19 27 F0 88
01/10/2025-23:03:47   can0  18FEF100   [8]  F7 00 00 00 00 00 0B F0
01/10/2025-23:04:12   can0  0CF00400   [8]  33 88 88 00 19 27 F0 88
01/10/2025-23:04:12   can0  18FEF100   [8]  F7 00 00 00 00 00 0B F0
01/10/2025-23:04:37   can0  0CF00400   [8]  30 7D 84 68 14 00 F0 84
01/10/2025-23:04:37   can0  18FEF100   [8]  F7 00 00 00 00 00 03 F0
01/10/2025-23:05:02   can0  0CF00400   [8]  60 7D 84 48 14 00 F0 85
01/10/2025-23:05:02   can0  18FEF100   [8]  F7 00 00 00 00 00 03 F0
01/10/2025-23:05:27   can0  0CF00400   [8]  70 7D 84 50 14 00 F0 85
01/10/2025-23:05:27   can0  18FEF100   [8]  F7 00 00 00 00 00 03 F0
01/10/2025-23:05:52   can0  0CF00400   [8]  70 7D 84 50 14 00 F0 85
01/10/2025-23:05:52   can0  18FEF100   [8]  F7 00 00 00 00 00 03 F0
01/10/2025-23:06:17   can0  0CF00400   [8]  60 7D 84 58 14 00 F0 85
01/10/2025-23:06:17   can0  18FEF100   [8]  F7 00 00 00 00 00 03 F0
01/10/2025-23:06:42   can0  0CF00400   [8]  70 7D 84 50 14 00 F0 85
01/10/2025-23:06:42   can0  18FEF100   [8]  F7 00 00 00 00 00 03 F0
01/10/2025-23:07:07   can0  0CF00400   [8]  60 7D 84 58 14 00 F0 85
01/10/2025-23:07:07   can0  18FEF100   [8]  F7 00 00 00 00 00 03 F0
01/10/2025-23:07:32   can0  0CF00400   [8]  70 7D 84 58 14 00 F0 85
01/10/2025-23:07:32   can0  18FEF100   [8]  F7 00 00 00 00 00 03 F0
01/10/2025-23:07:57   can0  0CF00400   [8]  00 7D 85 50 14 00 F0 85
01/10/2025-23:07:57   can0  18FEF100   [8]  F7 00 00 00 00 00 03 F0
01/10/2025-23:08:22   can0  0CF00400   [8]  50 7D 84 60 14 00 F0 85
01/10/2025-23:08:22   can0  18FEF100   [8]  F7 00 00 00 00 00 03 F0
01/10/2025-23:08:47   can0  0CF00400   [8]  00 7D 85 50 14 00 F0 85
01/10/2025-23:08:47   can0  18FEF100   [8]  F7 00 00 00 00 00 03 F0
01/10/2025-23:09:12   can0  0CF00400   [8]  00 7D 85 40 14 00 F0 85
01/10/2025-23:09:12   can0  18FEF100   [8]  F7 00 00 00 00 00 03 F0
01/10/2025-23:09:37   can0  0CF00400   [8]  20 7D 85 40 14 00 F0 85
01/10/2025-23:09:37   can0  18FEF100   [8]  F7 00 00 00 00 00 03 F0
01/10/2025-23:10:02   can0  0CF00400   [8]  70 7D 84 40 14 00 F0 85
01/10/2025-23:10:02   can0  18FEF100   [8]  F7 00 00 00 00 00 03 F0
01/10/2025-23:10:27   can0  0CF00400   [8]  70 7D 84 50 14 00 F0 85
01/10/2025-23:10:27   can0  18FEF100   [8]  F7 00 00 10 00 00 00 F0
01/10/2025-23:10:52   can0  0CF00400   [8]  01 94 95 40 1E 27 F0 7D
01/10/2025-23:10:52   can0  18FEF100   [8]  F3 A9 06 04 00 00 00 F0
01/10/2025-23:11:17   can0  0CF00400   [8]  00 7D 7D 38 23 00 F0 7D
01/10/2025-23:11:17   can0  18FEF100   [8]  F3 94 13 10 00 00 00 F0
01/10/2025-23:11:42   can0  0CF00400   [8]  60 7D 8A 00 14 00 F0 8B
01/10/2025-23:11:42   can0  18FEF100   [8]  F3 2E 03 10 00 00 00 F0
01/10/2025-23:12:07   can0  0CF00400   [8]  01 AF AF 10 32 27 F0 7D
01/10/2025-23:12:07   can0  18FEF100   [8]  F3 29 15 04 00 00 00 F0
01/10/2025-23:12:32   can0  0CF00400   [8]  01 AA AA 40 2B 27 F0 7D
01/10/2025-23:12:32   can0  18FEF100   [8]  F3 00 18 04 00 00 00 F0
01/10/2025-23:12:57   can0  0CF00400   [8]  01 BC BC 60 33 27 F0 7D
01/10/2025-23:12:57   can0  18FEF100   [8]  F3 DA 1C 04 00 00 00 F0
01/10/2025-23:13:22   can0  0CF00400   [8]  00 7D 7D F0 30 00 F0 7D
01/10/2025-23:13:22   can0  18FEF100   [8]  F3 43 23 10 00 00 00 F0
01/10/2025-23:13:47   can0  0CF00400   [8]  50 7D 8A 60 14 00 F0 8B
01/10/2025-23:13:47   can0  18FEF100   [8]  F3 97 00 10 00 00 00 F0
01/10/2025-23:14:12   can0  0CF00400   [8]  00 7D 8B 48 14 00 F0 8B
01/10/2025-23:14:12   can0  18FEF100   [8]  F3 00 00 00 00 00 00 F0
01/10/2025-23:14:37   can0  0CF00400   [8]  50 7D 8C 48 14 00 F0 8D
01/10/2025-23:14:37   can0  18FEF100   [8]  F3 00 00 10 00 00 00 F0
01/10/2025-23:15:02   can0  0CF00400   [8]  01 96 97 30 33 27 F0 7D
01/10/2025-23:15:02   can0  18FEF100   [8]  F3 B3 1C 04 00 00 00 F0
01/10/2025-23:15:27   can0  0CF00400   [8]  01 B0 B0 70 2E 27 F0 7D
01/10/2025-23:15:27   can0  18FEF100   [8]  F3 26 0C 04 00 00 00 F0
01/10/2025-23:15:52   can0  0CF00400   [8]  01 9F 9E C8 28 27 F0 7D
01/10/2025-23:15:52   can0  18FEF100   [8]  F3 8A 29 04 00 00 00 F0
01/10/2025-23:16:17   can0  0CF00400   [8]  00 7D 7D 98 29 00 F0 7D
01/10/2025-23:16:18   can0  18FEF100   [8]  F3 52 2A 10 00 00 00 F0
01/10/2025-23:16:42   can0  0CF00400   [8]  70 7D 8A 48 14 00 F0 8B
01/10/2025-23:16:43   can0  18FEF100   [8]  F3 00 00 10 00 00 00 F0
01/10/2025-23:17:07   can0  0CF00400   [8]  01 B0 AF 10 2E 27 F0 7D
01/10/2025-23:17:08   can0  18FEF100   [8]  F3 EC 1A 04 00 00 00 F0
01/10/2025-23:17:32   can0  0CF00400   [8]  01 9B 9B A8 2A 27 F0 7D
01/10/2025-23:17:33   can0  18FEF100   [8]  F3 14 2C 04 00 00 00 F0
01/10/2025-23:17:57   can0  0CF00400   [8]  00 7D 7D C8 30 00 F0 7D
01/10/2025-23:17:58   can0  18FEF100   [8]  F3 A1 31 04 00 00 00 F0
01/10/2025-23:18:22   can0  0CF00400   [8]  00 7D 7D 48 19 00 F0 7D
01/10/2025-23:18:23   can0  18FEF100   [8]  F3 66 0E 04 00 00 00 F0
01/10/2025-23:18:47   can0  0CF00400   [8]  01 9F 9F A8 32 27 F0 7D
01/10/2025-23:18:48   can0  18FEF100   [8]  F3 1F 1D 04 00 00 00 F0
01/10/2025-23:19:12   can0  0CF00400   [8]  01 93 93 A8 30 27 F0 7D
01/10/2025-23:19:13   can0  18FEF100   [8]  F3 17 24 04 00 00 00 F0
01/10/2025-23:19:37   can0  0CF00400   [8]  00 7D 7D D8 28 00 F0 7D
01/10/2025-23:19:38   can0  18FEF100   [8]  F3 45 1C 04 00 00 00 F0
01/10/2025-23:20:02   can0  0CF00400   [8]  01 81 81 D0 29 27 F0 7D
01/10/2025-23:20:03   can0  18FEF100   [8]  F3 6E 2A 04 00 00 00 F0
01/10/2025-23:20:27   can0  0CF00400   [8]  01 A2 A2 E0 2F 27 F0 7D
01/10/2025-23:20:28   can0  18FEF100   [8]  F3 C3 1B 04 00 00 00 F0
01/10/2025-23:20:52   can0  0CF00400   [8]  00 7D 7D D8 29 00 F0 7D
01/10/2025-23:20:53   can0  18FEF100   [8]  F3 00 1C 04 00 00 00 F0
01/10/2025-23:21:17   can0  0CF00400   [8]  01 B4 B4 50 2E 27 F0 7D
01/10/2025-23:21:18   can0  18FEF100   [8]  F3 AC 21 04 00 00 00 F0
01/10/2025-23:21:42   can0  0CF00400   [8]  60 7D 88 D8 13 00 F0 89
01/10/2025-23:21:43   can0  18FEF100   [8]  F3 92 02 10 00 00 00 F0
01/10/2025-23:22:07   can0  0CF00400   [8]  00 7D 8B 68 14 00 F0 8B
01/10/2025-23:22:08   can0  18FEF100   [8]  F3 F1 04 10 00 00 00 F0
01/10/2025-23:22:32   can0  0CF00400   [8]  20 7D 8A 50 14 00 F0 8A
01/10/2025-23:22:33   can0  18FEF100   [8]  F3 9A 02 10 00 00 00 F0
CAN;01/10/2025-23:22:58;DOBACK027;Sesión:18;
Fecha-Hora;InterfazCAN;PGN;Número Bytes;Datos
01/10/2025-23:22:58   can0  0CF00400   [8]  00 7D 7D 00 00 00 F0 7D
01/10/2025-23:22:58   can0  18FEF100   [8]  F7 00 00 00 00 00 00 F0
01/10/2025-23:23:23   can0  0CF00400   [8]  00 7D 7D 00 00 00 F0 7D
01/10/2025-23:23:24   can0  18FEF100   [8]  F7 00 00 00 00 00 00 F0
01/10/2025-23:23:48   can0  0CF00400   [8]  01 96 96 48 20 27 F0 7D
01/10/2025-23:23:49   can0  18FEF100   [8]  F3 12 06 04 00 00 00 F0
