CAN;29/09/2025-14:02:47;DOBACK027;Sesión:10;
Fecha-Hora;InterfazCAN;PGN;Número Bytes;Datos
29/09/2025-14:02:47   can0  18F0010B   [8]  00 00 C3 FF FF 0D FF 3F
29/09/2025-14:02:47   can0  0CF00400   [8]  00 7D 7D 00 00 00 F0 7D
29/09/2025-14:02:47   can0  18F00127   [8]  FF FF FF FF 00 FF FF FF
29/09/2025-14:03:12   can0  0CF00400   [8]  00 7D 7D 00 00 00 F0 7D
29/09/2025-14:03:12   can0  18F0010B   [8]  00 00 C3 FF FF 0D FF 3F
29/09/2025-14:03:12   can0  18F00127   [8]  FF FF FF FF 00 FF FF FF
29/09/2025-14:03:37   can0  0CF00400   [8]  00 7D 7D 00 00 00 F0 7D
29/09/2025-14:03:37   can0  18F0010B   [8]  00 00 C3 FF FF 0D FF 3F
29/09/2025-14:03:37   can0  18F00127   [8]  FF FF FF FF 00 FF FF FF
29/09/2025-14:04:02   can0  0CF00400   [8]  00 7D 7D 00 00 00 F0 7D
29/09/2025-14:04:02   can0  18F0010B   [8]  00 00 C3 FF FF 0D FF 3F
29/09/2025-14:04:02   can0  18F00127   [8]  FF FF FF FF 00 FF FF FF
29/09/2025-14:04:27   can0  0CF00400   [8]  00 7D 7D 00 00 00 F0 7D
29/09/2025-14:04:27   can0  18F0010B   [8]  00 00 C3 FF FF 0D FF 3F
29/09/2025-14:04:27   can0  18F00127   [8]  FF FF FF FF 00 FF FF FF
29/09/2025-14:04:52   can0  0CF00400   [8]  00 7D 7D 00 00 00 F0 7D
29/09/2025-14:04:52   can0  18F0010B   [8]  00 00 C3 FF FF 0D FF 3F
29/09/2025-14:04:52   can0  18F00127   [8]  FF FF FF FF 00 FF FF FF
29/09/2025-14:05:17   can0  0CF00400   [8]  00 7D 7D 00 00 00 F0 7D
29/09/2025-14:05:17   can0  18F0010B   [8]  00 00 C3 FF FF 0D FF 3F
29/09/2025-14:05:17   can0  18F00127   [8]  FF FF FF FF 00 FF FF FF
29/09/2025-14:05:42   can0  0CF00400   [8]  00 7D 7D 00 00 00 F0 7D
29/09/2025-14:05:42   can0  18F0010B   [8]  00 00 C3 FF FF 0D FF 3F
29/09/2025-14:05:42   can0  18F00127   [8]  FF FF FF FF 00 FF FF FF
29/09/2025-14:06:07   can0  0CF00400   [8]  00 7D 7D 00 00 00 F0 7D
29/09/2025-14:06:07   can0  18F0010B   [8]  00 00 C3 FF FF 0D FF 3F
29/09/2025-14:06:07   can0  18F00127   [8]  FF FF FF FF 00 FF FF FF
29/09/2025-14:06:32   can0  0CF00400   [8]  00 7D 7D 00 00 00 F0 7D
29/09/2025-14:06:32   can0  18F0010B   [8]  00 00 C3 FF FF 0D FF 3F
29/09/2025-14:06:32   can0  18F00127   [8]  FF FF FF FF 00 FF FF FF
29/09/2025-14:06:57   can0  0CF00400   [8]  00 7D 7D 00 00 00 F0 7D
29/09/2025-14:06:57   can0  18F0010B   [8]  00 00 C3 FF FF 0D FF 3F
29/09/2025-14:06:57   can0  18F00127   [8]  FF FF FF FF 00 FF FF FF
29/09/2025-14:07:22   can0  0CF00400   [8]  00 7D 7D 00 00 00 F0 7D
29/09/2025-14:07:22   can0  18F0010B   [8]  00 00 C3 FF FF 0D FF 3F
29/09/2025-14:07:23   can0  18F00127   [8]  FF FF FF FF 00 FF FF FF
CAN;29/09/2025-14:07:52;DOBACK027;Sesión:11;
Fecha-Hora;InterfazCAN;PGN;Número Bytes;Datos
29/09/2025-14:07:52   can0  0CF00400   [8]  00 7D 7D 00 00 00 F0 7D
29/09/2025-14:07:52   can0  18FEF100   [8]  F7 00 00 00 00 00 00 F0
29/09/2025-14:08:17   can0  0CF00400   [8]  00 7D 7D 00 00 00 F0 7D
29/09/2025-14:08:17   can0  18FEF100   [8]  F7 00 00 00 00 00 00 F0
29/09/2025-14:08:42   can0  0CF00400   [8]  00 7D 7D 00 00 00 F0 7D
29/09/2025-14:08:42   can0  18FEF100   [8]  F7 00 00 00 00 00 00 F0
CAN;29/09/2025-14:10:50;DOBACK027;Sesión:12;
Fecha-Hora;InterfazCAN;PGN;Número Bytes;Datos
29/09/2025-14:10:50   can0  0CF00400   [8]  01 92 91 70 24 27 F0 7D
29/09/2025-14:10:50   can0  18FEF100   [8]  F3 0F 01 00 00 00 00 F0
29/09/2025-14:11:15   can0  0CF00400   [8]  01 9D 9D 38 37 27 F0 7D
29/09/2025-14:11:15   can0  18FEF100   [8]  F3 54 0F 04 00 00 00 F0
29/09/2025-14:11:40   can0  0CF00400   [8]  60 7D 84 48 14 00 F0 85
29/09/2025-14:11:41   can0  18FEF100   [8]  F7 00 00 00 00 00 03 F0
29/09/2025-14:12:05   can0  0CF00400   [8]  13 88 88 00 19 27 F0 88
29/09/2025-14:12:06   can0  18FEF100   [8]  F7 00 00 00 00 00 0B F0
CAN;29/09/2025-19:01:36;DOBACK027;Sesión:13;
Fecha-Hora;InterfazCAN;PGN;Número Bytes;Datos
29/09/2025-19:01:36   can0  0CF00400   [8]  63 88 87 18 19 27 F0 88
29/09/2025-19:01:36   can0  18FEF100   [8]  F7 00 00 00 00 00 0B F0
29/09/2025-19:02:01   can0  0CF00400   [8]  03 88 88 00 19 27 F0 88
29/09/2025-19:02:01   can0  18FEF100   [8]  F7 00 00 00 00 00 0B F0
29/09/2025-19:02:26   can0  0CF00400   [8]  73 88 87 08 19 27 F0 88
29/09/2025-19:02:26   can0  18FEF100   [8]  F7 00 00 00 00 00 0B F0
29/09/2025-19:02:51   can0  0CF00400   [8]  73 87 87 F8 18 27 F0 88
29/09/2025-19:02:51   can0  18FEF100   [8]  F7 00 00 00 00 00 0B F0
29/09/2025-19:03:16   can0  0CF00400   [8]  53 87 86 60 1A 27 F0 87
29/09/2025-19:03:16   can0  18FEF100   [8]  F7 00 00 00 00 00 0B F0
29/09/2025-19:03:41   can0  0CF00400   [8]  73 8F 8F 20 25 27 F0 90
29/09/2025-19:03:42   can0  18FEF100   [8]  F7 00 00 00 00 00 0D F0
29/09/2025-19:04:06   can0  0CF00400   [8]  13 87 87 00 19 27 F0 87
29/09/2025-19:04:07   can0  18FEF100   [8]  F7 00 00 00 00 00 0B F0
29/09/2025-19:04:31   can0  0CF00400   [8]  53 87 86 18 19 27 F0 87
29/09/2025-19:04:32   can0  18FEF100   [8]  F7 00 00 00 00 00 0B F0
29/09/2025-19:04:56   can0  0CF00400   [8]  03 86 87 00 19 27 F0 87
29/09/2025-19:04:57   can0  18FEF100   [8]  F7 00 00 00 00 00 0B F0
29/09/2025-19:05:21   can0  0CF00400   [8]  03 8B 8B B8 25 27 F0 8B
29/09/2025-19:05:22   can0  18FEF100   [8]  F7 00 00 00 00 00 0D F0
29/09/2025-19:05:46   can0  0CF00400   [8]  63 86 86 00 19 27 F0 87
29/09/2025-19:05:47   can0  18FEF100   [8]  F7 00 00 00 00 00 0B F0
29/09/2025-19:06:11   can0  0CF00400   [8]  63 86 86 08 19 27 F0 87
29/09/2025-19:06:12   can0  18FEF100   [8]  F7 00 00 00 00 00 0B F0
29/09/2025-19:06:36   can0  0CF00400   [8]  03 86 87 F0 18 27 F0 87
29/09/2025-19:06:37   can0  18FEF100   [8]  F7 00 00 00 00 00 0B F0
29/09/2025-19:07:01   can0  0CF00400   [8]  73 94 94 78 25 27 F0 95
29/09/2025-19:07:02   can0  18FEF100   [8]  F7 00 00 00 00 00 0D F0
29/09/2025-19:07:26   can0  0CF00400   [8]  33 8C 8C 88 25 27 F0 8C
29/09/2025-19:07:27   can0  18FEF100   [8]  F7 00 00 00 00 00 0D F0
29/09/2025-19:07:51   can0  0CF00400   [8]  43 86 86 F8 18 27 F0 87
29/09/2025-19:07:52   can0  18FEF100   [8]  F7 00 00 00 00 00 0B F0
29/09/2025-19:08:16   can0  0CF00400   [8]  03 86 86 10 19 27 F0 86
29/09/2025-19:08:17   can0  18FEF100   [8]  F7 00 00 00 00 00 0B F0
29/09/2025-19:08:41   can0  0CF00400   [8]  43 86 86 00 19 27 F0 86
29/09/2025-19:08:42   can0  18FEF100   [8]  F7 00 00 00 00 00 0B F0
29/09/2025-19:09:06   can0  0CF00400   [8]  03 8F 8E D8 25 27 F0 8E
29/09/2025-19:09:07   can0  18FEF100   [8]  F7 00 00 00 00 00 0D F0
29/09/2025-19:09:31   can0  0CF00400   [8]  43 8C 8C 70 25 27 F0 8D
29/09/2025-19:09:32   can0  18FEF100   [8]  F7 00 00 00 00 00 0D F0
29/09/2025-19:09:56   can0  0CF00400   [8]  63 8A 8A 88 25 27 F0 8B
29/09/2025-19:09:57   can0  18FEF100   [8]  F7 00 00 00 00 00 0D F0
29/09/2025-19:10:21   can0  0CF00400   [8]  53 88 87 10 19 27 F0 88
29/09/2025-19:10:23   can0  18FEF100   [8]  F7 00 00 00 00 00 0B F0
29/09/2025-19:10:46   can0  0CF00400   [8]  13 88 88 08 19 27 F0 88
29/09/2025-19:10:48   can0  18FEF100   [8]  F7 00 00 00 00 00 0B F0
29/09/2025-19:11:11   can0  0CF00400   [8]  03 88 88 08 19 27 F0 88
29/09/2025-19:11:13   can0  18FEF100   [8]  F7 00 00 00 00 00 0B F0
29/09/2025-19:11:36   can0  0CF00400   [8]  33 88 88 F0 18 27 F0 88
29/09/2025-19:11:38   can0  18FEF100   [8]  F7 00 00 00 00 00 0B F0
29/09/2025-19:12:01   can0  0CF00400   [8]  33 87 87 10 19 27 F0 87
29/09/2025-19:12:03   can0  18FEF100   [8]  F7 00 00 00 00 00 0B F0
29/09/2025-19:12:26   can0  0CF00400   [8]  53 87 87 08 19 27 F0 88
29/09/2025-19:12:28   can0  18FEF100   [8]  F7 00 00 00 00 00 0B F0
29/09/2025-19:12:51   can0  0CF00400   [8]  63 87 87 00 19 27 F0 88
29/09/2025-19:12:53   can0  18FEF100   [8]  F7 00 00 00 00 00 0B F0
29/09/2025-19:13:16   can0  0CF00400   [8]  73 87 87 F8 18 27 F0 88
29/09/2025-19:13:18   can0  18FEF100   [8]  F7 00 00 00 00 00 0B F0
29/09/2025-19:13:41   can0  0CF00400   [8]  03 87 87 20 19 27 F0 87
29/09/2025-19:13:43   can0  18FEF100   [8]  F7 00 00 00 00 00 0B F0
29/09/2025-19:14:06   can0  0CF00400   [8]  33 87 87 00 19 27 F0 87
29/09/2025-19:14:08   can0  18FEF100   [8]  F7 00 00 00 00 00 0B F0
29/09/2025-19:14:31   can0  0CF00400   [8]  53 87 87 F0 18 27 F0 88
29/09/2025-19:14:34   can0  18FEF100   [8]  F7 00 00 00 00 00 0B F0
29/09/2025-19:14:56   can0  0CF00400   [8]  43 87 87 F0 18 27 F0 88
29/09/2025-19:14:59   can0  18FEF100   [8]  F7 00 00 00 00 00 0B F0
29/09/2025-19:15:21   can0  0CF00400   [8]  23 88 88 18 19 27 F0 88
29/09/2025-19:15:24   can0  18FEF100   [8]  F7 00 00 00 00 00 0B F0
29/09/2025-19:15:46   can0  0CF00400   [8]  43 88 88 08 19 27 F0 88
29/09/2025-19:15:49   can0  18FEF100   [8]  F7 00 00 00 00 00 0B F0
29/09/2025-19:16:11   can0  0CF00400   [8]  03 88 89 F8 18 27 F0 89
29/09/2025-19:16:14   can0  18FEF100   [8]  F7 00 00 00 00 00 0B F0
29/09/2025-19:16:36   can0  0CF00400   [8]  53 88 88 00 19 27 F0 89
29/09/2025-19:16:39   can0  18FEF100   [8]  F7 00 00 00 00 00 0B F0
29/09/2025-19:17:01   can0  0CF00400   [8]  63 88 88 00 19 27 F0 89
29/09/2025-19:17:04   can0  18FEF100   [8]  F7 00 00 00 00 00 0B F0
29/09/2025-19:17:26   can0  0CF00400   [8]  33 88 88 10 19 27 F0 88
29/09/2025-19:17:29   can0  18FEF100   [8]  F7 00 00 00 00 00 0B F0
29/09/2025-19:17:51   can0  0CF00400   [8]  43 88 88 08 19 27 F0 88
29/09/2025-19:17:54   can0  18FEF100   [8]  F7 00 00 00 00 00 0B F0
29/09/2025-19:18:16   can0  0CF00400   [8]  53 88 88 F8 18 27 F0 89
29/09/2025-19:18:19   can0  18FEF100   [8]  F7 00 00 00 00 00 0B F0
29/09/2025-19:18:41   can0  0CF00400   [8]  23 89 89 F8 18 27 F0 89
29/09/2025-19:18:44   can0  18FEF100   [8]  F7 00 00 00 00 00 0B F0
29/09/2025-19:19:06   can0  0CF00400   [8]  53 88 88 00 19 27 F0 89
29/09/2025-19:19:09   can0  18FEF100   [8]  F7 00 00 00 00 00 0B F0
29/09/2025-19:19:31   can0  0CF00400   [8]  73 88 88 F8 18 27 F0 89
29/09/2025-19:19:34   can0  18FEF100   [8]  F7 00 00 00 00 00 0B F0
29/09/2025-19:19:56   can0  0CF00400   [8]  73 88 88 08 19 27 F0 89
29/09/2025-19:19:59   can0  18FEF100   [8]  F7 00 00 00 00 00 0B F0
29/09/2025-19:20:21   can0  0CF00400   [8]  23 88 88 10 19 27 F0 88
29/09/2025-19:20:24   can0  18FEF100   [8]  F7 00 00 00 00 00 0B F0
29/09/2025-19:20:46   can0  0CF00400   [8]  63 88 88 F8 18 27 F0 89
29/09/2025-19:20:49   can0  18FEF100   [8]  F7 00 00 00 00 00 0B F0
29/09/2025-19:21:11   can0  0CF00400   [8]  63 88 88 00 19 27 F0 89
29/09/2025-19:21:14   can0  18FEF100   [8]  F7 00 00 00 00 00 0B F0
29/09/2025-19:21:36   can0  0CF00400   [8]  43 88 88 00 19 27 F0 88
29/09/2025-19:21:39   can0  18FEF100   [8]  F7 00 00 00 00 00 0B F0
29/09/2025-19:22:01   can0  0CF00400   [8]  63 88 88 F8 18 27 F0 89
29/09/2025-19:22:04   can0  18FEF100   [8]  F7 00 00 00 00 00 0B F0
29/09/2025-19:22:26   can0  0CF00400   [8]  43 8D 8D 80 25 27 F0 8D
29/09/2025-19:22:29   can0  18FEF100   [8]  F7 00 00 00 00 00 0D F0
29/09/2025-19:22:51   can0  0CF00400   [8]  73 94 93 70 25 27 F0 94
29/09/2025-19:22:54   can0  18FEF100   [8]  F7 00 00 00 00 00 0D F0
29/09/2025-19:23:16   can0  0CF00400   [8]  43 94 94 68 25 27 F0 94
29/09/2025-19:23:19   can0  18FEF100   [8]  F7 00 00 00 00 00 0D F0
29/09/2025-19:23:41   can0  0CF00400   [8]  13 90 90 88 25 27 F0 90
29/09/2025-19:23:44   can0  18FEF100   [8]  F7 00 00 00 00 00 0D F0
29/09/2025-19:24:06   can0  0CF00400   [8]  23 87 88 78 25 27 F0 88
29/09/2025-19:24:09   can0  18FEF100   [8]  F7 00 00 00 00 00 0D F0
29/09/2025-19:24:32   can0  0CF00400   [8]  53 89 88 A0 25 27 F0 89
29/09/2025-19:24:34   can0  18FEF100   [8]  F7 00 00 00 00 00 0D F0
29/09/2025-19:24:57   can0  0CF00400   [8]  63 86 85 88 25 27 F0 86
29/09/2025-19:24:59   can0  18FEF100   [8]  F7 00 00 00 00 00 0D F0
29/09/2025-19:25:22   can0  0CF00400   [8]  53 85 85 08 19 27 F0 86
29/09/2025-19:25:24   can0  18FEF100   [8]  F7 00 00 00 00 00 0B F0
29/09/2025-19:25:47   can0  0CF00400   [8]  63 85 85 F8 18 27 F0 86
29/09/2025-19:25:49   can0  18FEF100   [8]  F7 00 00 00 00 00 0D F0
29/09/2025-19:26:12   can0  0CF00400   [8]  73 90 8F A8 25 27 F0 90
29/09/2025-19:26:14   can0  18FEF100   [8]  F7 00 00 00 00 00 0D F0
29/09/2025-19:26:37   can0  0CF00400   [8]  63 88 87 A8 25 27 F0 88
29/09/2025-19:26:39   can0  18FEF100   [8]  F7 00 00 00 00 00 0D F0
29/09/2025-19:27:02   can0  0CF00400   [8]  53 86 86 78 25 27 F0 87
29/09/2025-19:27:04   can0  18FEF100   [8]  F7 00 00 00 00 00 0D F0
29/09/2025-19:27:27   can0  0CF00400   [8]  63 86 86 00 19 27 F0 87
29/09/2025-19:27:29   can0  18FEF100   [8]  F7 00 00 00 00 00 0B F0
29/09/2025-19:27:52   can0  0CF00400   [8]  03 85 86 08 19 27 F0 86
29/09/2025-19:27:54   can0  18FEF100   [8]  F7 00 00 00 00 00 0B F0
29/09/2025-19:28:17   can0  0CF00400   [8]  23 85 85 08 19 27 F0 85
29/09/2025-19:28:20   can0  18FEF100   [8]  F7 00 00 00 00 00 0B F0
29/09/2025-19:28:42   can0  0CF00400   [8]  63 85 85 F8 18 27 F0 86
29/09/2025-19:28:45   can0  18FEF100   [8]  F7 00 00 00 00 00 0B F0
29/09/2025-19:29:07   can0  0CF00400   [8]  73 88 87 08 19 27 F0 88
29/09/2025-19:29:10   can0  18FEF100   [8]  F7 00 00 00 00 00 0B F0
29/09/2025-19:29:32   can0  0CF00400   [8]  33 88 88 F8 18 27 F0 88
29/09/2025-19:29:35   can0  18FEF100   [8]  F7 00 00 00 00 00 0B F0
29/09/2025-19:29:57   can0  0CF00400   [8]  73 88 87 08 19 27 F0 88
29/09/2025-19:30:00   can0  18FEF100   [8]  F7 00 00 00 00 00 0B F0
29/09/2025-19:30:22   can0  0CF00400   [8]  13 88 88 00 19 27 F0 88
29/09/2025-19:30:25   can0  18FEF100   [8]  F7 00 00 00 00 00 0B F0
29/09/2025-19:30:47   can0  0CF00400   [8]  73 88 87 08 19 27 F0 88
29/09/2025-19:30:50   can0  18FEF100   [8]  F7 00 00 00 00 00 0B F0
29/09/2025-19:31:12   can0  0CF00400   [8]  23 88 88 F8 18 27 F0 88
29/09/2025-19:31:15   can0  18FEF100   [8]  F7 00 00 00 00 00 0B F0
29/09/2025-19:31:37   can0  0CF00400   [8]  03 88 88 08 19 27 F0 88
29/09/2025-19:31:40   can0  18FEF100   [8]  F7 00 00 00 00 00 0B F0
29/09/2025-19:32:02   can0  0CF00400   [8]  13 88 88 F8 18 27 F0 88
29/09/2025-19:32:05   can0  18FEF100   [8]  F7 00 00 00 00 00 0B F0
29/09/2025-19:32:27   can0  0CF00400   [8]  13 88 88 08 19 27 F0 88
29/09/2025-19:32:30   can0  18FEF100   [8]  F7 00 00 00 00 00 0B F0
29/09/2025-19:32:52   can0  0CF00400   [8]  73 88 87 08 19 27 F0 88
29/09/2025-19:32:55   can0  18FEF100   [8]  F7 00 00 00 00 00 0B F0
29/09/2025-19:33:17   can0  0CF00400   [8]  13 88 88 00 19 27 F0 88
29/09/2025-19:33:20   can0  18FEF100   [8]  F7 00 00 00 00 00 0B F0
29/09/2025-19:33:42   can0  0CF00400   [8]  73 88 87 08 19 27 F0 88
29/09/2025-19:33:46   can0  18FEF100   [8]  F7 00 00 00 00 00 0B F0
29/09/2025-19:34:07   can0  0CF00400   [8]  03 87 88 F8 18 27 F0 88
29/09/2025-19:34:11   can0  18FEF100   [8]  F7 00 00 00 00 00 0B F0
29/09/2025-19:34:32   can0  0CF00400   [8]  73 87 87 00 19 27 F0 88
29/09/2025-19:34:36   can0  18FEF100   [8]  F7 00 00 00 00 00 0B F0
29/09/2025-19:34:57   can0  0CF00400   [8]  53 87 87 08 19 27 F0 88
29/09/2025-19:35:01   can0  18FEF100   [8]  F7 00 00 00 00 00 0B F0
29/09/2025-19:35:22   can0  0CF00400   [8]  73 87 87 F8 18 27 F0 88
29/09/2025-19:35:26   can0  18FEF100   [8]  F7 00 00 00 00 00 0B F0
29/09/2025-19:35:47   can0  0CF00400   [8]  03 87 88 F8 18 27 F0 88
29/09/2025-19:35:51   can0  18FEF100   [8]  F7 00 00 00 00 00 0B F0
29/09/2025-19:36:12   can0  0CF00400   [8]  53 87 87 08 19 27 F0 88
29/09/2025-19:36:16   can0  18FEF100   [8]  F7 00 00 00 00 00 0B F0
29/09/2025-19:36:37   can0  0CF00400   [8]  03 88 88 F8 18 27 F0 88
29/09/2025-19:36:41   can0  18FEF100   [8]  F7 00 00 00 00 00 0B F0
29/09/2025-19:37:02   can0  0CF00400   [8]  03 87 88 08 19 27 F0 88
29/09/2025-19:37:06   can0  18FEF100   [8]  F7 00 00 00 00 00 0B F0
29/09/2025-19:37:27   can0  0CF00400   [8]  53 87 87 08 19 27 F0 88
29/09/2025-19:37:31   can0  18FEF100   [8]  F7 00 00 00 00 00 0B F0
29/09/2025-19:37:52   can0  0CF00400   [8]  73 87 87 F8 18 27 F0 88
29/09/2025-19:37:56   can0  18FEF100   [8]  F7 00 00 00 00 00 0B F0
29/09/2025-19:38:17   can0  0CF00400   [8]  13 87 88 00 19 27 F0 88
29/09/2025-19:38:21   can0  18FEF100   [8]  F7 00 00 00 00 00 0B F0
29/09/2025-19:38:42   can0  0CF00400   [8]  73 88 87 08 19 27 F0 88
29/09/2025-19:38:46   can0  18FEF100   [8]  F7 00 00 00 00 00 0B F0
29/09/2025-19:39:07   can0  0CF00400   [8]  03 88 88 F8 18 27 F0 88
29/09/2025-19:39:11   can0  18FEF100   [8]  F7 00 00 00 00 00 0B F0
29/09/2025-19:39:32   can0  0CF00400   [8]  43 87 87 18 19 27 F0 88
29/09/2025-19:39:36   can0  18FEF100   [8]  F7 00 00 00 00 00 0B F0
29/09/2025-19:39:57   can0  0CF00400   [8]  73 88 87 08 19 27 F0 88
29/09/2025-19:40:01   can0  18FEF100   [8]  F7 00 00 00 00 00 0B F0
29/09/2025-19:40:22   can0  0CF00400   [8]  03 87 88 F8 18 27 F0 88
29/09/2025-19:40:26   can0  18FEF100   [8]  F7 00 00 00 00 00 0B F0
29/09/2025-19:40:47   can0  0CF00400   [8]  03 88 88 08 19 27 F0 88
29/09/2025-19:40:51   can0  18FEF100   [8]  F7 00 00 00 00 00 0B F0
29/09/2025-19:41:12   can0  0CF00400   [8]  43 87 87 10 19 27 F0 88
29/09/2025-19:41:16   can0  18FEF100   [8]  F7 00 00 00 00 00 0B F0
29/09/2025-19:41:37   can0  0CF00400   [8]  43 94 93 A0 25 27 F0 94
29/09/2025-19:41:41   can0  18FEF100   [8]  F7 00 00 00 00 00 0D F0
29/09/2025-19:42:02   can0  0CF00400   [8]  13 91 90 F8 25 27 F0 90
29/09/2025-19:42:06   can0  18FEF100   [8]  F7 00 00 00 00 00 0D F0
29/09/2025-19:42:27   can0  0CF00400   [8]  03 8C 8C 90 25 27 F0 8C
29/09/2025-19:42:31   can0  18FEF100   [8]  F7 00 00 00 00 00 0D F0
29/09/2025-19:42:52   can0  0CF00400   [8]  13 89 8A 80 18 27 F0 8A
29/09/2025-19:42:56   can0  18FEF100   [8]  F7 00 00 00 00 00 0B F0
29/09/2025-19:43:17   can0  0CF00400   [8]  23 89 89 90 25 27 F0 89
29/09/2025-19:43:21   can0  18FEF100   [8]  F7 00 00 00 00 00 0D F0
29/09/2025-19:43:42   can0  0CF00400   [8]  73 89 88 88 25 27 F0 89
29/09/2025-19:43:46   can0  18FEF100   [8]  F7 00 00 00 00 00 0D F0
29/09/2025-19:44:07   can0  0CF00400   [8]  53 85 85 00 19 27 F0 86
29/09/2025-19:44:11   can0  18FEF100   [8]  F7 00 00 00 00 00 0B F0
29/09/2025-19:44:32   can0  0CF00400   [8]  63 85 85 F8 18 27 F0 86
29/09/2025-19:44:36   can0  18FEF100   [8]  F7 00 00 00 00 00 0B F0
29/09/2025-19:44:57   can0  0CF00400   [8]  53 85 85 00 19 27 F0 86
29/09/2025-19:45:01   can0  18FEF100   [8]  F7 00 00 00 00 00 0B F0
29/09/2025-19:45:22   can0  0CF00400   [8]  13 86 85 98 25 27 F0 85
29/09/2025-19:45:26   can0  18FEF100   [8]  F7 00 00 00 00 00 0D F0
29/09/2025-19:45:47   can0  0CF00400   [8]  23 8C 8C 80 25 27 F0 8C
29/09/2025-19:45:51   can0  18FEF100   [8]  F7 00 00 00 00 00 0D F0
29/09/2025-19:46:12   can0  0CF00400   [8]  23 85 85 F8 18 27 F0 85
29/09/2025-19:46:16   can0  18FEF100   [8]  F7 00 00 00 00 00 0B F0
29/09/2025-19:46:37   can0  0CF00400   [8]  53 85 85 F8 18 27 F0 86
29/09/2025-19:46:41   can0  18FEF100   [8]  F7 00 00 00 00 00 00 F0
29/09/2025-19:47:02   can0  0CF00400   [8]  53 86 86 80 25 27 F0 87
29/09/2025-19:47:06   can0  18FEF100   [8]  F7 00 00 00 00 00 0D F0
29/09/2025-19:47:27   can0  0CF00400   [8]  33 85 85 80 25 27 F0 85
29/09/2025-19:47:31   can0  18FEF100   [8]  F7 00 00 00 00 00 0D F0
29/09/2025-19:47:52   can0  0CF00400   [8]  23 85 85 F8 18 27 F0 85
29/09/2025-19:47:56   can0  18FEF100   [8]  F7 00 00 00 00 00 0B F0
29/09/2025-19:48:17   can0  0CF00400   [8]  53 85 85 08 19 27 F0 86
29/09/2025-19:48:21   can0  18FEF100   [8]  F7 00 00 00 00 00 0B F0
29/09/2025-19:48:42   can0  0CF00400   [8]  43 8E 8E 78 25 27 F0 8F
29/09/2025-19:48:46   can0  18FEF100   [8]  F7 00 00 00 00 00 0D F0
29/09/2025-19:49:07   can0  0CF00400   [8]  13 8C 8C 90 25 27 F0 8C
29/09/2025-19:49:11   can0  18FEF100   [8]  F7 00 00 00 00 00 0D F0
29/09/2025-19:49:32   can0  0CF00400   [8]  23 87 87 08 19 27 F0 87
29/09/2025-19:49:36   can0  18FEF100   [8]  F7 00 00 00 00 00 0B F0
29/09/2025-19:49:57   can0  0CF00400   [8]  73 8E 8E 88 25 27 F0 8F
29/09/2025-19:50:01   can0  18FEF100   [8]  F7 00 00 00 00 00 0D F0
29/09/2025-19:50:22   can0  0CF00400   [8]  03 8A 8A C0 25 27 F0 8A
29/09/2025-19:50:26   can0  18FEF100   [8]  F7 00 00 00 00 00 0D F0
29/09/2025-19:50:47   can0  0CF00400   [8]  73 88 88 88 25 27 F0 89
29/09/2025-19:50:51   can0  18FEF100   [8]  F7 00 00 00 00 00 0D F0
29/09/2025-19:51:12   can0  0CF00400   [8]  43 8B 8B 70 25 27 F0 8C
29/09/2025-19:51:16   can0  18FEF100   [8]  F7 00 00 00 00 00 0D F0
29/09/2025-19:51:37   can0  0CF00400   [8]  53 8C 8C 40 25 27 F0 8D
29/09/2025-19:51:41   can0  18FEF100   [8]  F7 00 00 00 00 00 0D F0
29/09/2025-19:52:02   can0  0CF00400   [8]  43 89 88 98 25 27 F0 89
29/09/2025-19:52:06   can0  18FEF100   [8]  F7 00 00 00 00 00 0D F0
29/09/2025-19:52:27   can0  0CF00400   [8]  23 8A 8B 70 25 27 F0 8B
29/09/2025-19:52:31   can0  18FEF100   [8]  F7 00 00 00 00 00 0D F0
29/09/2025-19:52:52   can0  0CF00400   [8]  43 87 87 18 19 27 F0 87
29/09/2025-19:52:56   can0  18FEF100   [8]  F7 00 00 00 00 00 0B F0
29/09/2025-19:53:17   can0  0CF00400   [8]  23 89 89 88 25 27 F0 89
29/09/2025-19:53:21   can0  18FEF100   [8]  F7 00 00 00 00 00 0D F0
29/09/2025-19:53:42   can0  0CF00400   [8]  53 8A 8A 80 25 27 F0 8B
29/09/2025-19:53:46   can0  18FEF100   [8]  F7 00 00 00 00 00 0D F0
29/09/2025-19:54:07   can0  0CF00400   [8]  53 8F 8E 90 25 27 F0 8F
29/09/2025-19:54:11   can0  18FEF100   [8]  F7 00 00 00 00 00 0D F0
29/09/2025-19:54:32   can0  0CF00400   [8]  43 87 87 08 19 27 F0 88
29/09/2025-19:54:36   can0  18FEF100   [8]  F7 00 00 00 00 00 0B F0
29/09/2025-19:54:57   can0  0CF00400   [8]  43 87 87 08 19 27 F0 87
29/09/2025-19:55:02   can0  18FEF100   [8]  F7 00 00 00 00 00 0B F0
29/09/2025-19:55:22   can0  0CF00400   [8]  43 8F 8F 88 25 27 F0 90
29/09/2025-19:55:27   can0  18FEF100   [8]  F7 00 00 00 00 00 0D F0
29/09/2025-19:55:47   can0  0CF00400   [8]  73 8A 8A 70 25 27 F0 8B
29/09/2025-19:55:52   can0  18FEF100   [8]  F7 00 00 00 00 00 0D F0
29/09/2025-19:56:12   can0  0CF00400   [8]  73 87 87 00 19 27 F0 88
29/09/2025-19:56:17   can0  18FEF100   [8]  F7 00 00 00 00 00 0B F0
29/09/2025-19:56:37   can0  0CF00400   [8]  43 87 87 08 19 27 F0 88
29/09/2025-19:56:42   can0  18FEF100   [8]  F7 00 00 00 00 00 0B F0
29/09/2025-19:57:02   can0  0CF00400   [8]  23 88 88 78 25 27 F0 88
29/09/2025-19:57:07   can0  18FEF100   [8]  F7 00 00 00 00 00 0D F0
29/09/2025-19:57:27   can0  0CF00400   [8]  53 87 87 00 19 27 F0 88
29/09/2025-19:57:32   can0  18FEF100   [8]  F7 00 00 00 00 00 0B F0
29/09/2025-19:57:52   can0  0CF00400   [8]  43 87 87 18 19 27 F0 88
29/09/2025-19:57:57   can0  18FEF100   [8]  F7 00 00 00 00 00 0D F0
29/09/2025-19:58:17   can0  0CF00400   [8]  53 87 87 10 19 27 F0 88
29/09/2025-19:58:22   can0  18FEF100   [8]  F7 00 00 00 00 00 0B F0
29/09/2025-19:58:42   can0  0CF00400   [8]  33 87 87 10 19 27 F0 87
29/09/2025-19:58:47   can0  18FEF100   [8]  F7 00 00 00 00 00 0B F0
29/09/2025-19:59:07   can0  0CF00400   [8]  63 87 87 00 19 27 F0 88
29/09/2025-19:59:12   can0  18FEF100   [8]  F7 00 00 00 00 00 0B F0
29/09/2025-19:59:32   can0  0CF00400   [8]  23 87 87 10 19 27 F0 87
29/09/2025-19:59:37   can0  18FEF100   [8]  F7 00 00 00 00 00 0B F0
29/09/2025-19:59:57   can0  0CF00400   [8]  30 7D 84 48 14 00 F0 84
29/09/2025-20:00:02   can0  18FEF100   [8]  F3 00 00 10 00 00 00 F0
29/09/2025-20:00:22   can0  0CF00400   [8]  01 A2 A3 40 29 27 F0 7D
29/09/2025-20:00:27   can0  18FEF100   [8]  F3 45 0E 04 00 00 00 F0
29/09/2025-20:00:47   can0  0CF00400   [8]  59 E2 BB 30 4A 27 F0 7D
29/09/2025-20:00:52   can0  18FEF100   [8]  F3 4F 1C 10 00 00 00 F0
29/09/2025-20:01:12   can0  0CF00400   [8]  50 7D 82 68 14 00 F0 83
29/09/2025-20:01:17   can0  18FEF100   [8]  F3 E6 0D 04 00 00 00 F0
29/09/2025-20:01:37   can0  0CF00400   [8]  01 8E 8E 70 1F 27 F0 7D
29/09/2025-20:01:42   can0  18FEF100   [8]  F3 31 06 10 00 00 00 F0
29/09/2025-20:02:02   can0  0CF00400   [8]  60 7D 88 60 14 00 F0 89
29/09/2025-20:02:07   can0  18FEF100   [8]  F3 2E 03 10 00 00 00 F0
CAN;29/09/2025-20:04:25;DOBACK027;Sesión:14;
Fecha-Hora;InterfazCAN;PGN;Número Bytes;Datos
29/09/2025-20:04:25   can0  0CF00400   [8]  40 7D 89 40 14 00 F0 8A
29/09/2025-20:04:25   can0  18FEF100   [8]  F7 00 00 00 00 00 03 F0
29/09/2025-20:04:50   can0  0CF00400   [8]  00 7D 87 68 14 00 F0 87
29/09/2025-20:04:51   can0  18FEF100   [8]  F7 00 00 00 00 00 03 F0
