CAN;08/10/2025-04:43:51;DOBACK027;Sesión:1;
Fecha-Hora;InterfazCAN;PGN;Número Bytes;Datos
08/10/2025-04:43:51   can0  0CF00400   [8]  40 7D 86 58 14 00 F0 87
08/10/2025-04:43:51   can0  18FEF100   [8]  F7 00 00 00 00 00 03 F0
08/10/2025-04:44:16   can0  0CF00400   [8]  60 7D 85 48 14 00 F0 86
08/10/2025-04:44:16   can0  18FEF100   [8]  F7 00 00 00 00 00 03 F0
08/10/2025-04:44:41   can0  0CF00400   [8]  01 A0 A0 D8 24 27 F0 7D
08/10/2025-04:44:41   can0  18FEF100   [8]  F3 5C 07 04 00 00 00 F0
08/10/2025-04:45:06   can0  0CF00400   [8]  01 C9 C9 90 31 27 F0 7D
08/10/2025-04:45:07   can0  18FEF100   [8]  F3 DC 23 04 00 00 00 F0
08/10/2025-04:45:31   can0  0CF00400   [8]  01 D2 D2 E0 36 27 F0 7D
08/10/2025-04:45:32   can0  18FEF100   [8]  F3 52 28 04 00 00 00 F0
08/10/2025-04:45:56   can0  0CF00400   [8]  08 E0 D8 88 32 00 F0 7D
08/10/2025-04:45:57   can0  18FEF100   [8]  F3 21 34 04 00 00 00 F0
08/10/2025-04:46:21   can0  0CF00400   [8]  01 9C 9C C8 48 27 F0 7D
08/10/2025-04:46:22   can0  18FEF100   [8]  F3 38 63 04 00 00 00 F0
08/10/2025-04:46:46   can0  0CF00400   [8]  01 CD CD 38 48 27 F0 7D
08/10/2025-04:46:47   can0  18FEF100   [8]  F3 48 62 04 00 00 00 F0
08/10/2025-04:47:11   can0  0CF00400   [8]  01 CB CB 90 48 27 F0 7D
08/10/2025-04:47:12   can0  18FEF100   [8]  F3 C3 63 04 00 00 00 F0
08/10/2025-04:47:36   can0  0CF00400   [8]  04 8E 8F F8 4F 27 F0 7D
08/10/2025-04:47:37   can0  18FEF100   [8]  F3 A6 6D 04 00 00 00 F0
08/10/2025-04:48:01   can0  0CF00400   [8]  09 CE C4 60 4F 27 F0 7D
08/10/2025-04:48:02   can0  18FEF100   [8]  F3 2C 6C 04 00 00 00 F0
08/10/2025-04:48:26   can0  0CF00400   [8]  01 A0 A1 F0 4D 27 F0 7D
08/10/2025-04:48:27   can0  18FEF100   [8]  F3 2E 6B 04 00 00 00 F0
08/10/2025-04:48:51   can0  0CF00400   [8]  04 8B 8B 78 50 27 F0 7D
08/10/2025-04:48:52   can0  18FEF100   [8]  F3 F8 6D 04 00 00 00 F0
08/10/2025-04:49:16   can0  0CF00400   [8]  69 C9 C2 18 50 27 F0 7D
08/10/2025-04:49:17   can0  18FEF100   [8]  F3 00 6D 04 00 00 00 F0
CAN;08/10/2025-04:49:50;DOBACK027;Sesión:2;
Fecha-Hora;InterfazCAN;PGN;Número Bytes;Datos
08/10/2025-04:49:50   can0  0CF00400   [8]  04 B8 B8 90 50 27 F0 7D
08/10/2025-04:49:50   can0  18FEF100   [8]  F3 FB 6D 04 00 00 00 F0
CAN;08/10/2025-04:51:09;DOBACK027;Sesión:3;
Fecha-Hora;InterfazCAN;PGN;Número Bytes;Datos
08/10/2025-04:51:09   can0  0CF00400   [8]  04 9B A1 D8 4F 27 F0 7D
08/10/2025-04:51:09   can0  18FEF100   [8]  F3 BD 6C 04 00 00 00 F0
08/10/2025-04:51:34   can0  0CF00400   [8]  09 C1 C0 90 50 27 F0 7D
08/10/2025-04:51:34   can0  18FEF100   [8]  F3 C8 6D 04 00 00 00 F0
08/10/2025-04:51:59   can0  0CF00400   [8]  49 D5 C8 50 4F 27 F0 7D
08/10/2025-04:51:59   can0  18FEF100   [8]  F3 78 6B 04 00 00 00 F0
08/10/2025-04:52:24   can0  0CF00400   [8]  79 C8 C5 20 50 27 F0 7D
08/10/2025-04:52:24   can0  18FEF100   [8]  F3 C3 6C 04 00 00 00 F0
08/10/2025-04:52:49   can0  0CF00400   [8]  59 BA B9 E0 50 27 F0 7D
08/10/2025-04:52:49   can0  18FEF100   [8]  F3 CD 6D 04 00 00 00 F0
08/10/2025-04:53:14   can0  0CF00400   [8]  01 A3 A3 E0 4F 27 F0 7D
08/10/2025-04:53:14   can0  18FEF100   [8]  F3 A4 6C 04 00 00 00 F0
08/10/2025-04:53:39   can0  0CF00400   [8]  04 B7 B7 A8 50 27 F0 7D
08/10/2025-04:53:39   can0  18FEF100   [8]  F3 E9 6D 04 00 00 00 F0
08/10/2025-04:54:04   can0  0CF00400   [8]  01 C1 C1 C0 4E 27 F0 7D
08/10/2025-04:54:04   can0  18FEF100   [8]  F3 7B 6B 04 00 00 00 F0
08/10/2025-04:54:29   can0  0CF00400   [8]  29 C5 C2 40 50 27 F0 7D
08/10/2025-04:54:29   can0  18FEF100   [8]  F3 69 6D 04 00 00 00 F0
08/10/2025-04:54:54   can0  0CF00400   [8]  18 E2 D5 80 4A 00 F0 7D
08/10/2025-04:54:54   can0  18FEF100   [8]  F3 DC 65 04 00 00 00 F0
08/10/2025-04:55:19   can0  0CF00400   [8]  0A 7D 7D 48 55 0B F0 7D
08/10/2025-04:55:20   can0  18FEF100   [8]  F3 57 56 10 00 00 00 F0
08/10/2025-04:55:44   can0  0CF00400   [8]  48 E2 B5 70 30 00 F0 7D
08/10/2025-04:55:45   can0  18FEF100   [8]  F3 E1 13 04 00 00 00 F0
08/10/2025-04:56:09   can0  0CF00400   [8]  01 AA AE 68 3A 27 F0 7D
08/10/2025-04:56:10   can0  18FEF100   [8]  F3 DF 22 04 00 00 00 F0
08/10/2025-04:56:34   can0  0CF00400   [8]  01 C3 C3 28 37 27 F0 7D
08/10/2025-04:56:35   can0  18FEF100   [8]  F3 05 1F 04 00 00 00 F0
08/10/2025-04:56:59   can0  0CF00400   [8]  01 B0 B2 E0 2B 27 F0 7D
08/10/2025-04:57:00   can0  18FEF100   [8]  F3 83 0F 04 00 00 00 F0
08/10/2025-04:57:24   can0  0CF00400   [8]  0A 7D 7D 78 2C 0B F0 7D
08/10/2025-04:57:25   can0  18FEF100   [8]  F3 4D 1C 10 00 00 00 F0
08/10/2025-04:57:49   can0  0CF00400   [8]  00 7D 7D 68 3E 00 F0 7D
08/10/2025-04:57:50   can0  18FEF100   [8]  F3 9F 2C 10 00 00 00 F0
08/10/2025-04:58:14   can0  0CF00400   [8]  01 B8 B8 48 36 27 F0 7D
08/10/2025-04:58:15   can0  18FEF100   [8]  F3 C8 14 04 00 00 00 F0
08/10/2025-04:58:39   can0  0CF00400   [8]  01 A2 A2 C8 26 27 F0 7D
08/10/2025-04:58:40   can0  18FEF100   [8]  F3 8D 14 04 00 00 00 F0
08/10/2025-04:59:04   can0  0CF00400   [8]  78 D2 C3 10 42 00 F0 7D
08/10/2025-04:59:05   can0  18FEF100   [8]  F3 A9 13 04 00 00 00 F0
08/10/2025-04:59:29   can0  0CF00400   [8]  10 7D 87 60 14 00 F0 87
08/10/2025-04:59:30   can0  18FEF100   [8]  F3 B3 05 10 00 00 00 F0
08/10/2025-04:59:54   can0  0CF00400   [8]  01 97 96 28 28 27 F0 7D
08/10/2025-04:59:55   can0  18FEF100   [8]  F3 5C 09 04 00 00 00 F0
08/10/2025-05:00:19   can0  0CF00400   [8]  00 7D 86 50 14 00 F0 86
08/10/2025-05:00:20   can0  18FEF100   [8]  F7 00 00 00 00 00 03 F0
08/10/2025-05:00:44   can0  0CF00400   [8]  20 7D 86 40 14 00 F0 86
08/10/2025-05:00:45   can0  18FEF100   [8]  F7 00 00 00 00 00 03 F0
08/10/2025-05:01:09   can0  0CF00400   [8]  50 7D 85 60 14 00 F0 86
08/10/2025-05:01:10   can0  18FEF100   [8]  F7 00 00 00 00 00 03 F0
08/10/2025-05:01:34   can0  0CF00400   [8]  50 7D 85 58 14 00 F0 86
08/10/2025-05:01:35   can0  18FEF100   [8]  F3 12 03 10 00 00 00 F0
08/10/2025-05:01:59   can0  0CF00400   [8]  50 7D 86 40 14 00 F0 87
08/10/2025-05:02:00   can0  18FEF100   [8]  F7 00 00 00 00 00 03 F0
08/10/2025-05:02:24   can0  0CF00400   [8]  10 7D 86 50 14 00 F0 86
08/10/2025-05:02:25   can0  18FEF100   [8]  F7 00 00 10 00 00 00 F0
08/10/2025-05:02:49   can0  0CF00400   [8]  70 7D 84 48 14 00 F0 85
08/10/2025-05:02:50   can0  18FEF100   [8]  F7 00 00 00 00 00 03 F0
08/10/2025-05:03:14   can0  0CF00400   [8]  01 A2 A2 E0 2B 27 F0 7D
08/10/2025-05:03:15   can0  18FEF100   [8]  F3 E1 09 04 00 00 00 F0
08/10/2025-05:03:39   can0  0CF00400   [8]  30 7D 85 78 14 00 F0 85
08/10/2025-05:03:40   can0  18FEF100   [8]  F7 00 00 10 00 00 00 F0
08/10/2025-05:04:04   can0  0CF00400   [8]  01 94 94 88 1D 27 F0 7D
08/10/2025-05:04:05   can0  18FEF100   [8]  F3 80 04 00 00 00 00 F0
08/10/2025-05:04:29   can0  0CF00400   [8]  70 7D 84 50 14 00 F0 85
08/10/2025-05:04:30   can0  18FEF100   [8]  F7 00 00 00 00 00 03 F0
08/10/2025-05:04:54   can0  0CF00400   [8]  60 7D 84 50 14 00 F0 85
08/10/2025-05:04:55   can0  18FEF100   [8]  F7 00 00 00 00 00 03 F0
08/10/2025-05:05:19   can0  0CF00400   [8]  70 7D 84 50 14 00 F0 85
08/10/2025-05:05:20   can0  18FEF100   [8]  F7 00 00 00 00 00 03 F0
08/10/2025-05:05:44   can0  0CF00400   [8]  00 7D 85 58 14 00 F0 85
08/10/2025-05:05:45   can0  18FEF100   [8]  F7 00 00 00 00 00 03 F0
08/10/2025-05:06:09   can0  0CF00400   [8]  00 7D 85 48 14 00 F0 85
08/10/2025-05:06:10   can0  18FEF100   [8]  F7 00 00 00 00 00 03 F0
08/10/2025-05:06:34   can0  0CF00400   [8]  00 7D 85 48 14 00 F0 85
08/10/2025-05:06:35   can0  18FEF100   [8]  F7 00 00 00 00 00 03 F0
08/10/2025-05:06:59   can0  0CF00400   [8]  20 7D 85 50 14 00 F0 85
08/10/2025-05:07:00   can0  18FEF100   [8]  F7 00 00 00 00 00 03 F0
08/10/2025-05:07:24   can0  0CF00400   [8]  00 7D 85 50 14 00 F0 85
08/10/2025-05:07:25   can0  18FEF100   [8]  F7 00 00 00 00 00 03 F0
08/10/2025-05:07:49   can0  0CF00400   [8]  60 7D 84 58 14 00 F0 85
08/10/2025-05:07:50   can0  18FEF100   [8]  F7 00 00 00 00 00 03 F0
08/10/2025-05:08:14   can0  0CF00400   [8]  70 7D 84 50 14 00 F0 85
08/10/2025-05:08:15   can0  18FEF100   [8]  F7 00 00 00 00 00 03 F0
08/10/2025-05:08:39   can0  0CF00400   [8]  20 7D 85 50 14 00 F0 85
08/10/2025-05:08:40   can0  18FEF100   [8]  F7 00 00 00 00 00 03 F0
08/10/2025-05:09:04   can0  0CF00400   [8]  10 7D 85 48 14 00 F0 85
08/10/2025-05:09:05   can0  18FEF100   [8]  F7 00 00 00 00 00 03 F0
08/10/2025-05:09:29   can0  0CF00400   [8]  40 7D 84 58 14 00 F0 84
08/10/2025-05:09:30   can0  18FEF100   [8]  F7 00 00 00 00 00 03 F0
08/10/2025-05:09:54   can0  0CF00400   [8]  60 7D 84 58 14 00 F0 85
08/10/2025-05:09:55   can0  18FEF100   [8]  F7 00 00 00 00 00 03 F0
08/10/2025-05:10:19   can0  0CF00400   [8]  10 7D 87 60 14 00 F0 87
08/10/2025-05:10:20   can0  18FEF100   [8]  F3 29 04 10 00 00 00 F0
CAN;08/10/2025-05:10:50;DOBACK027;Sesión:4;
Fecha-Hora;InterfazCAN;PGN;Número Bytes;Datos
08/10/2025-05:10:50   can0  0CF00400   [8]  40 7D 84 48 14 00 F0 84
08/10/2025-05:10:50   can0  18FEF100   [8]  F7 00 00 00 00 00 03 F0
CAN;08/10/2025-05:10:50;DOBACK027;Sesión:5;
Fecha-Hora;InterfazCAN;PGN;Número Bytes;Datos
08/10/2025-05:10:50   can0  0CF00400   [8]  30 7D 84 58 14 00 F0 84
08/10/2025-05:10:50   can0  18FEF100   [8]  F7 00 00 00 00 00 03 F0
CAN;08/10/2025-05:10:50;DOBACK027;Sesión:6;
Fecha-Hora;InterfazCAN;PGN;Número Bytes;Datos
08/10/2025-05:10:50   can0  0CF00400   [8]  30 7D 8A 10 14 00 F0 8A
08/10/2025-05:10:50   can0  18FEF100   [8]  F3 00 04 10 00 00 00 F0
CAN;08/10/2025-05:14:54;DOBACK027;Sesión:7;
Fecha-Hora;InterfazCAN;PGN;Número Bytes;Datos
08/10/2025-05:14:54   can0  0CF00400   [8]  50 7D 82 40 14 00 F0 83
08/10/2025-05:14:54   can0  18FEF100   [8]  F3 E6 0D 10 00 00 00 F0
CAN;08/10/2025-05:15:31;DOBACK027;Sesión:8;
Fecha-Hora;InterfazCAN;PGN;Número Bytes;Datos
08/10/2025-05:15:31   can0  0CF00400   [8]  01 98 97 C8 1B 27 F0 7D
08/10/2025-05:15:31   can0  18FEF100   [8]  F3 0F 01 00 00 00 00 F0
CAN;08/10/2025-05:15:30;DOBACK027;Sesión:9;
Fecha-Hora;InterfazCAN;PGN;Número Bytes;Datos
08/10/2025-05:15:30   can0  0CF00400   [8]  71 BE BF 18 2D 27 F0 7D
08/10/2025-05:15:30   can0  18FEF100   [8]  F3 4F 20 04 00 00 00 F0
CAN;08/10/2025-05:15:30;DOBACK027;Sesión:10;
Fecha-Hora;InterfazCAN;PGN;Número Bytes;Datos
08/10/2025-05:15:30   can0  0CF00400   [8]  01 87 87 D0 30 27 F0 7D
08/10/2025-05:15:30   can0  18FEF100   [8]  F3 D4 1A 04 00 00 00 F0
08/10/2025-05:15:55   can0  0CF00400   [8]  01 A3 A3 08 25 27 F0 7D
08/10/2025-05:15:55   can0  18FEF100   [8]  F3 00 26 04 00 00 00 F0
CAN;08/10/2025-05:19:39;DOBACK027;Sesión:11;
Fecha-Hora;InterfazCAN;PGN;Número Bytes;Datos
08/10/2025-05:19:39   can0  0CF00400   [8]  01 92 92 20 24 27 F0 7D
08/10/2025-05:19:39   can0  18FEF100   [8]  F3 33 25 04 00 00 00 F0
08/10/2025-05:20:04   can0  0CF00400   [8]  00 7D 7D 48 17 00 F0 7D
08/10/2025-05:20:04   can0  18FEF100   [8]  F3 00 12 04 00 00 00 F0
08/10/2025-05:20:29   can0  0CF00400   [8]  01 9B 9B E8 30 27 F0 7D
08/10/2025-05:20:29   can0  18FEF100   [8]  F3 AC 23 04 00 00 00 F0
08/10/2025-05:20:54   can0  0CF00400   [8]  01 8B 8A F8 2A 27 F0 7D
08/10/2025-05:20:54   can0  18FEF100   [8]  F3 8A 17 04 00 00 00 F0
08/10/2025-05:21:19   can0  0CF00400   [8]  01 B6 B5 E0 30 27 F0 7D
08/10/2025-05:21:19   can0  18FEF100   [8]  F3 AE 42 04 00 00 00 F0
08/10/2025-05:21:44   can0  0CF00400   [8]  01 9C 9C 70 3C 27 F0 7D
08/10/2025-05:21:44   can0  18FEF100   [8]  F3 85 52 04 00 00 00 F0
08/10/2025-05:22:09   can0  0CF00400   [8]  04 7D 7D C8 42 27 F0 7D
08/10/2025-05:22:09   can0  18FEF100   [8]  F3 0A 5B 04 00 00 00 F0
08/10/2025-05:22:34   can0  0CF00400   [8]  04 9E 9E 18 42 27 F0 7D
08/10/2025-05:22:34   can0  18FEF100   [8]  F3 00 5A 04 00 00 00 F0
08/10/2025-05:22:59   can0  0CF00400   [8]  04 94 94 C8 41 27 F0 7D
08/10/2025-05:22:59   can0  18FEF100   [8]  F3 D2 59 04 00 00 00 F0
08/10/2025-05:23:24   can0  0CF00400   [8]  04 A0 A0 20 42 27 F0 7D
08/10/2025-05:23:24   can0  18FEF100   [8]  F3 12 5A 04 00 00 00 F0
08/10/2025-05:23:49   can0  0CF00400   [8]  04 C7 C7 B0 40 27 F0 7D
08/10/2025-05:23:49   can0  18FEF100   [8]  F3 31 58 04 00 00 00 F0
08/10/2025-05:24:14   can0  0CF00400   [8]  0A 7D 7D 68 2F 0B F0 7D
08/10/2025-05:24:15   can0  18FEF100   [8]  F3 64 30 10 00 00 00 F0
08/10/2025-05:24:39   can0  0CF00400   [8]  30 7D 83 28 14 00 F0 83
08/10/2025-05:24:40   can0  18FEF100   [8]  F3 C8 06 10 00 00 00 F0
08/10/2025-05:25:04   can0  0CF00400   [8]  40 7D 7E B0 14 00 F0 7F
08/10/2025-05:25:05   can0  18FEF100   [8]  F3 E9 07 10 00 00 00 F0
CAN;08/10/2025-05:25:32;DOBACK027;Sesión:12;
Fecha-Hora;InterfazCAN;PGN;Número Bytes;Datos
08/10/2025-05:25:32   can0  0CF00400   [8]  01 D8 D8 F0 35 27 F0 7D
08/10/2025-05:25:32   can0  18FEF100   [8]  F3 66 37 04 00 00 00 F0
CAN;08/10/2025-05:25:32;DOBACK027;Sesión:13;
Fecha-Hora;InterfazCAN;PGN;Número Bytes;Datos
08/10/2025-05:25:32   can0  0CF00400   [8]  04 BA BA C0 41 27 F0 7D
08/10/2025-05:25:32   can0  18FEF100   [8]  F3 8A 59 04 00 00 00 F0
CAN;08/10/2025-05:33:01;DOBACK027;Sesión:14;
Fecha-Hora;InterfazCAN;PGN;Número Bytes;Datos
08/10/2025-05:33:01   can0  0CF00400   [8]  04 9E 9E 10 42 27 F0 7D
08/10/2025-05:33:01   can0  18FEF100   [8]  F3 0A 5A 04 00 00 00 F0
08/10/2025-05:33:26   can0  0CF00400   [8]  04 A4 A4 18 42 27 F0 7D
08/10/2025-05:33:27   can0  18FEF100   [8]  F3 00 5A 04 00 00 00 F0
08/10/2025-05:33:51   can0  0CF00400   [8]  04 A0 A0 20 42 27 F0 7D
08/10/2025-05:33:52   can0  18FEF100   [8]  F3 14 5A 04 00 00 00 F0
08/10/2025-05:34:16   can0  0CF00400   [8]  04 A9 A9 18 42 27 F0 7D
08/10/2025-05:34:17   can0  18FEF100   [8]  F3 05 5A 04 00 00 00 F0
08/10/2025-05:34:41   can0  0CF00400   [8]  04 97 97 68 42 27 F0 7D
08/10/2025-05:34:42   can0  18FEF100   [8]  F3 54 5A 04 00 00 00 F0
08/10/2025-05:35:06   can0  0CF00400   [8]  04 BD BE 68 41 27 F0 7D
08/10/2025-05:35:07   can0  18FEF100   [8]  F3 0D 59 04 00 00 00 F0
08/10/2025-05:35:31   can0  0CF00400   [8]  04 85 85 58 42 27 F0 7D
08/10/2025-05:35:32   can0  18FEF100   [8]  F3 5F 5A 04 00 00 00 F0
08/10/2025-05:35:56   can0  0CF00400   [8]  04 AE AF B0 41 27 F0 7D
08/10/2025-05:35:57   can0  18FEF100   [8]  F3 A9 59 04 00 00 00 F0
08/10/2025-05:36:21   can0  0CF00400   [8]  04 D1 D1 30 42 27 F0 7D
08/10/2025-05:36:22   can0  18FEF100   [8]  F3 48 5A 04 00 00 00 F0
08/10/2025-05:36:46   can0  0CF00400   [8]  04 B6 B6 00 42 27 F0 7D
08/10/2025-05:36:47   can0  18FEF100   [8]  F3 F3 59 04 00 00 00 F0
08/10/2025-05:37:11   can0  0CF00400   [8]  04 7D 7E 28 42 27 F0 7D
08/10/2025-05:37:12   can0  18FEF100   [8]  F3 E6 59 04 00 00 00 F0
08/10/2025-05:37:36   can0  0CF00400   [8]  04 C9 C9 B0 41 27 F0 7D
08/10/2025-05:37:37   can0  18FEF100   [8]  F3 E1 59 04 00 00 00 F0
CAN;08/10/2025-05:38:09;DOBACK027;Sesión:15;
Fecha-Hora;InterfazCAN;PGN;Número Bytes;Datos
08/10/2025-05:38:09   can0  0CF00400   [8]  01 B5 B5 58 41 27 F0 7D
08/10/2025-05:38:09   can0  18FEF100   [8]  F3 24 59 04 00 00 00 F0
CAN;08/10/2025-05:39:27;DOBACK027;Sesión:16;
Fecha-Hora;InterfazCAN;PGN;Número Bytes;Datos
08/10/2025-05:39:27   can0  0CF00400   [8]  01 BE BF 88 2A 27 F0 7D
08/10/2025-05:39:27   can0  18FEF100   [8]  F3 4F 3A 00 00 00 00 F0
08/10/2025-05:39:52   can0  0CF00400   [8]  01 9C 9C 08 33 27 F0 7D
08/10/2025-05:39:52   can0  18FEF100   [8]  F3 21 25 04 00 00 00 F0
08/10/2025-05:40:17   can0  0CF00400   [8]  01 99 99 98 2F 27 F0 7D
08/10/2025-05:40:17   can0  18FEF100   [8]  F3 8D 22 04 00 00 00 F0
08/10/2025-05:40:42   can0  0CF00400   [8]  01 98 98 88 33 27 F0 7D
08/10/2025-05:40:42   can0  18FEF100   [8]  F3 4D 1C 04 00 00 00 F0
08/10/2025-05:41:07   can0  0CF00400   [8]  01 8B 8B 48 2A 27 F0 7D
08/10/2025-05:41:07   can0  18FEF100   [8]  F3 7D 17 04 00 00 00 F0
08/10/2025-05:41:32   can0  0CF00400   [8]  0A 7D 7D 58 2B 0B F0 7D
08/10/2025-05:41:32   can0  18FEF100   [8]  F3 F3 1E 10 00 00 00 F0
08/10/2025-05:41:57   can0  0CF00400   [8]  70 7D 89 50 14 00 F0 8A
08/10/2025-05:41:57   can0  18FEF100   [8]  F3 36 03 10 00 00 00 F0
08/10/2025-05:42:22   can0  0CF00400   [8]  20 7D 8A 58 14 00 F0 8A
08/10/2025-05:42:22   can0  18FEF100   [8]  F3 5F 02 10 00 00 00 F0
08/10/2025-05:42:47   can0  0CF00400   [8]  00 7D 8B 48 14 00 F0 8B
08/10/2025-05:42:47   can0  18FEF100   [8]  F3 48 01 10 00 00 00 F0
CAN;08/10/2025-05:43:15;DOBACK027;Sesión:17;
Fecha-Hora;InterfazCAN;PGN;Número Bytes;Datos
08/10/2025-05:43:15   can0  0CF00400   [8]  13 87 87 08 19 27 F0 87
08/10/2025-05:43:15   can0  18FEF100   [8]  F7 00 00 00 00 00 0B F0
08/10/2025-05:43:39   can0  0CF00400   [8]  33 91 91 68 25 27 F0 91
08/10/2025-05:43:40   can0  18FEF100   [8]  F7 00 00 00 00 00 0D F0
08/10/2025-05:44:04   can0  0CF00400   [8]  53 8C 8A C0 25 27 F0 8B
08/10/2025-05:44:05   can0  18FEF100   [8]  F7 00 00 00 00 00 0D F0
08/10/2025-05:44:29   can0  0CF00400   [8]  63 8C 8C 48 25 27 F0 8D
08/10/2025-05:44:30   can0  18FEF100   [8]  F7 00 00 00 00 00 0D F0
CAN;08/10/2025-09:38:03;DOBACK027;Sesión:18;
Fecha-Hora;InterfazCAN;PGN;Número Bytes;Datos
08/10/2025-09:38:03   can0  0CF00400   [8]  43 90 90 70 25 27 F0 91
08/10/2025-09:38:03   can0  18FEF100   [8]  F7 00 00 00 00 00 0D F0
08/10/2025-09:38:28   can0  0CF00400   [8]  73 8E 8D 20 26 27 F0 8E
08/10/2025-09:38:28   can0  18FEF100   [8]  F7 00 00 00 00 00 0D F0
08/10/2025-09:38:53   can0  0CF00400   [8]  03 85 86 78 25 27 F0 86
08/10/2025-09:38:53   can0  18FEF100   [8]  F7 00 00 00 00 00 0D F0
08/10/2025-09:39:18   can0  0CF00400   [8]  13 8E 8E 78 25 27 F0 8E
08/10/2025-09:39:18   can0  18FEF100   [8]  F7 00 00 00 00 00 0D F0
08/10/2025-09:39:43   can0  0CF00400   [8]  23 87 88 60 25 27 F0 88
08/10/2025-09:39:43   can0  18FEF100   [8]  F7 00 00 00 00 00 0D F0
08/10/2025-09:40:08   can0  0CF00400   [8]  13 8D 8E 40 25 27 F0 8E
08/10/2025-09:40:08   can0  18FEF100   [8]  F7 00 00 00 00 00 0D F0
08/10/2025-09:40:33   can0  0CF00400   [8]  33 87 88 50 25 27 F0 88
08/10/2025-09:40:33   can0  18FEF100   [8]  F7 00 00 00 00 00 0D F0
08/10/2025-09:40:58   can0  0CF00400   [8]  73 8A 8A 70 25 27 F0 8B
08/10/2025-09:40:58   can0  18FEF100   [8]  F7 00 00 00 00 00 0D F0
08/10/2025-09:41:23   can0  0CF00400   [8]  33 86 86 80 25 27 F0 86
08/10/2025-09:41:23   can0  18FEF100   [8]  F7 00 00 00 00 00 0D F0
08/10/2025-09:41:48   can0  0CF00400   [8]  43 87 87 08 19 27 F0 88
08/10/2025-09:41:48   can0  18FEF100   [8]  F7 00 00 00 00 00 0D F0
08/10/2025-09:42:13   can0  0CF00400   [8]  73 86 86 F8 18 27 F0 87
08/10/2025-09:42:13   can0  18FEF100   [8]  F7 00 00 00 00 00 0B F0
08/10/2025-09:42:38   can0  0CF00400   [8]  23 85 85 18 19 27 F0 85
08/10/2025-09:42:39   can0  18FEF100   [8]  F7 00 00 00 00 00 0B F0
08/10/2025-09:43:03   can0  0CF00400   [8]  33 85 85 00 19 27 F0 85
08/10/2025-09:43:04   can0  18FEF100   [8]  F7 00 00 00 00 00 0B F0
08/10/2025-09:43:28   can0  0CF00400   [8]  23 85 85 08 19 27 F0 85
08/10/2025-09:43:29   can0  18FEF100   [8]  F7 00 00 00 00 00 0B F0
08/10/2025-09:43:53   can0  0CF00400   [8]  23 8A 8A 68 25 27 F0 8A
08/10/2025-09:43:54   can0  18FEF100   [8]  F7 00 00 00 00 00 0D F0
08/10/2025-09:44:18   can0  0CF00400   [8]  73 91 90 88 25 27 F0 91
08/10/2025-09:44:19   can0  18FEF100   [8]  F7 00 00 00 00 00 0D F0
08/10/2025-09:44:43   can0  0CF00400   [8]  63 8A 89 B0 25 27 F0 8A
08/10/2025-09:44:44   can0  18FEF100   [8]  F7 00 00 00 00 00 0D F0
08/10/2025-09:45:08   can0  0CF00400   [8]  53 8B 8B 68 25 27 F0 8C
08/10/2025-09:45:09   can0  18FEF100   [8]  F7 00 00 00 00 00 0D F0
08/10/2025-09:45:33   can0  0CF00400   [8]  43 97 96 78 25 27 F0 97
08/10/2025-09:45:34   can0  18FEF100   [8]  F7 00 00 00 00 00 0D F0
08/10/2025-09:45:58   can0  0CF00400   [8]  53 8C 8C 78 25 27 F0 8D
08/10/2025-09:45:59   can0  18FEF100   [8]  F7 00 00 00 00 00 0D F0
08/10/2025-09:46:23   can0  0CF00400   [8]  03 8A 8A 78 25 27 F0 8A
08/10/2025-09:46:24   can0  18FEF100   [8]  F7 00 00 00 00 00 0D F0
08/10/2025-09:46:48   can0  0CF00400   [8]  13 88 88 00 19 27 F0 88
08/10/2025-09:46:49   can0  18FEF100   [8]  F7 00 00 00 00 00 0B F0
08/10/2025-09:47:13   can0  0CF00400   [8]  03 92 92 98 25 27 F0 92
08/10/2025-09:47:14   can0  18FEF100   [8]  F7 00 00 00 00 00 0D F0
08/10/2025-09:47:38   can0  0CF00400   [8]  23 88 88 F8 18 27 F0 88
08/10/2025-09:47:39   can0  18FEF100   [8]  F7 00 00 00 00 00 0B F0
08/10/2025-09:48:03   can0  0CF00400   [8]  33 88 88 00 19 27 F0 88
08/10/2025-09:48:05   can0  18FEF100   [8]  F7 00 00 00 00 00 0B F0
08/10/2025-09:48:28   can0  0CF00400   [8]  23 88 88 00 19 27 F0 88
08/10/2025-09:48:30   can0  18FEF100   [8]  F7 00 00 00 00 00 0B F0
08/10/2025-09:48:53   can0  0CF00400   [8]  60 7D 8A 70 14 00 F0 8B
08/10/2025-09:48:55   can0  18FEF100   [8]  F3 0F 00 10 00 00 00 F0
08/10/2025-09:49:18   can0  0CF00400   [8]  20 7D 83 38 14 00 F0 83
08/10/2025-09:49:20   can0  18FEF100   [8]  F3 AE 05 10 00 00 00 F0
08/10/2025-09:49:43   can0  0CF00400   [8]  50 7D 88 58 14 00 F0 89
08/10/2025-09:49:45   can0  18FEF100   [8]  F3 4A 03 10 00 00 00 F0
08/10/2025-09:50:08   can0  0CF00400   [8]  10 7D 88 D8 14 00 F0 88
08/10/2025-09:50:10   can0  18FEF100   [8]  F7 00 00 00 00 00 03 F0
CAN;08/10/2025-09:50:35;DOBACK027;Sesión:19;
Fecha-Hora;InterfazCAN;PGN;Número Bytes;Datos
08/10/2025-09:50:35   can0  0CF00400   [8]  60 7D 85 48 14 00 F0 86
08/10/2025-09:50:35   can0  18FEF100   [8]  F7 00 00 00 00 00 03 F0
08/10/2025-09:51:00   can0  0CF00400   [8]  48 C1 AB C0 1E 00 F0 7D
08/10/2025-09:51:00   can0  18FEF100   [8]  F3 FD 00 00 00 00 00 F0
CAN;08/10/2025-13:06:41;DOBACK027;Sesión:20;
Fecha-Hora;InterfazCAN;PGN;Número Bytes;Datos
08/10/2025-13:06:41   can0  0CF00400   [8]  01 98 99 70 2D 27 F0 7D
08/10/2025-13:06:41   can0  18FEF100   [8]  F3 CD 0C 04 00 00 00 F0
08/10/2025-13:07:06   can0  0CF00400   [8]  01 B3 B0 C0 43 27 F0 7D
08/10/2025-13:07:06   can0  18FEF100   [8]  F3 7B 28 04 00 00 00 F0
08/10/2025-13:07:31   can0  0CF00400   [8]  00 7D 7D 88 2D 00 F0 7D
08/10/2025-13:07:31   can0  18FEF100   [8]  F3 DF 2E 10 00 00 00 F0
08/10/2025-13:07:56   can0  0CF00400   [8]  28 E2 DB E0 38 00 F0 7D
08/10/2025-13:07:56   can0  18FEF100   [8]  F3 A9 39 04 00 00 00 F0
08/10/2025-13:08:21   can0  0CF00400   [8]  00 7D 7D F0 28 00 F0 7D
08/10/2025-13:08:21   can0  18FEF100   [8]  F3 CD 38 10 00 00 00 F0
08/10/2025-13:08:46   can0  0CF00400   [8]  01 B3 AA 48 27 27 F0 7D
08/10/2025-13:08:46   can0  18FEF100   [8]  F3 45 06 04 00 00 00 F0
08/10/2025-13:09:11   can0  0CF00400   [8]  01 8E 8C E8 31 27 F0 7D
08/10/2025-13:09:11   can0  18FEF100   [8]  F3 88 0E 04 00 00 00 F0
08/10/2025-13:09:36   can0  0CF00400   [8]  78 CE C6 A0 2E 00 F0 7D
08/10/2025-13:09:36   can0  18FEF100   [8]  F3 A1 2F 04 00 00 00 F0
08/10/2025-13:10:01   can0  0CF00400   [8]  00 7D 7D 30 2E 00 F0 7D
08/10/2025-13:10:01   can0  18FEF100   [8]  F3 2C 3F 10 00 00 00 F0
08/10/2025-13:10:26   can0  0CF00400   [8]  10 7D 8C 40 14 00 F0 8C
08/10/2025-13:10:26   can0  18FEF100   [8]  F3 97 00 10 00 00 00 F0
08/10/2025-13:10:51   can0  0CF00400   [8]  01 80 81 20 26 27 F0 7D
08/10/2025-13:10:51   can0  18FEF100   [8]  F3 45 1C 04 00 00 00 F0
08/10/2025-13:11:16   can0  0CF00400   [8]  00 7D 7D 08 2C 00 F0 7D
08/10/2025-13:11:16   can0  18FEF100   [8]  F3 54 19 10 00 00 00 F0
08/10/2025-13:11:41   can0  0CF00400   [8]  01 89 89 90 2B 27 F0 7D
08/10/2025-13:11:41   can0  18FEF100   [8]  F3 D7 2C 04 00 00 00 F0
CAN;08/10/2025-13:11:58;DOBACK027;Sesión:21;
Fecha-Hora;InterfazCAN;PGN;Número Bytes;Datos
08/10/2025-13:11:58   can0  0CF00400   [8]  01 82 84 E0 26 27 F0 7D
08/10/2025-13:11:58   can0  18FEF100   [8]  F3 E1 15 04 00 00 00 F0
CAN;08/10/2025-13:13:23;DOBACK027;Sesión:22;
Fecha-Hora;InterfazCAN;PGN;Número Bytes;Datos
08/10/2025-13:13:23   can0  0CF00400   [8]  01 B3 B3 F8 30 27 F0 7D
08/10/2025-13:13:23   can0  18FEF100   [8]  F3 AE 23 04 00 00 00 F0
08/10/2025-13:13:48   can0  0CF00400   [8]  48 D4 AC 18 21 00 F0 7D
08/10/2025-13:13:48   can0  18FEF100   [8]  F3 12 04 00 00 00 00 F0
08/10/2025-13:14:13   can0  0CF00400   [8]  70 7D 89 88 14 00 F0 8A
08/10/2025-13:14:13   can0  18FEF100   [8]  F3 D7 02 10 00 00 00 F0
08/10/2025-13:14:38   can0  0CF00400   [8]  60 7D 90 38 14 00 F0 91
08/10/2025-13:14:38   can0  18FEF100   [8]  F3 17 01 10 00 00 00 F0
08/10/2025-13:15:03   can0  0CF00400   [8]  50 7D 8C B0 14 00 F0 8D
08/10/2025-13:15:03   can0  18FEF100   [8]  F3 EE 02 10 00 00 00 F0
CAN;08/10/2025-13:15:38;DOBACK027;Sesión:23;
Fecha-Hora;InterfazCAN;PGN;Número Bytes;Datos
08/10/2025-13:15:38   can0  0CF00400   [8]  01 83 86 50 14 27 F0 80
08/10/2025-13:15:38   can0  18FEF100   [8]  F7 00 00 00 00 00 03 F0
08/10/2025-13:16:03   can0  0CF00400   [8]  48 DD DB C0 43 00 F0 7D
08/10/2025-13:16:03   can0  18FEF100   [8]  F3 B8 18 04 00 00 00 F0
08/10/2025-13:16:28   can0  0CF00400   [8]  01 CC CC 90 3F 27 F0 7D
08/10/2025-13:16:29   can0  18FEF100   [8]  F3 36 2E 04 00 00 00 F0
CAN;08/10/2025-13:15:39;DOBACK027;Sesión:24;
Fecha-Hora;InterfazCAN;PGN;Número Bytes;Datos
08/10/2025-13:15:39   can0  0CF00400   [8]  00 7D 7D 88 2A 00 F0 7D
08/10/2025-13:15:39   can0  18FEF100   [8]  F3 F6 39 04 00 00 00 F0
