CAN;08/07/2025 07:41:12AM;DOBACK022;6;0;
08/07/2025 07:41:12AM   can0  0CF00400   [8]  F0 7D 84 59 16 FF FF 85
08/07/2025 07:41:12AM   can0  0CF00400   [8]  F0 7D 85 1C 16 FF FF 85
08/07/2025 07:41:13AM   can0  0CF00400   [8]  F0 7D 85 E4 15 FF FF 85
08/07/2025 07:41:13AM   can0  18FEF100   [8]  C7 00 00 00 03 FF 00 FF
08/07/2025 07:41:13AM   can0  0CF00400   [8]  F0 7D 85 B8 15 FF FF 85
08/07/2025 07:41:13AM   can0  0CF00400   [8]  F0 7D 86 7E 15 FF FF 86
08/07/2025 07:41:13AM   can0  0CF00400   [8]  F0 7D 86 4C 15 FF FF 86
08/07/2025 07:41:13AM   can0  0CF00400   [8]  F0 7D 86 1B 15 FF FF 87
08/07/2025 07:41:13AM   can0  0CF00400   [8]  F0 7D 87 E0 14 FF FF 87
08/07/2025 07:41:13AM   can0  18FEF100   [8]  C7 00 00 00 03 FF 00 FF
08/07/2025 07:41:13AM   can0  0CF00400   [8]  F0 7D 88 B5 14 FF FF 88
08/07/2025 07:41:13AM   can0  0CF00400   [8]  F0 7D 88 81 14 FF FF 88
08/07/2025 07:41:13AM   can0  0CF00400   [8]  F0 7D 88 64 14 FF FF 89
08/07/2025 07:41:13AM   can0  0CF00400   [8]  F0 7D 89 48 14 FF FF 89
08/07/2025 07:41:13AM   can0  0CF00400   [8]  F0 7D 89 38 14 FF FF 89
08/07/2025 07:41:13AM   can0  18FEF100   [8]  C7 00 00 00 03 FF 00 FF
08/07/2025 07:41:13AM   can0  0CF00400   [8]  F0 7D 89 21 14 FF FF 89
08/07/2025 07:41:13AM   can0  0CF00400   [8]  F1 8A 89 04 14 FF FF 8A
08/07/2025 07:41:13AM   can0  0CF00400   [8]  F1 8B 8A EF 13 FF FF 8B
08/07/2025 07:41:13AM   can0  0CF00400   [8]  F1 8D 8C D0 13 FF FF 8D
08/07/2025 07:41:13AM   can0  0CF00400   [8]  F1 8E 8E B4 13 FF FF 8E
08/07/2025 07:41:13AM   can0  18FEF100   [8]  C7 00 00 00 03 FF 00 FF
08/07/2025 07:41:13AM   can0  0CF00400   [8]  F1 90 8F A4 13 FF FF 90
08/07/2025 07:41:13AM   can0  0CF00400   [8]  F1 91 91 A5 13 FF FF 91
08/07/2025 07:41:13AM   can0  0CF00400   [8]  F1 92 92 AD 13 FF FF 92
08/07/2025 07:41:13AM   can0  0CF00400   [8]  F1 93 93 CD 13 FF FF 93
08/07/2025 07:41:13AM   can0  0CF00400   [8]  F1 94 93 F6 13 FF FF 94
08/07/2025 07:41:13AM   can0  18FEF100   [8]  C7 00 00 00 03 FF 00 FF
08/07/2025 07:41:13AM   can0  0CF00400   [8]  F1 95 94 04 14 FF FF 95
08/07/2025 07:41:13AM   can0  0CF00400   [8]  F1 95 95 2D 14 FF FF 95
08/07/2025 07:41:13AM   can0  0CF00400   [8]  F1 96 96 40 14 FF FF 96
08/07/2025 07:41:13AM   can0  0CF00400   [8]  F1 97 97 5C 14 FF FF 97
08/07/2025 07:41:13AM   can0  0CF00400   [8]  F1 97 97 93 14 FF FF 97
08/07/2025 07:41:13AM   can0  18FEF100   [8]  C7 00 00 00 03 FF 00 FF
08/07/2025 07:41:13AM   can0  0CF00400   [8]  F1 97 97 C6 14 FF FF 97
08/07/2025 07:41:13AM   can0  0CF00400   [8]  F1 97 97 08 15 FF FF 97
08/07/2025 07:41:13AM   can0  0CF00400   [8]  F1 96 97 50 15 FF FF 96
08/07/2025 07:41:13AM   can0  0CF00400   [8]  F1 96 96 9E 15 FF FF 96
08/07/2025 07:41:13AM   can0  0CF00400   [8]  F1 96 96 C9 15 FF FF 96
08/07/2025 07:41:13AM   can0  18FEF100   [8]  C7 00 00 00 03 FF 00 FF
08/07/2025 07:41:13AM   can0  0CF00400   [8]  F1 96 96 0D 16 FF FF 96
08/07/2025 07:41:13AM   can0  0CF00400   [8]  F1 96 96 37 16 FF FF 96
08/07/2025 07:41:13AM   can0  0CF00400   [8]  F1 95 96 6C 16 FF FF 95
08/07/2025 07:41:13AM   can0  0CF00400   [8]  F1 95 95 A3 16 FF FF 95
08/07/2025 07:41:13AM   can0  0CF00400   [8]  F1 95 95 E3 16 FF FF 95
08/07/2025 07:41:13AM   can0  18FEF100   [8]  C7 00 00 00 03 FF 00 FF
08/07/2025 07:41:13AM   can0  0CF00400   [8]  F1 94 95 27 17 FF FF 94
08/07/2025 07:41:13AM   can0  0CF00400   [8]  F1 94 94 6F 17 FF FF 94
08/07/2025 07:41:13AM   can0  0CF00400   [8]  F1 93 93 9F 17 FF FF 93
08/07/2025 07:41:13AM   can0  0CF00400   [8]  F1 93 93 D9 17 FF FF 93
08/07/2025 07:41:13AM   can0  0CF00400   [8]  F1 93 93 F1 17 FF FF 93
08/07/2025 07:41:13AM   can0  18FEF100   [8]  C7 00 00 00 03 FF 00 FF
08/07/2025 07:41:13AM   can0  0CF00400   [8]  F1 93 93 12 18 FF FF 93
08/07/2025 07:41:13AM   can0  0CF00400   [8]  F1 93 93 32 18 FF FF 93
08/07/2025 07:41:13AM   can0  0CF00400   [8]  F1 92 92 61 18 FF FF 92
08/07/2025 07:41:13AM   can0  0CF00400   [8]  F1 92 92 91 18 FF FF 92
08/07/2025 07:41:13AM   can0  0CF00400   [8]  F1 91 91 BD 18 FF FF 91
08/07/2025 07:41:13AM   can0  18FEF100   [8]  C7 00 00 00 03 FF 00 FF
08/07/2025 07:41:13AM   can0  0CF00400   [8]  F1 91 91 CA 18 FF FF 91
08/07/2025 07:41:13AM   can0  0CF00400   [8]  F1 91 91 E2 18 FF FF 91
08/07/2025 07:41:13AM   can0  0CF00400   [8]  F1 92 91 E3 18 FF FF 92
08/07/2025 07:41:13AM   can0  0CF00400   [8]  F1 92 92 F1 18 FF FF 92
08/07/2025 07:41:14AM   can0  0CF00400   [8]  F1 92 92 00 19 FF FF 92
08/07/2025 07:41:14AM   can0  18FEF100   [8]  C7 00 00 00 03 FF 00 FF
08/07/2025 07:41:14AM   can0  0CF00400   [8]  F1 92 92 16 19 FF FF 92
08/07/2025 07:41:14AM   can0  0CF00400   [8]  F1 91 91 3C 19 FF FF 91
08/07/2025 07:41:14AM   can0  0CF00400   [8]  F1 91 91 4C 19 FF FF 91
08/07/2025 07:41:14AM   can0  0CF00400   [8]  F1 91 91 60 19 FF FF 91
08/07/2025 07:41:14AM   can0  0CF00400   [8]  F1 91 91 64 19 FF FF 91
08/07/2025 07:41:14AM   can0  18FEF100   [8]  C7 00 00 00 03 FF 00 FF
08/07/2025 07:41:14AM   can0  0CF00400   [8]  F1 91 91 68 19 FF FF 91
08/07/2025 07:41:14AM   can0  0CF00400   [8]  F1 91 91 6D 19 FF FF 91
08/07/2025 07:41:14AM   can0  0CF00400   [8]  F1 91 91 84 19 FF FF 91
08/07/2025 07:41:14AM   can0  0CF00400   [8]  F1 91 91 A1 19 FF FF 91
08/07/2025 07:41:14AM   can0  0CF00400   [8]  F1 90 90 B8 19 FF FF 90
08/07/2025 07:41:14AM   can0  18FEF100   [8]  C7 00 00 00 03 FF 00 FF
08/07/2025 07:41:14AM   can0  0CF00400   [8]  F1 90 90 B8 19 FF FF 90
08/07/2025 07:41:14AM   can0  0CF00400   [8]  F1 90 90 BE 19 FF FF 90
08/07/2025 07:41:14AM   can0  0CF00400   [8]  F1 91 91 BA 19 FF FF 91
08/07/2025 07:41:14AM   can0  0CF00400   [8]  F1 91 91 C3 19 FF FF 91
08/07/2025 07:41:14AM   can0  0CF00400   [8]  F1 91 91 CB 19 FF FF 91
08/07/2025 07:41:14AM   can0  18FEF100   [8]  C7 00 00 00 03 FF 00 FF
08/07/2025 07:41:14AM   can0  0CF00400   [8]  F1 90 90 E3 19 FF FF 90
08/07/2025 07:41:14AM   can0  0CF00400   [8]  F1 90 90 FA 19 FF FF 90
08/07/2025 07:41:14AM   can0  0CF00400   [8]  F1 90 90 FC 19 FF FF 90
08/07/2025 07:41:14AM   can0  0CF00400   [8]  F1 90 90 06 1A FF FF 90
08/07/2025 07:41:14AM   can0  0CF00400   [8]  F1 90 90 00 1A FF FF 90
08/07/2025 07:41:14AM   can0  18FEF100   [8]  C7 00 00 00 03 FF 00 FF
08/07/2025 07:41:14AM   can0  0CF00400   [8]  F1 90 90 04 1A FF FF 90
08/07/2025 07:41:14AM   can0  0CF00400   [8]  F1 90 90 08 1A FF FF 90
08/07/2025 07:41:14AM   can0  0CF00400   [8]  F1 90 90 16 1A FF FF 90
08/07/2025 07:41:14AM   can0  0CF00400   [8]  F1 8F 8F 2C 1A FF FF 8F
08/07/2025 07:41:14AM   can0  0CF00400   [8]  F1 8F 8F 2C 1A FF FF 8F
08/07/2025 07:41:14AM   can0  18FEF100   [8]  C7 00 00 00 03 FF 00 FF
08/07/2025 07:41:14AM   can0  0CF00400   [8]  F1 8F 8F 35 1A FF FF 8F
08/07/2025 07:41:14AM   can0  0CF00400   [8]  F1 90 90 28 1A FF FF 90
08/07/2025 07:41:14AM   can0  0CF00400   [8]  F1 90 90 20 1A FF FF 90
08/07/2025 07:41:14AM   can0  0CF00400   [8]  F1 90 90 1F 1A FF FF 90
08/07/2025 07:41:14AM   can0  0CF00400   [8]  F1 90 90 29 1A FF FF 90
08/07/2025 07:41:14AM   can0  18FEF100   [8]  C7 00 00 00 03 FF 00 FF
08/07/2025 07:41:14AM   can0  0CF00400   [8]  F1 8F 90 41 1A FF FF 8F
08/07/2025 07:41:14AM   can0  0CF00400   [8]  F1 8F 8F 41 1A FF FF 8F
08/07/2025 07:41:14AM   can0  0CF00400   [8]  F1 8F 8F 44 1A FF FF 8F
08/07/2025 07:41:14AM   can0  0CF00400   [8]  F1 90 90 38 1A FF FF 90
08/07/2025 07:41:14AM   can0  0CF00400   [8]  F1 90 90 30 1A FF FF 90
08/07/2025 07:41:14AM   can0  18FEF100   [8]  C7 00 00 00 03 FF 00 FF
08/07/2025 07:41:14AM   can0  0CF00400   [8]  F1 90 90 25 1A FF FF 90
08/07/2025 07:41:14AM   can0  0CF00400   [8]  F1 90 90 30 1A FF FF 90
08/07/2025 07:41:14AM   can0  0CF00400   [8]  F1 8F 90 46 1A FF FF 8F
08/07/2025 07:41:14AM   can0  0CF00400   [8]  F1 8F 8F 45 1A FF FF 8F
08/07/2025 07:41:14AM   can0  0CF00400   [8]  F1 8F 8F 44 1A FF FF 8F
08/07/2025 07:41:14AM   can0  18FEF100   [8]  C7 00 00 00 03 FF 00 FF
08/07/2025 07:41:14AM   can0  0CF00400   [8]  F1 90 90 40 1A FF FF 90
08/07/2025 07:41:14AM   can0  0CF00400   [8]  F1 90 90 38 1A FF FF 90
08/07/2025 07:41:14AM   can0  0CF00400   [8]  F1 90 90 2F 1A FF FF 90
08/07/2025 07:41:14AM   can0  0CF00400   [8]  F1 90 90 37 1A FF FF 90
08/07/2025 07:41:14AM   can0  0CF00400   [8]  F1 8F 90 4A 1A FF FF 8F
08/07/2025 07:41:14AM   can0  18FEF100   [8]  C7 00 00 00 03 FF 00 FF
08/07/2025 07:41:14AM   can0  0CF00400   [8]  F1 8F 8F 50 1A FF FF 8F
08/07/2025 07:41:14AM   can0  0CF00400   [8]  F1 90 8F 46 1A FF FF 90
08/07/2025 07:41:14AM   can0  0CF00400   [8]  F1 90 90 41 1A FF FF 90
08/07/2025 07:41:14AM   can0  0CF00400   [8]  F1 90 90 37 1A FF FF 90
08/07/2025 07:41:15AM   can0  0CF00400   [8]  F1 90 90 35 1A FF FF 90
08/07/2025 07:41:15AM   can0  18FEF100   [8]  C7 00 00 00 03 FF 00 FF
08/07/2025 07:41:15AM   can0  0CF00400   [8]  F1 90 90 38 1A FF FF 90
08/07/2025 07:41:15AM   can0  0CF00400   [8]  F1 8F 90 4C 1A FF FF 8F
08/07/2025 07:41:15AM   can0  0CF00400   [8]  F1 8F 8F 56 1A FF FF 8F
08/07/2025 07:41:15AM   can0  0CF00400   [8]  F1 8F 8F 4C 1A FF FF 8F
08/07/2025 07:41:15AM   can0  0CF00400   [8]  F1 90 8F 48 1A FF FF 90
08/07/2025 07:41:15AM   can0  18FEF100   [8]  C7 00 00 00 03 FF 00 FF
08/07/2025 07:41:15AM   can0  0CF00400   [8]  F1 90 90 3C 1A FF FF 90
08/07/2025 07:41:15AM   can0  0CF00400   [8]  F1 90 90 39 1A FF FF 90
08/07/2025 07:41:15AM   can0  0CF00400   [8]  F1 90 90 38 1A FF FF 90
08/07/2025 07:41:15AM   can0  0CF00400   [8]  F1 90 90 4A 1A FF FF 90
08/07/2025 07:41:15AM   can0  0CF00400   [8]  F1 8F 8F 55 1A FF FF 8F
08/07/2025 07:41:15AM   can0  18FEF100   [8]  C7 00 00 00 03 FF 00 FF
08/07/2025 07:41:15AM   can0  0CF00400   [8]  F1 8F 8F 4C 1A FF FF 8F
08/07/2025 07:41:15AM   can0  0CF00400   [8]  F1 90 8F 49 1A FF FF 90
08/07/2025 07:41:15AM   can0  0CF00400   [8]  F1 90 90 3D 1A FF FF 90
08/07/2025 07:41:15AM   can0  0CF00400   [8]  F1 90 90 3B 1A FF FF 90
08/07/2025 07:41:15AM   can0  0CF00400   [8]  F1 90 90 39 1A FF FF 90
08/07/2025 07:41:15AM   can0  18FEF100   [8]  C7 00 00 00 03 FF 00 FF
08/07/2025 07:41:15AM   can0  0CF00400   [8]  F1 90 90 46 1A FF FF 90
08/07/2025 07:41:15AM   can0  0CF00400   [8]  F1 8F 8F 55 1A FF FF 8F
08/07/2025 07:41:15AM   can0  0CF00400   [8]  F1 8F 8F 50 1A FF FF 8F
08/07/2025 07:41:15AM   can0  0CF00400   [8]  F1 8F 8F 4E 1A FF FF 8F
08/07/2025 07:41:15AM   can0  0CF00400   [8]  F1 90 90 41 1A FF FF 90
08/07/2025 07:41:15AM   can0  18FEF100   [8]  C7 00 00 00 03 FF 00 FF
08/07/2025 07:41:15AM   can0  0CF00400   [8]  F1 90 90 3F 1A FF FF 90
08/07/2025 07:41:15AM   can0  0CF00400   [8]  F1 90 90 3C 1A FF FF 90
08/07/2025 07:41:15AM   can0  0CF00400   [8]  F1 90 90 48 1A FF FF 90
08/07/2025 07:41:15AM   can0  0CF00400   [8]  F1 8F 8F 58 1A FF FF 8F
08/07/2025 07:41:15AM   can0  0CF00400   [8]  F1 8F 8F 51 1A FF FF 8F
08/07/2025 07:41:15AM   can0  18FEF100   [8]  C7 00 00 00 03 FF 00 FF
08/07/2025 07:41:15AM   can0  0CF00400   [8]  F1 8F 8F 54 1A FF FF 8F
08/07/2025 07:41:15AM   can0  0CF00400   [8]  F1 90 90 48 1A FF FF 90
08/07/2025 07:41:15AM   can0  0CF00400   [8]  F1 90 90 40 1A FF FF 90
08/07/2025 07:41:15AM   can0  0CF00400   [8]  F1 90 90 3A 1A FF FF 90
08/07/2025 07:41:15AM   can0  0CF00400   [8]  F1 90 90 43 1A FF FF 90
08/07/2025 07:41:15AM   can0  18FEF100   [8]  C7 00 00 00 03 FF 00 FF
08/07/2025 07:41:15AM   can0  0CF00400   [8]  F1 8F 8F 57 1A FF FF 8F
08/07/2025 07:41:15AM   can0  0CF00400   [8]  F1 8F 8F 53 1A FF FF 8F
08/07/2025 07:41:15AM   can0  0CF00400   [8]  F1 8F 8F 55 1A FF FF 8F
08/07/2025 07:41:15AM   can0  0CF00400   [8]  F1 90 90 48 1A FF FF 90
08/07/2025 07:41:15AM   can0  0CF00400   [8]  F1 90 90 40 1A FF FF 90
08/07/2025 07:41:15AM   can0  18FEF100   [8]  C7 00 00 00 03 FF 00 FF
08/07/2025 07:41:15AM   can0  0CF00400   [8]  F1 90 90 36 1A FF FF 90
08/07/2025 07:41:15AM   can0  0CF00400   [8]  F1 90 90 40 1A FF FF 90
08/07/2025 07:41:15AM   can0  0CF00400   [8]  F1 8F 8F 53 1A FF FF 8F
08/07/2025 07:41:15AM   can0  0CF00400   [8]  F1 8F 8F 50 1A FF FF 8F
08/07/2025 07:41:15AM   can0  0CF00400   [8]  F1 8E 8F 50 1A FF FF 8E
08/07/2025 07:41:15AM   can0  18FEF100   [8]  C7 00 00 00 03 FF 00 FF
08/07/2025 07:41:15AM   can0  0CF00400   [8]  F1 8E 8E 46 1A FF FF 8E
08/07/2025 07:41:15AM   can0  0CF00400   [8]  F1 8C 8D 39 1A FF FF 8C
08/07/2025 07:41:15AM   can0  0CF00400   [8]  F1 8B 8B 28 1A FF FF 8B
08/07/2025 07:41:15AM   can0  0CF00400   [8]  F1 88 89 20 1A FF FF 88
08/07/2025 07:41:15AM   can0  0CF00400   [8]  F0 85 86 1C 1A FF FF 85
08/07/2025 07:41:15AM   can0  18FEF100   [8]  C7 00 00 00 03 FF 00 FF
08/07/2025 07:41:15AM   can0  0CF00400   [8]  F0 7D 80 FB 19 FF FF 80
08/07/2025 07:41:15AM   can0  0CF00400   [8]  F0 7D 7F A7 19 FF FF 80
08/07/2025 07:41:15AM   can0  0CF00400   [8]  F0 7D 80 4C 19 FF FF 80
08/07/2025 07:41:15AM   can0  0CF00400   [8]  F0 7D 80 E4 18 FF FF 80
08/07/2025 07:41:16AM   can0  0CF00400   [8]  F0 7D 81 88 18 FF FF 81
08/07/2025 07:41:16AM   can0  18FEF100   [8]  C7 00 00 00 03 FF 00 FF
08/07/2025 07:41:16AM   can0  0CF00400   [8]  F0 7D 81 24 18 FF FF 81
08/07/2025 07:41:16AM   can0  0CF00400   [8]  F0 7D 81 D2 17 FF FF 82
08/07/2025 07:41:16AM   can0  0CF00400   [8]  F0 7D 82 83 17 FF FF 82
08/07/2025 07:41:16AM   can0  0CF00400   [8]  F0 7D 82 2A 17 FF FF 83
08/07/2025 07:41:16AM   can0  0CF00400   [8]  F0 7D 83 DD 16 FF FF 83
08/07/2025 07:41:16AM   can0  18FEF100   [8]  C7 00 00 00 03 FF 00 FF
08/07/2025 07:41:16AM   can0  0CF00400   [8]  F0 7D 83 88 16 FF FF 84
08/07/2025 07:41:16AM   can0  0CF00400   [8]  F0 7D 84 3B 16 FF FF 85
08/07/2025 07:41:16AM   can0  0CF00400   [8]  F0 7D 85 F8 15 FF FF 85
08/07/2025 07:41:16AM   can0  0CF00400   [8]  F0 7D 85 B4 15 FF FF 86
08/07/2025 07:41:16AM   can0  0CF00400   [8]  F0 7D 86 83 15 FF FF 86
08/07/2025 07:41:16AM   can0  18FEF100   [8]  C7 00 00 00 03 FF 00 FF
08/07/2025 07:41:16AM   can0  0CF00400   [8]  F0 7D 86 57 15 FF FF 86
08/07/2025 07:41:16AM   can0  0CF00400   [8]  F0 7D 86 2C 15 FF FF 86
08/07/2025 07:41:16AM   can0  0CF00400   [8]  F0 7D 87 F0 14 FF FF 87
08/07/2025 07:41:16AM   can0  0CF00400   [8]  F0 7D 87 CC 14 FF FF 87
08/07/2025 07:41:16AM   can0  0CF00400   [8]  F0 7D 88 98 14 FF FF 88
08/07/2025 07:41:16AM   can0  18FEF100   [8]  C7 00 00 00 03 FF 00 FF
08/07/2025 07:41:16AM   can0  0CF00400   [8]  F0 7D 88 66 14 FF FF 88
08/07/2025 07:41:16AM   can0  0CF00400   [8]  F0 7D 89 43 14 FF FF 89
08/07/2025 07:41:16AM   can0  0CF00400   [8]  F0 7D 89 1A 14 FF FF 89
08/07/2025 07:41:16AM   can0  0CF00400   [8]  F0 7D 89 04 14 FF FF 89
08/07/2025 07:41:16AM   can0  0CF00400   [8]  F0 7D 89 F5 13 FF FF 89
08/07/2025 07:41:16AM   can0  18FEF100   [8]  C7 00 00 00 03 FF 00 FF
08/07/2025 07:41:16AM   can0  0CF00400   [8]  F0 7D 89 EA 13 FF FF 89
08/07/2025 07:41:16AM   can0  0CF00400   [8]  F0 7D 89 CC 13 FF FF 8A
08/07/2025 07:41:16AM   can0  0CF00400   [8]  F0 7D 8A B9 13 FF FF 8A
08/07/2025 07:41:16AM   can0  0CF00400   [8]  F0 7D 8A A0 13 FF FF 8A
08/07/2025 07:41:16AM   can0  0CF00400   [8]  F0 7D 8A 85 13 FF FF 8A
08/07/2025 07:41:16AM   can0  18FEF100   [8]  C7 00 00 00 03 FF 00 FF
08/07/2025 07:41:16AM   can0  0CF00400   [8]  F0 7D 8B 6B 13 FF FF 8B
08/07/2025 07:41:16AM   can0  0CF00400   [8]  F0 7D 8B 50 13 FF FF 8B
08/07/2025 07:41:16AM   can0  0CF00400   [8]  F0 7D 8B 44 13 FF FF 8B
08/07/2025 07:41:16AM   can0  0CF00400   [8]  F0 7D 8B 3F 13 FF FF 8B
08/07/2025 07:41:16AM   can0  0CF00400   [8]  F0 7D 8B 45 13 FF FF 8B
08/07/2025 07:41:16AM   can0  18FEF100   [8]  C7 00 00 00 03 FF 00 FF
08/07/2025 07:41:16AM   can0  0CF00400   [8]  F0 7D 8B 46 13 FF FF 8B
08/07/2025 07:41:16AM   can0  0CF00400   [8]  F0 7D 8B 2E 13 FF FF 8B
08/07/2025 07:41:16AM   can0  0CF00400   [8]  F0 7D 8B 31 13 FF FF 8B
08/07/2025 07:41:16AM   can0  0CF00400   [8]  F0 7D 8B 19 13 FF FF 8B
08/07/2025 07:41:16AM   can0  0CF00400   [8]  F0 7D 8B 06 13 FF FF 8C
08/07/2025 07:41:16AM   can0  18FEF100   [8]  C7 00 00 00 03 FF 00 FF
08/07/2025 07:41:16AM   can0  0CF00400   [8]  F0 7D 8C 01 13 FF FF 8C
08/07/2025 07:41:16AM   can0  0CF00400   [8]  F0 7D 8C EC 12 FF FF 8C
08/07/2025 07:41:16AM   can0  0CF00400   [8]  F0 7D 8C F1 12 FF FF 8C
08/07/2025 07:41:16AM   can0  0CF00400   [8]  F0 7D 8C F4 12 FF FF 8C
08/07/2025 07:41:16AM   can0  0CF00400   [8]  F0 7D 8C FF 12 FF FF 8B
08/07/2025 07:41:16AM   can0  18FEF100   [8]  C7 00 00 00 03 FF 00 FF
08/07/2025 07:41:16AM   can0  0CF00400   [8]  F0 7D 8B 02 13 FF FF 8B
08/07/2025 07:41:16AM   can0  0CF00400   [8]  F0 7D 8C F0 12 FF FF 8C
08/07/2025 07:41:16AM   can0  0CF00400   [8]  F0 7D 8C F8 12 FF FF 8C
08/07/2025 07:41:16AM   can0  0CF00400   [8]  F0 7D 8C E3 12 FF FF 8C
08/07/2025 07:41:16AM   can0  0CF00400   [8]  F0 7D 8C D3 12 FF FF 8C
08/07/2025 07:41:16AM   can0  18FEF100   [8]  C7 00 00 00 03 FF 00 FF
08/07/2025 07:41:16AM   can0  0CF00400   [8]  F0 7D 8C D3 12 FF FF 8C
08/07/2025 07:41:16AM   can0  0CF00400   [8]  F0 7D 8C C4 12 FF FF 8C
08/07/2025 07:41:16AM   can0  0CF00400   [8]  F0 7D 8C D2 12 FF FF 8C
08/07/2025 07:41:16AM   can0  0CF00400   [8]  F0 7D 8C DC 12 FF FF 8C
08/07/2025 07:41:17AM   can0  0CF00400   [8]  F0 7D 8C EC 12 FF FF 8C
08/07/2025 07:41:17AM   can0  18FEF100   [8]  C7 00 00 00 03 FF 00 FF
08/07/2025 07:41:17AM   can0  0CF00400   [8]  F0 7D 8B EF 12 FF FF 8B
08/07/2025 07:41:17AM   can0  0CF00400   [8]  F0 7D 8C E4 12 FF FF 8C
08/07/2025 07:41:17AM   can0  0CF00400   [8]  F0 7D 8C EE 12 FF FF 8B
08/07/2025 07:41:17AM   can0  0CF00400   [8]  F0 7D 8C DF 12 FF FF 8C
08/07/2025 07:41:17AM   can0  0CF00400   [8]  F0 7D 8C D3 12 FF FF 8C
08/07/2025 07:41:17AM   can0  18FEF100   [8]  C7 00 00 00 03 FF 00 FF
08/07/2025 07:41:17AM   can0  0CF00400   [8]  F0 7D 8C D6 12 FF FF 8C
08/07/2025 07:41:17AM   can0  0CF00400   [8]  F0 7D 8C C8 12 FF FF 8C
08/07/2025 07:41:17AM   can0  0CF00400   [8]  F0 7D 8C D7 12 FF FF 8C
08/07/2025 07:41:17AM   can0  0CF00400   [8]  F0 7D 8C E4 12 FF FF 8B
08/07/2025 07:41:17AM   can0  0CF00400   [8]  F0 7D 8B F4 12 FF FF 8B
08/07/2025 07:41:17AM   can0  18FEF100   [8]  C7 00 00 00 03 FF 00 FF
08/07/2025 07:41:17AM   can0  0CF00400   [8]  F0 7D 8B F3 12 FF FF 8B
08/07/2025 07:41:17AM   can0  0CF00400   [8]  F0 7D 8B E8 12 FF FF 8B
08/07/2025 07:41:17AM   can0  0CF00400   [8]  F0 7D 8B F0 12 FF FF 8B
08/07/2025 07:41:17AM   can0  0CF00400   [8]  F0 7D 8B E1 12 FF FF 8B
08/07/2025 07:41:17AM   can0  0CF00400   [8]  F0 7D 8C D5 12 FF FF 8C
08/07/2025 07:41:17AM   can0  18FEF100   [8]  C7 00 00 00 03 FF 00 FF
08/07/2025 07:41:17AM   can0  0CF00400   [8]  F0 7D 8C D5 12 FF FF 8C
08/07/2025 07:41:17AM   can0  0CF00400   [8]  F0 7D 8C C8 12 FF FF 8C
08/07/2025 07:41:17AM   can0  0CF00400   [8]  F0 7D 8C D0 12 FF FF 8C
08/07/2025 07:41:17AM   can0  0CF00400   [8]  F0 7D 8C D9 12 FF FF 8B
08/07/2025 07:41:17AM   can0  0CF00400   [8]  F0 7D 8B E2 12 FF FF 8B
08/07/2025 07:41:17AM   can0  18FEF100   [8]  C7 00 00 00 03 FF 00 FF
08/07/2025 07:41:17AM   can0  0CF00400   [8]  F0 7D 8B DE 12 FF FF 8B
08/07/2025 07:41:17AM   can0  0CF00400   [8]  F0 7D 8B D0 12 FF FF 8C
08/07/2025 07:41:17AM   can0  0CF00400   [8]  F0 7D 8B D6 12 FF FF 8B
08/07/2025 07:41:17AM   can0  0CF00400   [8]  F0 7D 8C C2 12 FF FF 8C
08/07/2025 07:41:17AM   can0  0CF00400   [8]  F0 7D 8C B4 12 FF FF 8C
08/07/2025 07:41:17AM   can0  18FEF100   [8]  C7 00 00 00 03 FF 00 FF
08/07/2025 07:41:17AM   can0  0CF00400   [8]  F0 7D 8C B1 12 FF FF 8C
08/07/2025 07:41:17AM   can0  0CF00400   [8]  F0 7D 8C A6 12 FF FF 8C
08/07/2025 07:41:17AM   can0  0CF00400   [8]  F0 7D 8C B0 12 FF FF 8C
08/07/2025 07:41:17AM   can0  0CF00400   [8]  F0 7D 8C BE 12 FF FF 8C
08/07/2025 07:41:17AM   can0  0CF00400   [8]  F0 7D 8C CB 12 FF FF 8C
08/07/2025 07:41:17AM   can0  18FEF100   [8]  C7 00 00 00 03 FF 00 FF
08/07/2025 07:41:17AM   can0  0CF00400   [8]  F0 7D 8C CC 12 FF FF 8C
08/07/2025 07:41:17AM   can0  0CF00400   [8]  F0 7D 8C C0 12 FF FF 8C
08/07/2025 07:41:17AM   can0  0CF00400   [8]  F0 7D 8C C9 12 FF FF 8C
08/07/2025 07:41:17AM   can0  0CF00400   [8]  F0 7D 8C B8 12 FF FF 8C
08/07/2025 07:41:17AM   can0  0CF00400   [8]  F0 7D 8C AC 12 FF FF 8C
08/07/2025 07:41:17AM   can0  18FEF100   [8]  C7 00 00 00 03 FF 00 FF
08/07/2025 07:41:17AM   can0  0CF00400   [8]  F0 7D 8C A9 12 FF FF 8C
08/07/2025 07:41:17AM   can0  0CF00400   [8]  F0 7D 8D 9E 12 FF FF 8D
08/07/2025 07:41:17AM   can0  0CF00400   [8]  F0 7D 8C A9 12 FF FF 8C
08/07/2025 07:41:17AM   can0  0CF00400   [8]  F0 7D 8C B8 12 FF FF 8C
08/07/2025 07:41:17AM   can0  0CF00400   [8]  F0 7D 8C C7 12 FF FF 8C
08/07/2025 07:41:17AM   can0  18FEF100   [8]  C7 00 00 00 03 FF 00 FF
08/07/2025 07:41:17AM   can0  0CF00400   [8]  F0 7D 8C C8 12 FF FF 8C
08/07/2025 07:41:17AM   can0  0CF00400   [8]  F0 7D 8C C0 12 FF FF 8C
08/07/2025 07:41:17AM   can0  0CF00400   [8]  F0 7D 8C CB 12 FF FF 8C
08/07/2025 07:41:17AM   can0  0CF00400   [8]  F0 7D 8C BC 12 FF FF 8C
08/07/2025 07:41:17AM   can0  0CF00400   [8]  F0 7D 8C B0 12 FF FF 8C
08/07/2025 07:41:17AM   can0  18FEF100   [8]  C7 00 00 00 03 FF 00 FF
08/07/2025 07:41:17AM   can0  0CF00400   [8]  F0 7D 8C B2 12 FF FF 8C
08/07/2025 07:41:17AM   can0  0CF00400   [8]  F0 7D 8C A7 12 FF FF 8C
08/07/2025 07:41:17AM   can0  0CF00400   [8]  F0 7D 8C B4 12 FF FF 8C
08/07/2025 07:41:17AM   can0  0CF00400   [8]  F0 7D 8C C3 12 FF FF 8C
08/07/2025 07:41:18AM   can0  0CF00400   [8]  F0 7D 8C D2 12 FF FF 8C
08/07/2025 07:41:18AM   can0  18FEF100   [8]  C7 00 00 00 03 FF 00 FF
08/07/2025 07:41:18AM   can0  0CF00400   [8]  F0 7D 8B D4 12 FF FF 8C
08/07/2025 07:41:18AM   can0  0CF00400   [8]  F0 7D 8C CE 12 FF FF 8C
08/07/2025 07:41:18AM   can0  0CF00400   [8]  F0 7D 8C D7 12 FF FF 8C
08/07/2025 07:41:18AM   can0  0CF00400   [8]  F0 7D 8C C9 12 FF FF 8C
08/07/2025 07:41:18AM   can0  0CF00400   [8]  F0 7D 8C BF 12 FF FF 8C
08/07/2025 07:41:18AM   can0  18FEF100   [8]  C7 00 00 00 03 FF 00 FF
08/07/2025 07:41:18AM   can0  0CF00400   [8]  F0 7D 8C C0 12 FF FF 8C
08/07/2025 07:41:18AM   can0  0CF00400   [8]  F0 7D 8C B6 12 FF FF 8C
08/07/2025 07:41:18AM   can0  0CF00400   [8]  F0 7D 8C C0 12 FF FF 8C
08/07/2025 07:41:18AM   can0  0CF00400   [8]  F0 7D 8C CC 12 FF FF 8C
08/07/2025 07:41:18AM   can0  0CF00400   [8]  F0 7D 8B D9 12 FF FF 8B
08/07/2025 07:41:18AM   can0  18FEF100   [8]  C7 00 00 00 03 FF 00 FF
08/07/2025 07:41:18AM   can0  0CF00400   [8]  F0 7D 8B D8 12 FF FF 8B
08/07/2025 07:41:18AM   can0  0CF00400   [8]  F0 7D 8C CD 12 FF FF 8C
08/07/2025 07:41:18AM   can0  0CF00400   [8]  F0 7D 8B D7 12 FF FF 8B
08/07/2025 07:41:18AM   can0  0CF00400   [8]  F0 7D 8C C4 12 FF FF 8C
08/07/2025 07:41:18AM   can0  0CF00400   [8]  F0 7D 8C B7 12 FF FF 8C
08/07/2025 07:41:18AM   can0  18FEF100   [8]  C7 00 00 00 03 FF 00 FF
08/07/2025 07:41:18AM   can0  0CF00400   [8]  F0 7D 8C B6 12 FF FF 8C
08/07/2025 07:41:18AM   can0  0CF00400   [8]  F0 7D 8C AC 12 FF FF 8C
08/07/2025 07:41:18AM   can0  0CF00400   [8]  F0 7D 8C B6 12 FF FF 8C
08/07/2025 07:41:18AM   can0  0CF00400   [8]  F0 7D 8C C3 12 FF FF 8C
08/07/2025 07:41:18AM   can0  0CF00400   [8]  F0 7D 8C CF 12 FF FF 8C
08/07/2025 07:41:18AM   can0  18FEF100   [8]  C7 00 00 00 03 FF 00 FF
08/07/2025 07:41:18AM   can0  0CF00400   [8]  F0 7D 8B D0 12 FF FF 8C
08/07/2025 07:41:18AM   can0  0CF00400   [8]  F0 7D 8C C4 12 FF FF 8C
08/07/2025 07:41:18AM   can0  0CF00400   [8]  F0 7D 8C CC 12 FF FF 8C
08/07/2025 07:41:18AM   can0  0CF00400   [8]  F0 7D 8C BB 12 FF FF 8C
08/07/2025 07:41:18AM   can0  0CF00400   [8]  F0 7D 8C B0 12 FF FF 8C
08/07/2025 07:41:18AM   can0  18FEF100   [8]  C7 00 00 00 03 FF 00 FF
08/07/2025 07:41:18AM   can0  0CF00400   [8]  F0 7D 8C AF 12 FF FF 8C
08/07/2025 07:41:18AM   can0  0CF00400   [8]  F0 7D 8C A4 12 FF FF 8C
08/07/2025 07:41:18AM   can0  0CF00400   [8]  F0 7D 8C AF 12 FF FF 8C
08/07/2025 07:41:18AM   can0  0CF00400   [8]  F0 7D 8C BD 12 FF FF 8C
08/07/2025 07:41:18AM   can0  0CF00400   [8]  F0 7D 8C CB 12 FF FF 8C
08/07/2025 07:41:18AM   can0  18FEF100   [8]  C7 00 00 00 03 FF 00 FF
08/07/2025 07:41:18AM   can0  0CF00400   [8]  F0 7D 8C CC 12 FF FF 8C
08/07/2025 07:41:18AM   can0  0CF00400   [8]  F0 7D 8C C4 12 FF FF 8C
08/07/2025 07:41:18AM   can0  0CF00400   [8]  F0 7D 8C CD 12 FF FF 8C
08/07/2025 07:41:18AM   can0  0CF00400   [8]  F0 7D 8C BF 12 FF FF 8C
08/07/2025 07:41:18AM   can0  0CF00400   [8]  F0 7D 8C B4 12 FF FF 8C
08/07/2025 07:41:18AM   can0  18FEF100   [8]  C7 00 00 00 03 FF 00 FF
08/07/2025 07:41:18AM   can0  0CF00400   [8]  F0 7D 8C B6 12 FF FF 8C
08/07/2025 07:41:18AM   can0  0CF00400   [8]  F0 7D 8C AD 12 FF FF 8C
08/07/2025 07:41:18AM   can0  0CF00400   [8]  F0 7D 8C BA 12 FF FF 8C
08/07/2025 07:41:18AM   can0  0CF00400   [8]  F0 7D 8C C7 12 FF FF 8C
08/07/2025 07:41:18AM   can0  0CF00400   [8]  F0 7D 8C D4 12 FF FF 8B
08/07/2025 07:41:18AM   can0  18FEF100   [8]  C7 00 00 00 03 FF 00 FF
08/07/2025 07:41:18AM   can0  0CF00400   [8]  F0 7D 8B D2 12 FF FF 8C
08/07/2025 07:41:18AM   can0  0CF00400   [8]  F0 7D 8C C8 12 FF FF 8C
08/07/2025 07:41:18AM   can0  0CF00400   [8]  F0 7D 8C CF 12 FF FF 8C
08/07/2025 07:41:18AM   can0  0CF00400   [8]  F0 7D 8C C0 12 FF FF 8C
08/07/2025 07:41:18AM   can0  0CF00400   [8]  F0 7D 8C B4 12 FF FF 8C
08/07/2025 07:41:18AM   can0  18FEF100   [8]  C7 00 00 00 03 FF 00 FF
08/07/2025 07:41:18AM   can0  0CF00400   [8]  F0 7D 8C B6 12 FF FF 8C
08/07/2025 07:41:18AM   can0  0CF00400   [8]  F0 7D 8C AC 12 FF FF 8C
08/07/2025 07:41:18AM   can0  0CF00400   [8]  F0 7D 8C B8 12 FF FF 8C
08/07/2025 07:41:18AM   can0  0CF00400   [8]  F0 7D 8C C4 12 FF FF 8C
08/07/2025 07:41:19AM   can0  0CF00400   [8]  F0 7D 8C D1 12 FF FF 8B
08/07/2025 07:41:19AM   can0  18FEF100   [8]  C7 00 00 00 03 FF 00 FF
08/07/2025 07:41:19AM   can0  0CF00400   [8]  F0 7D 8B D0 12 FF FF 8C
08/07/2025 07:41:19AM   can0  0CF00400   [8]  F0 7D 8C C6 12 FF FF 8C
08/07/2025 07:41:19AM   can0  0CF00400   [8]  F0 7D 8C CE 12 FF FF 8C
08/07/2025 07:41:19AM   can0  0CF00400   [8]  F0 7D 8C BF 12 FF FF 8C
08/07/2025 07:41:19AM   can0  0CF00400   [8]  F0 7D 8C B4 12 FF FF 8C
08/07/2025 07:41:19AM   can0  18FEF100   [8]  C7 00 00 00 03 FF 00 FF
08/07/2025 07:41:19AM   can0  0CF00400   [8]  F0 7D 8C B5 12 FF FF 8C
08/07/2025 07:41:19AM   can0  0CF00400   [8]  F0 7D 8C AC 12 FF FF 8C
08/07/2025 07:41:19AM   can0  0CF00400   [8]  F0 7D 8C B2 12 FF FF 8C
08/07/2025 07:41:19AM   can0  0CF00400   [8]  F0 7D 8C B4 12 FF FF 8C
08/07/2025 07:41:19AM   can0  0CF00400   [8]  F0 7D 8C B9 12 FF FF 8C
08/07/2025 07:41:19AM   can0  18FEF100   [8]  C7 00 00 00 03 FF 00 FF
08/07/2025 07:41:19AM   can0  0CF00400   [8]  F0 7D 8C B4 12 FF FF 8C
08/07/2025 07:41:19AM   can0  0CF00400   [8]  F0 7D 8C AF 12 FF FF 8C
08/07/2025 07:41:19AM   can0  0CF00400   [8]  F0 7D 8C C7 12 FF FF 8C
08/07/2025 07:41:19AM   can0  0CF00400   [8]  F0 7D 8C C2 12 FF FF 8C
08/07/2025 07:41:19AM   can0  0CF00400   [8]  F0 7D 8C C2 12 FF FF 8C
08/07/2025 07:41:19AM   can0  18FEF100   [8]  C7 00 00 00 03 FF 00 FF
08/07/2025 07:41:19AM   can0  0CF00400   [8]  F0 7D 8C C8 12 FF FF 8C
08/07/2025 07:41:19AM   can0  0CF00400   [8]  F0 7D 8C C0 12 FF FF 8C
08/07/2025 07:41:19AM   can0  0CF00400   [8]  F0 7D 8C C2 12 FF FF 8C
08/07/2025 07:41:19AM   can0  0CF00400   [8]  F0 7D 8C C0 12 FF FF 8C
08/07/2025 07:41:19AM   can0  0CF00400   [8]  F0 7D 8C C0 12 FF FF 8C
08/07/2025 07:41:19AM   can0  18FEF100   [8]  C7 00 00 00 03 FF 00 FF
08/07/2025 07:41:19AM   can0  0CF00400   [8]  F0 7D 8C B9 12 FF FF 8C
08/07/2025 07:41:19AM   can0  0CF00400   [8]  F0 7D 8C B4 12 FF FF 8C
08/07/2025 07:41:19AM   can0  0CF00400   [8]  F0 7D 8C CC 12 FF FF 8C
08/07/2025 07:41:19AM   can0  0CF00400   [8]  F0 7D 8C C6 12 FF FF 8C
08/07/2025 07:41:19AM   can0  0CF00400   [8]  F0 7D 8C C5 12 FF FF 8C
08/07/2025 07:41:19AM   can0  18FEF100   [8]  C7 00 00 00 03 FF 00 FF
08/07/2025 07:41:19AM   can0  0CF00400   [8]  F0 7D 8C CC 12 FF FF 8C
08/07/2025 07:41:19AM   can0  0CF00400   [8]  F0 7D 8C C2 12 FF FF 8C
08/07/2025 07:41:19AM   can0  0CF00400   [8]  F0 7D 8C C4 12 FF FF 8C
08/07/2025 07:41:19AM   can0  0CF00400   [8]  F0 7D 8C C0 12 FF FF 8C
08/07/2025 07:41:19AM   can0  0CF00400   [8]  F0 7D 8C C2 12 FF FF 8C
08/07/2025 07:41:19AM   can0  18FEF100   [8]  C7 00 00 00 03 FF 00 FF
08/07/2025 07:41:19AM   can0  0CF00400   [8]  F0 7D 8C B9 12 FF FF 8C
08/07/2025 07:41:19AM   can0  0CF00400   [8]  F0 7D 8C B5 12 FF FF 8C
08/07/2025 07:41:19AM   can0  0CF00400   [8]  F0 7D 8C CC 12 FF FF 8C
08/07/2025 07:41:19AM   can0  0CF00400   [8]  F0 7D 8C C7 12 FF FF 8C
08/07/2025 07:41:19AM   can0  0CF00400   [8]  F0 7D 8C C8 12 FF FF 8C
08/07/2025 07:41:19AM   can0  18FEF100   [8]  C7 00 00 00 03 FF 00 FF
08/07/2025 07:41:19AM   can0  0CF00400   [8]  F0 7D 8C CE 12 FF FF 8C
08/07/2025 07:41:19AM   can0  0CF00400   [8]  F0 7D 8C C4 12 FF FF 8C
08/07/2025 07:41:19AM   can0  0CF00400   [8]  F0 7D 8C C7 12 FF FF 8C
08/07/2025 07:41:19AM   can0  0CF00400   [8]  F0 7D 8C C4 12 FF FF 8C
08/07/2025 07:41:19AM   can0  0CF00400   [8]  F0 7D 8C C5 12 FF FF 8C
08/07/2025 07:41:19AM   can0  18FEF100   [8]  C7 00 00 00 03 FF 00 FF
08/07/2025 07:41:19AM   can0  0CF00400   [8]  F0 7D 8C BC 12 FF FF 8C
08/07/2025 07:41:19AM   can0  0CF00400   [8]  F0 7D 8C B7 12 FF FF 8C
08/07/2025 07:41:19AM   can0  0CF00400   [8]  F0 7D 8C CA 12 FF FF 8C
08/07/2025 07:41:19AM   can0  0CF00400   [8]  F0 7D 8C C5 12 FF FF 8C
08/07/2025 07:41:19AM   can0  0CF00400   [8]  F0 7D 8C C5 12 FF FF 8C
08/07/2025 07:41:19AM   can0  18FEF100   [8]  C7 00 00 00 03 FF 00 FF
08/07/2025 07:41:19AM   can0  0CF00400   [8]  F0 7D 8C CD 12 FF FF 8C
08/07/2025 07:41:19AM   can0  0CF00400   [8]  F0 7D 8C C5 12 FF FF 8C
08/07/2025 07:41:19AM   can0  0CF00400   [8]  F0 7D 8C C8 12 FF FF 8C
08/07/2025 07:41:19AM   can0  0CF00400   [8]  F0 7D 8C C5 12 FF FF 8C
08/07/2025 07:41:20AM   can0  0CF00400   [8]  F0 7D 8C C8 12 FF FF 8C
08/07/2025 07:41:20AM   can0  18FEF100   [8]  C7 00 00 00 03 FF 00 FF
08/07/2025 07:41:20AM   can0  0CF00400   [8]  F0 7D 8C C0 12 FF FF 8C
08/07/2025 07:41:20AM   can0  0CF00400   [8]  F0 7D 8C BC 12 FF FF 8C
08/07/2025 07:41:20AM   can0  0CF00400   [8]  F0 7D 8C D0 12 FF FF 8C
08/07/2025 07:41:20AM   can0  0CF00400   [8]  F0 7D 8C C9 12 FF FF 8C
08/07/2025 07:41:20AM   can0  0CF00400   [8]  F0 7D 8C C8 12 FF FF 8C
08/07/2025 07:41:20AM   can0  18FEF100   [8]  C7 00 00 00 03 FF 00 FF
08/07/2025 07:41:20AM   can0  0CF00400   [8]  F0 7D 8C CC 12 FF FF 8C
08/07/2025 07:41:20AM   can0  0CF00400   [8]  F0 7D 8C C5 12 FF FF 8C
08/07/2025 07:41:20AM   can0  0CF00400   [8]  F0 7D 8C C4 12 FF FF 8C
08/07/2025 07:41:20AM   can0  0CF00400   [8]  F0 7D 8C C0 12 FF FF 8C
08/07/2025 07:41:20AM   can0  0CF00400   [8]  F0 7D 8C C2 12 FF FF 8C
08/07/2025 07:41:20AM   can0  18FEF100   [8]  C7 00 00 00 03 FF 00 FF
08/07/2025 07:41:20AM   can0  0CF00400   [8]  F0 7D 8C B8 12 FF FF 8C
08/07/2025 07:41:20AM   can0  0CF00400   [8]  F0 7D 8C B6 12 FF FF 8C
08/07/2025 07:41:20AM   can0  0CF00400   [8]  F0 7D 8C C9 12 FF FF 8C
08/07/2025 07:41:20AM   can0  0CF00400   [8]  F0 7D 8C C4 12 FF FF 8C
08/07/2025 07:41:20AM   can0  0CF00400   [8]  F0 7D 8C C5 12 FF FF 8C
08/07/2025 07:41:20AM   can0  18FEF100   [8]  C7 00 00 00 03 FF 00 FF
08/07/2025 07:41:20AM   can0  0CF00400   [8]  F0 7D 8C C8 12 FF FF 8C
08/07/2025 07:41:20AM   can0  0CF00400   [8]  F0 7D 8C C3 12 FF FF 8C
08/07/2025 07:41:20AM   can0  0CF00400   [8]  F0 7D 8C C0 12 FF FF 8C
08/07/2025 07:41:20AM   can0  0CF00400   [8]  F0 7D 8C BE 12 FF FF 8C
08/07/2025 07:41:20AM   can0  0CF00400   [8]  F0 7D 8C BF 12 FF FF 8C
08/07/2025 07:41:20AM   can0  18FEF100   [8]  C7 00 00 00 03 FF 00 FF
08/07/2025 07:41:20AM   can0  0CF00400   [8]  F0 7D 8C B6 12 FF FF 8C
08/07/2025 07:41:20AM   can0  0CF00400   [8]  F0 7D 8C B4 12 FF FF 8C
08/07/2025 07:41:20AM   can0  0CF00400   [8]  F0 7D 8C C8 12 FF FF 8C
08/07/2025 07:41:20AM   can0  0CF00400   [8]  F0 7D 8C C4 12 FF FF 8C
08/07/2025 07:41:20AM   can0  0CF00400   [8]  F0 7D 8C C7 12 FF FF 8C
08/07/2025 07:41:20AM   can0  18FEF100   [8]  C7 00 00 00 03 FF 00 FF
08/07/2025 07:41:20AM   can0  0CF00400   [8]  F0 7D 8C CA 12 FF FF 8C
08/07/2025 07:41:20AM   can0  0CF00400   [8]  F0 7D 8C C2 12 FF FF 8C
08/07/2025 07:41:20AM   can0  0CF00400   [8]  F0 7D 8C C3 12 FF FF 8C
08/07/2025 07:41:20AM   can0  0CF00400   [8]  F0 7D 8C C0 12 FF FF 8C
08/07/2025 07:41:20AM   can0  0CF00400   [8]  F0 7D 8C C1 12 FF FF 8C
08/07/2025 07:41:20AM   can0  18FEF100   [8]  C7 00 00 00 03 FF 00 FF
08/07/2025 07:41:20AM   can0  0CF00400   [8]  F0 7D 8C B8 12 FF FF 8C
08/07/2025 07:41:20AM   can0  0CF00400   [8]  F0 7D 8C B6 12 FF FF 8C
08/07/2025 07:41:20AM   can0  0CF00400   [8]  F0 7D 8C C8 12 FF FF 8C
08/07/2025 07:41:20AM   can0  0CF00400   [8]  F0 7D 8C C4 12 FF FF 8C
08/07/2025 07:41:20AM   can0  0CF00400   [8]  F0 7D 8C C3 12 FF FF 8C
08/07/2025 07:41:20AM   can0  18FEF100   [8]  C7 00 00 00 03 FF 00 FF
08/07/2025 07:41:20AM   can0  0CF00400   [8]  F0 7D 8C C6 12 FF FF 8C
08/07/2025 07:41:20AM   can0  0CF00400   [8]  F0 7D 8C BE 12 FF FF 8C
08/07/2025 07:41:20AM   can0  0CF00400   [8]  F0 7D 8C C0 12 FF FF 8C
08/07/2025 07:41:20AM   can0  0CF00400   [8]  F0 7D 8C BC 12 FF FF 8C
08/07/2025 07:41:20AM   can0  0CF00400   [8]  F0 7D 8C C0 12 FF FF 8C
08/07/2025 07:41:20AM   can0  18FEF100   [8]  C7 00 00 00 03 FF 00 FF
08/07/2025 07:41:20AM   can0  0CF00400   [8]  F0 7D 8C B6 12 FF FF 8C
08/07/2025 07:41:20AM   can0  0CF00400   [8]  F0 7D 8C B6 12 FF FF 8C
08/07/2025 07:41:20AM   can0  0CF00400   [8]  F0 7D 8C C8 12 FF FF 8C
08/07/2025 07:41:20AM   can0  0CF00400   [8]  F0 7D 8C C4 12 FF FF 8C
08/07/2025 07:41:20AM   can0  0CF00400   [8]  F0 7D 8C C3 12 FF FF 8C
08/07/2025 07:41:20AM   can0  18FEF100   [8]  C7 00 00 00 03 FF 00 FF
08/07/2025 07:41:20AM   can0  0CF00400   [8]  F0 7D 8C C6 12 FF FF 8C
08/07/2025 07:41:20AM   can0  0CF00400   [8]  F0 7D 8C BF 12 FF FF 8C
08/07/2025 07:41:20AM   can0  0CF00400   [8]  F0 7D 8C C0 12 FF FF 8C
08/07/2025 07:41:20AM   can0  0CF00400   [8]  F0 7D 8C BE 12 FF FF 8C
08/07/2025 07:41:21AM   can0  0CF00400   [8]  F0 7D 8C C3 12 FF FF 8C
08/07/2025 07:41:21AM   can0  18FEF100   [8]  C7 00 00 00 03 FF 00 FF
08/07/2025 07:41:21AM   can0  0CF00400   [8]  F0 7D 8C BB 12 FF FF 8C
08/07/2025 07:41:21AM   can0  0CF00400   [8]  F0 7D 8C BA 12 FF FF 8C
08/07/2025 07:41:21AM   can0  0CF00400   [8]  F0 7D 8C CE 12 FF FF 8B
08/07/2025 07:41:21AM   can0  0CF00400   [8]  F0 7D 8C C8 12 FF FF 8C
08/07/2025 07:41:21AM   can0  0CF00400   [8]  F0 7D 8C C4 12 FF FF 8C
08/07/2025 07:41:21AM   can0  18FEF100   [8]  C7 00 00 00 03 FF 00 FF
08/07/2025 07:41:21AM   can0  0CF00400   [8]  F0 7D 8C C6 12 FF FF 8C
08/07/2025 07:41:21AM   can0  0CF00400   [8]  F0 7D 8C BF 12 FF FF 8C
08/07/2025 07:41:21AM   can0  0CF00400   [8]  F0 7D 8C BE 12 FF FF 8C
08/07/2025 07:41:21AM   can0  0CF00400   [8]  F0 7D 8C BD 12 FF FF 8C
08/07/2025 07:41:21AM   can0  0CF00400   [8]  F0 7D 8C C0 12 FF FF 8C
08/07/2025 07:41:21AM   can0  18FEF100   [8]  C7 00 00 00 03 FF 00 FF
08/07/2025 07:41:21AM   can0  0CF00400   [8]  F0 7D 8C B8 12 FF FF 8C
08/07/2025 07:41:21AM   can0  0CF00400   [8]  F0 7D 8C B7 12 FF FF 8C
08/07/2025 07:41:21AM   can0  0CF00400   [8]  F0 7D 8C C9 12 FF FF 8C
08/07/2025 07:41:21AM   can0  0CF00400   [8]  F0 7D 8C C3 12 FF FF 8C
08/07/2025 07:41:21AM   can0  0CF00400   [8]  F0 7D 8C C2 12 FF FF 8C
08/07/2025 07:41:21AM   can0  18FEF100   [8]  C7 00 00 00 03 FF 00 FF
08/07/2025 07:41:21AM   can0  0CF00400   [8]  F0 7D 8C C5 12 FF FF 8C
08/07/2025 07:41:21AM   can0  0CF00400   [8]  F0 7D 8C C0 12 FF FF 8C
08/07/2025 07:41:21AM   can0  0CF00400   [8]  F0 7D 8C C0 12 FF FF 8C
08/07/2025 07:41:21AM   can0  0CF00400   [8]  F0 7D 8C C0 12 FF FF 8C
08/07/2025 07:41:21AM   can0  0CF00400   [8]  F0 7D 8C C4 12 FF FF 8C
08/07/2025 07:41:21AM   can0  18FEF100   [8]  C7 00 00 00 03 FF 00 FF
08/07/2025 07:41:21AM   can0  0CF00400   [8]  F0 7D 8C BC 12 FF FF 8C
08/07/2025 07:41:21AM   can0  0CF00400   [8]  F0 7D 8C BC 12 FF FF 8C
08/07/2025 07:41:21AM   can0  0CF00400   [8]  F0 7D 8B D0 12 FF FF 8B
08/07/2025 07:41:21AM   can0  0CF00400   [8]  F0 7D 8C CB 12 FF FF 8C
08/07/2025 07:41:21AM   can0  0CF00400   [8]  F0 7D 8C C8 12 FF FF 8C
08/07/2025 07:41:21AM   can0  18FEF100   [8]  C7 00 00 00 03 FF 00 FF
08/07/2025 07:41:21AM   can0  0CF00400   [8]  F0 7D 8B CA 12 FF FF 8C
08/07/2025 07:41:21AM   can0  0CF00400   [8]  F0 7D 8C C2 12 FF FF 8C
08/07/2025 07:41:21AM   can0  0CF00400   [8]  F0 7D 8C C3 12 FF FF 8C
08/07/2025 07:41:21AM   can0  0CF00400   [8]  F0 7D 8C C1 12 FF FF 8C
08/07/2025 07:41:21AM   can0  0CF00400   [8]  F0 7D 8C C5 12 FF FF 8C
08/07/2025 07:41:21AM   can0  18FEF100   [8]  C7 00 00 00 03 FF 00 FF
08/07/2025 07:41:21AM   can0  0CF00400   [8]  F0 7D 8B BC 12 FF FF 8C
08/07/2025 07:41:21AM   can0  0CF00400   [8]  F0 7D 8C BC 12 FF FF 8C
08/07/2025 07:41:21AM   can0  0CF00400   [8]  F0 7D 8B CC 12 FF FF 8B
08/07/2025 07:41:21AM   can0  0CF00400   [8]  F0 7D 8C C8 12 FF FF 8C
08/07/2025 07:41:21AM   can0  0CF00400   [8]  F0 7D 8C C5 12 FF FF 8C
08/07/2025 07:41:21AM   can0  18FEF100   [8]  C7 00 00 00 03 FF 00 FF
08/07/2025 07:41:21AM   can0  0CF00400   [8]  F0 7D 8B C7 12 FF FF 8C
08/07/2025 07:41:21AM   can0  0CF00400   [8]  F0 7D 8C BC 12 FF FF 8C
08/07/2025 07:41:21AM   can0  0CF00400   [8]  F0 7D 8C BC 12 FF FF 8C
08/07/2025 07:41:21AM   can0  0CF00400   [8]  F0 7D 8C BB 12 FF FF 8C
08/07/2025 07:41:21AM   can0  0CF00400   [8]  F0 7D 8C C0 12 FF FF 8C
08/07/2025 07:41:21AM   can0  18FEF100   [8]  C7 00 00 00 03 FF 00 FF
08/07/2025 07:41:21AM   can0  0CF00400   [8]  F0 7D 8C BA 12 FF FF 8C
08/07/2025 07:41:21AM   can0  0CF00400   [8]  F0 7D 8C B8 12 FF FF 8C
08/07/2025 07:41:21AM   can0  0CF00400   [8]  F0 7D 8C CA 12 FF FF 8B
08/07/2025 07:41:21AM   can0  0CF00400   [8]  F0 7D 8C C4 12 FF FF 8C
08/07/2025 07:41:21AM   can0  0CF00400   [8]  F0 7D 8C C0 12 FF FF 8C
08/07/2025 07:41:21AM   can0  18FEF100   [8]  C7 00 00 00 03 FF 00 FF
08/07/2025 07:41:21AM   can0  0CF00400   [8]  F0 7D 8C C0 12 FF FF 8C
08/07/2025 07:41:21AM   can0  0CF00400   [8]  F0 7D 8C B8 12 FF FF 8C
08/07/2025 07:41:21AM   can0  0CF00400   [8]  F0 7D 8C B7 12 FF FF 8C
08/07/2025 07:41:21AM   can0  0CF00400   [8]  F0 7D 8C B6 12 FF FF 8C
08/07/2025 07:41:22AM   can0  0CF00400   [8]  F0 7D 8C BC 12 FF FF 8C
08/07/2025 07:41:22AM   can0  18FEF100   [8]  C7 00 00 00 03 FF 00 FF
08/07/2025 07:41:22AM   can0  0CF00400   [8]  F0 7D 8C B8 12 FF FF 8C
08/07/2025 07:41:22AM   can0  0CF00400   [8]  F0 7D 8C B6 12 FF FF 8C
08/07/2025 07:41:22AM   can0  0CF00400   [8]  F0 7D 8C C8 12 FF FF 8C
08/07/2025 07:41:22AM   can0  0CF00400   [8]  F0 7D 8C C2 12 FF FF 8C
08/07/2025 07:41:22AM   can0  0CF00400   [8]  F0 7D 8C C0 12 FF FF 8C
08/07/2025 07:41:22AM   can0  18FEF100   [8]  C7 00 00 00 03 FF 00 FF
08/07/2025 07:41:22AM   can0  0CF00400   [8]  F0 7D 8C C4 12 FF FF 8C
08/07/2025 07:41:22AM   can0  0CF00400   [8]  F0 7D 8C BD 12 FF FF 8C
08/07/2025 07:41:22AM   can0  0CF00400   [8]  F0 7D 8C BD 12 FF FF 8C
08/07/2025 07:41:22AM   can0  0CF00400   [8]  F0 7D 8C BE 12 FF FF 8C
08/07/2025 07:41:22AM   can0  0CF00400   [8]  F0 7D 8C C3 12 FF FF 8C
08/07/2025 07:41:22AM   can0  18FEF100   [8]  C7 00 00 00 03 FF 00 FF
08/07/2025 07:41:22AM   can0  0CF00400   [8]  F0 7D 8C BE 12 FF FF 8C
08/07/2025 07:41:22AM   can0  0CF00400   [8]  F0 7D 8C BC 12 FF FF 8C
08/07/2025 07:41:22AM   can0  0CF00400   [8]  F0 7D 8B CE 12 FF FF 8B
08/07/2025 07:41:22AM   can0  0CF00400   [8]  F0 7D 8C C8 12 FF FF 8C
08/07/2025 07:41:22AM   can0  0CF00400   [8]  F0 7D 8C C6 12 FF FF 8C
08/07/2025 07:41:22AM   can0  18FEF100   [8]  C7 00 00 00 03 FF 00 FF
08/07/2025 07:41:22AM   can0  0CF00400   [8]  F0 7D 8B C8 12 FF FF 8C
08/07/2025 07:41:22AM   can0  0CF00400   [8]  F0 7D 8C C3 12 FF FF 8C
08/07/2025 07:41:22AM   can0  0CF00400   [8]  F0 7D 8C C5 12 FF FF 8C
08/07/2025 07:41:22AM   can0  0CF00400   [8]  F0 7D 8C C7 12 FF FF 8B
08/07/2025 07:41:22AM   can0  0CF00400   [8]  F0 7D 8B CC 12 FF FF 8B
08/07/2025 07:41:22AM   can0  18FEF100   [8]  C7 00 00 00 03 FF 00 FF
08/07/2025 07:41:22AM   can0  0CF00400   [8]  F0 7D 8B C4 12 FF FF 8C
08/07/2025 07:41:22AM   can0  0CF00400   [8]  F0 7D 8C C3 12 FF FF 8C
08/07/2025 07:41:22AM   can0  0CF00400   [8]  F0 7D 8B D2 12 FF FF 8B
08/07/2025 07:41:22AM   can0  0CF00400   [8]  F0 7D 8B CC 12 FF FF 8B
08/07/2025 07:41:22AM   can0  0CF00400   [8]  F0 7D 8C C8 12 FF FF 8B
08/07/2025 07:41:22AM   can0  18FEF100   [8]  C7 00 00 00 03 FF 00 FF
08/07/2025 07:41:22AM   can0  0CF00400   [8]  F0 7D 8B C8 12 FF FF 8B
08/07/2025 07:41:22AM   can0  0CF00400   [8]  F0 7D 8C BE 12 FF FF 8C
08/07/2025 07:41:22AM   can0  0CF00400   [8]  F0 7D 8C BD 12 FF FF 8C
08/07/2025 07:41:22AM   can0  0CF00400   [8]  F0 7D 8C BA 12 FF FF 8C
08/07/2025 07:41:22AM   can0  0CF00400   [8]  F0 7D 8C BE 12 FF FF 8C
08/07/2025 07:41:22AM   can0  18FEF100   [8]  C7 00 00 00 03 FF 00 FF
08/07/2025 07:41:22AM   can0  0CF00400   [8]  F0 7D 8C B7 12 FF FF 8C
08/07/2025 07:41:22AM   can0  0CF00400   [8]  F0 7D 8C B5 12 FF FF 8C
08/07/2025 07:41:22AM   can0  0CF00400   [8]  F0 7D 8C C5 12 FF FF 8B
08/07/2025 07:41:22AM   can0  0CF00400   [8]  F0 7D 8C C0 12 FF FF 8C
08/07/2025 07:41:22AM   can0  0CF00400   [8]  F0 7D 8C BC 12 FF FF 8C
08/07/2025 07:41:22AM   can0  18FEF100   [8]  C7 00 00 00 03 FF 00 FF
08/07/2025 07:41:22AM   can0  0CF00400   [8]  F0 7D 8C BE 12 FF FF 8C
08/07/2025 07:41:22AM   can0  0CF00400   [8]  F0 7D 8C B7 12 FF FF 8C
08/07/2025 07:41:22AM   can0  0CF00400   [8]  F0 7D 8C B8 12 FF FF 8C
08/07/2025 07:41:22AM   can0  0CF00400   [8]  F0 7D 8C B6 12 FF FF 8C
08/07/2025 07:41:22AM   can0  0CF00400   [8]  F0 7D 8C BC 12 FF FF 8C
08/07/2025 07:41:22AM   can0  18FEF100   [8]  C7 00 00 00 03 FF 00 FF
08/07/2025 07:41:22AM   can0  0CF00400   [8]  F0 7D 8C B8 12 FF FF 8C
08/07/2025 07:41:22AM   can0  0CF00400   [8]  F0 7D 8C B8 12 FF FF 8C
08/07/2025 07:41:22AM   can0  0CF00400   [8]  F0 7D 8C CB 12 FF FF 8B
08/07/2025 07:41:22AM   can0  0CF00400   [8]  F0 7D 8C C5 12 FF FF 8C
08/07/2025 07:41:22AM   can0  0CF00400   [8]  F0 7D 8C C4 12 FF FF 8C
08/07/2025 07:41:22AM   can0  18FEF100   [8]  C7 00 00 00 03 FF 00 FF
08/07/2025 07:41:22AM   can0  0CF00400   [8]  F0 7D 8B C8 12 FF FF 8C
08/07/2025 07:41:22AM   can0  0CF00400   [8]  F0 7D 8C C0 12 FF FF 8C
08/07/2025 07:41:22AM   can0  0CF00400   [8]  F0 7D 8C C1 12 FF FF 8C
08/07/2025 07:41:22AM   can0  0CF00400   [8]  F0 7D 8C C2 12 FF FF 8C
08/07/2025 07:41:23AM   can0  0CF00400   [8]  F0 7D 8B C8 12 FF FF 8B
08/07/2025 07:41:23AM   can0  18FEF100   [8]  C7 00 00 00 03 FF 00 FF
08/07/2025 07:41:23AM   can0  0CF00400   [8]  F0 7D 8B C4 12 FF FF 8B
08/07/2025 07:41:23AM   can0  0CF00400   [8]  F0 7D 8C C3 12 FF FF 8C
08/07/2025 07:41:23AM   can0  0CF00400   [8]  F0 7D 8B D4 12 FF FF 8B
08/07/2025 07:41:23AM   can0  0CF00400   [8]  F0 7D 8B CC 12 FF FF 8B
08/07/2025 07:41:23AM   can0  0CF00400   [8]  F0 7D 8B CA 12 FF FF 8B
08/07/2025 07:41:23AM   can0  18FEF100   [8]  C7 00 00 00 03 FF 00 FF
08/07/2025 07:41:23AM   can0  0CF00400   [8]  F0 7D 8B CA 12 FF FF 8B
08/07/2025 07:41:23AM   can0  0CF00400   [8]  F0 7D 8C C1 12 FF FF 8B
08/07/2025 07:41:23AM   can0  0CF00400   [8]  F0 7D 8B C0 12 FF FF 8C
08/07/2025 07:41:23AM   can0  0CF00400   [8]  F0 7D 8C C0 12 FF FF 8B
08/07/2025 07:41:23AM   can0  0CF00400   [8]  F0 7D 8B C5 12 FF FF 8B
08/07/2025 07:41:23AM   can0  18FEF100   [8]  C7 00 00 00 03 FF 00 FF
08/07/2025 07:41:23AM   can0  0CF00400   [8]  F0 7D 8B C0 12 FF FF 8C
08/07/2025 07:41:23AM   can0  0CF00400   [8]  F0 7D 8C BF 12 FF FF 8C
08/07/2025 07:41:23AM   can0  0CF00400   [8]  F0 7D 8B CE 12 FF FF 8B
08/07/2025 07:41:23AM   can0  0CF00400   [8]  F0 7D 8B C7 12 FF FF 8B
08/07/2025 07:41:23AM   can0  0CF00400   [8]  F0 7D 8C C2 12 FF FF 8C
08/07/2025 07:41:23AM   can0  18FEF100   [8]  C7 00 00 00 03 FF 00 FF
08/07/2025 07:41:23AM   can0  0CF00400   [8]  F0 7D 8B C2 12 FF FF 8C
08/07/2025 07:41:23AM   can0  0CF00400   [8]  F0 7D 8C B8 12 FF FF 8C
08/07/2025 07:41:23AM   can0  0CF00400   [8]  F0 7D 8C BA 12 FF FF 8C
08/07/2025 07:41:23AM   can0  0CF00400   [8]  F0 7D 8C B9 12 FF FF 8C
08/07/2025 07:41:23AM   can0  0CF00400   [8]  F0 7D 8B C0 12 FF FF 8C
08/07/2025 07:41:23AM   can0  18FEF100   [8]  C7 00 00 00 03 FF 00 FF
08/07/2025 07:41:23AM   can0  0CF00400   [8]  F0 7D 8B BC 12 FF FF 8C
08/07/2025 07:41:23AM   can0  0CF00400   [8]  F0 7D 8C B9 12 FF FF 8C
08/07/2025 07:41:23AM   can0  0CF00400   [8]  F0 7D 8B C7 12 FF FF 8B
08/07/2025 07:41:23AM   can0  0CF00400   [8]  F0 7D 8C C0 12 FF FF 8C
08/07/2025 07:41:23AM   can0  0CF00400   [8]  F0 7D 8C BC 12 FF FF 8C
08/07/2025 07:41:23AM   can0  18FEF100   [8]  C7 00 00 00 03 FF 00 FF
08/07/2025 07:41:23AM   can0  0CF00400   [8]  F0 7D 8C BE 12 FF FF 8C
08/07/2025 07:41:23AM   can0  0CF00400   [8]  F0 7D 8C B5 12 FF FF 8C
08/07/2025 07:41:23AM   can0  0CF00400   [8]  FF 7D 7D B5 12 FF FF 7D
08/07/2025 07:41:23AM   can0  0CF00400   [8]  FF 7D 7D AC 12 FF FF 7D
08/07/2025 07:41:23AM   can0  0CF00400   [8]  FF 7D 7D 69 12 FF FF 7D
08/07/2025 07:41:23AM   can0  18FEF100   [8]  C7 00 00 00 03 FF 00 FF
08/07/2025 07:41:23AM   can0  0CF00400   [8]  FF 7D 7D 0D 12 FF FF 7D
08/07/2025 07:41:23AM   can0  0CF00400   [8]  FF 7D 7D B1 11 FF FF 7D
08/07/2025 07:41:23AM   can0  0CF00400   [8]  FF 7D 7D 5C 11 FF FF 7D
08/07/2025 07:41:23AM   can0  0CF00400   [8]  FF 7D 7D F1 10 FF FF 7D
08/07/2025 07:41:23AM   can0  0CF00400   [8]  FF 7D 7D 90 10 FF FF 7D
08/07/2025 07:41:23AM   can0  18FEF100   [8]  C7 00 00 00 03 FF 00 FF
08/07/2025 07:41:23AM   can0  0CF00400   [8]  FF 7D 7D 32 10 FF FF 7D
08/07/2025 07:41:23AM   can0  0CF00400   [8]  FF 7D 7D D1 0F FF FF 7D
08/07/2025 07:41:23AM   can0  0CF00400   [8]  FF 7D 7D 78 0F FF FF 7D
08/07/2025 07:41:23AM   can0  0CF00400   [8]  FF 7D 7D 24 0F FF FF 7D
08/07/2025 07:41:23AM   can0  0CF00400   [8]  FF 7D 7D CB 0E FF FF 7D
08/07/2025 07:41:23AM   can0  18FEF100   [8]  C7 00 00 00 03 FF 00 FF
08/07/2025 07:41:23AM   can0  0CF00400   [8]  FF 7D 7D 7C 0E FF FF 7D
08/07/2025 07:41:23AM   can0  0CF00400   [8]  FF 7D 7D 32 0E FF FF 7D
08/07/2025 07:41:23AM   can0  0CF00400   [8]  FF 7D 7D D9 0D FF FF 7D
08/07/2025 07:41:23AM   can0  0CF00400   [8]  FF 7D 7D 87 0D FF FF 7D
08/07/2025 07:41:23AM   can0  0CF00400   [8]  FF 7D 7D 38 0D FF FF 7D
08/07/2025 07:41:23AM   can0  18FEF100   [8]  C7 00 00 00 03 FF 00 FF
08/07/2025 07:41:23AM   can0  0CF00400   [8]  FF 7D 7D 00 0D FF FF 7D
08/07/2025 07:41:23AM   can0  0CF00400   [8]  FF 7D 7D A1 0C FF FF 7D
08/07/2025 07:41:23AM   can0  0CF00400   [8]  FF 7D 7D 53 0C FF FF 7D
08/07/2025 07:41:23AM   can0  0CF00400   [8]  FF 7D 7D F4 0B FF FF 7D
08/07/2025 07:41:24AM   can0  0CF00400   [8]  FF 7D 7D A8 0B FF FF 7D
08/07/2025 07:41:24AM   can0  18FEF100   [8]  C7 00 00 00 03 FF 00 FF
08/07/2025 07:41:24AM   can0  0CF00400   [8]  FF 7D 7D 57 0B FF FF 7D
08/07/2025 07:41:24AM   can0  0CF00400   [8]  FF 7D 7D 08 0B FF FF 7D
08/07/2025 07:41:24AM   can0  0CF00400   [8]  FF 7D 7D BD 0A FF FF 7D
08/07/2025 07:41:24AM   can0  0CF00400   [8]  FF 7D 7D 74 0A FF FF 7D
08/07/2025 07:41:24AM   can0  0CF00400   [8]  FF 7D 7D 32 0A FF FF 7D
08/07/2025 07:41:24AM   can0  18FEF100   [8]  C7 00 00 00 03 FF 00 FF
08/07/2025 07:41:24AM   can0  0CF00400   [8]  FF 7D 7D E9 09 FF FF 7D
08/07/2025 07:41:24AM   can0  0CF00400   [8]  FF 7D 7D A9 09 FF FF 7D
08/07/2025 07:41:24AM   can0  0CF00400   [8]  FF 7D 7D 68 09 FF FF 7D
08/07/2025 07:41:24AM   can0  0CF00400   [8]  FF 7D 7D 36 09 FF FF 7D
08/07/2025 07:41:24AM   can0  0CF00400   [8]  FF 7D 7D F4 08 FF FF 7D
08/07/2025 07:41:24AM   can0  18FEF100   [8]  C7 00 00 00 03 FF 00 FF
08/07/2025 07:41:24AM   can0  0CF00400   [8]  FF 7D 7D A0 08 FF FF 7D
08/07/2025 07:41:24AM   can0  0CF00400   [8]  FF 7D 7D 5C 08 FF FF 7D
08/07/2025 07:41:24AM   can0  0CF00400   [8]  FF 7D 7D 22 08 FF FF 7D
08/07/2025 07:41:24AM   can0  0CF00400   [8]  FF 7D 7D EA 07 FF FF 7D
08/07/2025 07:41:24AM   can0  0CF00400   [8]  FF 7D 7D C7 07 FF FF 7D
08/07/2025 07:41:24AM   can0  18FEF100   [8]  F7 00 00 00 FF FF 00 FF
08/07/2025 07:41:24AM   can0  0CF00400   [8]  FF 7D 7D 79 07 FF FF 7D
08/07/2025 07:41:24AM   can0  0CF00400   [8]  FF 7D 7D 30 07 FF FF 7D
08/07/2025 07:41:24AM   can0  0CF00400   [8]  FF 7D 7D F5 06 FF FF 7D
08/07/2025 07:41:24AM   can0  0CF00400   [8]  FF 7D 7D B1 06 FF FF 7D
08/07/2025 07:41:24AM   can0  0CF00400   [8]  FF 7D 7D 72 06 FF FF 7D
08/07/2025 07:41:24AM   can0  18FEF100   [8]  F7 00 00 00 FF FF 00 FF
08/07/2025 07:41:24AM   can0  0CF00400   [8]  FF 7D 7D 2B 06 FF FF 7D
08/07/2025 07:41:24AM   can0  0CF00400   [8]  FF 7D 7D D9 05 FF FF 7D
08/07/2025 07:41:24AM   can0  0CF00400   [8]  FF 7D 7D AC 05 FF FF 7D
08/07/2025 07:41:24AM   can0  0CF00400   [8]  FF 7D 7D 67 05 FF FF 7D
08/07/2025 07:41:24AM   can0  0CF00400   [8]  FF 7D 7D 38 05 FF FF 7D
08/07/2025 07:41:24AM   can0  18FEF100   [8]  F7 00 00 00 FF FF 00 FF
08/07/2025 07:41:24AM   can0  0CF00400   [8]  FF 7D 7D 0C 05 FF FF 7D
08/07/2025 07:41:24AM   can0  0CF00400   [8]  FF 7D 7D D8 04 FF FF 7D
08/07/2025 07:41:24AM   can0  0CF00400   [8]  FF 7D 7D A7 04 FF FF 7D
08/07/2025 07:41:24AM   can0  0CF00400   [8]  FF 7D 7D 56 04 FF FF 7D
08/07/2025 07:41:24AM   can0  0CF00400   [8]  FF 7D 7D 09 04 FF FF 7D
08/07/2025 07:41:24AM   can0  18FEF100   [8]  F7 00 00 00 FF FF 00 FF
08/07/2025 07:41:24AM   can0  0CF00400   [8]  FF 7D 7D 09 04 FF FF 7D
08/07/2025 07:41:24AM   can0  0CF00400   [8]  FF 7D 7D 00 00 FF FF 7D
08/07/2025 07:41:24AM   can0  0CF00400   [8]  FF 7D 7D 00 00 FF FF 7D
08/07/2025 07:41:24AM   can0  0CF00400   [8]  FF 7D 7D 00 00 FF FF 7D
08/07/2025 07:41:24AM   can0  0CF00400   [8]  FF 7D 7D 00 00 FF FF 7D
08/07/2025 07:41:24AM   can0  18FEF100   [8]  F7 00 00 00 FF FF 00 FF
08/07/2025 07:41:24AM   can0  0CF00400   [8]  FF 7D 7D 00 00 FF FF 7D
08/07/2025 07:41:24AM   can0  0CF00400   [8]  FF 7D 7D 00 00 FF FF 7D
08/07/2025 07:41:24AM   can0  0CF00400   [8]  FF 7D 7D 00 00 FF FF 7D
08/07/2025 07:41:24AM   can0  0CF00400   [8]  FF 7D 7D 00 00 FF FF 7D
08/07/2025 07:41:24AM   can0  0CF00400   [8]  FF 7D 7D 00 00 FF FF 7D
08/07/2025 07:41:24AM   can0  18FEF100   [8]  F7 00 00 00 FF FF 00 FF
08/07/2025 07:41:24AM   can0  0CF00400   [8]  FF 7D 7D 00 00 FF FF 7D
08/07/2025 07:41:24AM   can0  0CF00400   [8]  FF 7D 7D 00 00 FF FF 7D
08/07/2025 07:41:24AM   can0  0CF00400   [8]  FF 7D 7D 00 00 FF FF 7D
08/07/2025 07:41:24AM   can0  0CF00400   [8]  FF 7D 7D 00 00 FF FF 7D
08/07/2025 07:41:24AM   can0  0CF00400   [8]  FF 7D 7D 00 00 FF FF 7D
08/07/2025 07:41:24AM   can0  18FEF100   [8]  F7 00 00 00 FF FF 00 FF
08/07/2025 07:41:24AM   can0  0CF00400   [8]  FF 7D 7D 00 00 FF FF 7D
08/07/2025 07:41:24AM   can0  0CF00400   [8]  FF 7D 7D 00 00 FF FF 7D
08/07/2025 07:41:24AM   can0  0CF00400   [8]  FF 7D 7D 00 00 FF FF 7D
08/07/2025 07:41:24AM   can0  0CF00400   [8]  FF 7D 7D 00 00 FF FF 7D
08/07/2025 07:41:25AM   can0  0CF00400   [8]  FF 7D 7D 00 00 FF FF 7D
08/07/2025 07:41:25AM   can0  18FEF100   [8]  F7 00 00 00 FF FF 00 FF
08/07/2025 07:41:25AM   can0  0CF00400   [8]  FF 7D 7D 00 00 FF FF 7D
08/07/2025 07:41:25AM   can0  0CF00400   [8]  FF 7D 7D 00 00 FF FF 7D
08/07/2025 07:41:25AM   can0  0CF00400   [8]  FF 7D 7D A4 01 FF FF 7D
08/07/2025 07:41:25AM   can0  0CF00400   [8]  FF 7D 7D CA 01 FF FF 7D
08/07/2025 07:41:25AM   can0  0CF00400   [8]  FF 7D 7D D7 01 FF FF 7D
08/07/2025 07:41:25AM   can0  18FEF100   [8]  F7 00 00 00 FF FF 00 FF
08/07/2025 07:41:25AM   can0  0CF00400   [8]  FF 7D 7D DF 01 FF FF 7D
08/07/2025 07:41:25AM   can0  0CF00400   [8]  FF 7D 7D E2 01 FF FF 7D
08/07/2025 07:41:25AM   can0  0CF00400   [8]  FF 7D 7D DF 01 FF FF 7D
08/07/2025 07:41:25AM   can0  0CF00400   [8]  FF 7D 7D D4 01 FF FF 7D
08/07/2025 07:41:25AM   can0  0CF00400   [8]  FF 7D 7D B9 01 FF FF 7D
08/07/2025 07:41:25AM   can0  18FEF100   [8]  F7 00 00 30 FF FF 00 FF
08/07/2025 07:41:25AM   can0  0CF00400   [8]  FF 7D 7D B9 01 FF FF 7D
08/07/2025 07:41:25AM   can0  0CF00400   [8]  FF 7D 7D 00 00 FF FF 7D
08/07/2025 07:41:25AM   can0  0CF00400   [8]  FF 7D 7D 00 00 FF FF 7D
08/07/2025 07:41:25AM   can0  0CF00400   [8]  FF 7D 7D 00 00 FF FF 7D
08/07/2025 07:41:25AM   can0  0CF00400   [8]  FF 7D 7D 00 00 FF FF 7D
08/07/2025 07:41:25AM   can0  18FEF100   [8]  F7 00 00 30 FF FF 00 FF
08/07/2025 07:41:25AM   can0  0CF00400   [8]  FF 7D 7D 00 00 FF FF 7D
08/07/2025 07:41:25AM   can0  0CF00400   [8]  FF 7D 7D 00 00 FF FF 7D
08/07/2025 07:41:25AM   can0  0CF00400   [8]  FF 7D 7D 00 00 FF FF 7D
08/07/2025 07:41:25AM   can0  0CF00400   [8]  FF 7D 7D 00 00 FF FF 7D
08/07/2025 07:41:25AM   can0  0CF00400   [8]  FF 7D 7D 00 00 FF FF 7D
08/07/2025 07:41:25AM   can0  18FEF100   [8]  F7 00 00 30 FF FF 00 FF
08/07/2025 07:41:25AM   can0  0CF00400   [8]  FF 7D 7D 00 00 FF FF 7D
08/07/2025 07:41:25AM   can0  0CF00400   [8]  FF 7D 7D 00 00 FF FF 7D
08/07/2025 07:41:25AM   can0  0CF00400   [8]  FF 7D 7D 00 00 FF FF 7D
08/07/2025 07:41:25AM   can0  0CF00400   [8]  FF 7D 7D 00 00 FF FF 7D
08/07/2025 07:41:25AM   can0  0CF00400   [8]  FF 7D 7D 00 00 FF FF 7D
08/07/2025 07:41:25AM   can0  18FEF100   [8]  F7 00 00 30 FF FF 00 FF
08/07/2025 07:41:25AM   can0  0CF00400   [8]  FF 7D 7D 00 00 FF FF 7D
08/07/2025 07:41:25AM   can0  0CF00400   [8]  FF 7D 7D 00 00 FF FF 7D
08/07/2025 07:41:25AM   can0  0CF00400   [8]  FF 7D 7D 00 00 FF FF 7D
08/07/2025 07:41:25AM   can0  0CF00400   [8]  FF 7D 7D 00 00 FF FF 7D
08/07/2025 07:41:25AM   can0  0CF00400   [8]  FF 7D 7D 00 00 FF FF 7D
08/07/2025 07:41:25AM   can0  18FEF100   [8]  F7 00 00 30 FF FF 00 FF
08/07/2025 07:41:25AM   can0  0CF00400   [8]  FF 7D 7D 00 00 FF FF 7D
08/07/2025 07:41:25AM   can0  0CF00400   [8]  FF 7D 7D 00 00 FF FF 7D
08/07/2025 07:41:25AM   can0  0CF00400   [8]  FF 7D 7D 00 00 FF FF 7D
08/07/2025 07:41:25AM   can0  0CF00400   [8]  FF 7D 7D 00 00 FF FF 7D
08/07/2025 07:41:25AM   can0  0CF00400   [8]  FF 7D 7D 00 00 FF FF 7D
08/07/2025 07:41:25AM   can0  18FEF100   [8]  F7 00 00 30 FF FF 00 FF
08/07/2025 07:41:25AM   can0  0CF00400   [8]  FF 7D 7D 00 00 FF FF 7D
08/07/2025 07:41:25AM   can0  0CF00400   [8]  FF 7D 7D 00 00 FF FF 7D
08/07/2025 07:41:25AM   can0  0CF00400   [8]  FF 7D 7D 00 00 FF FF 7D
08/07/2025 07:41:25AM   can0  0CF00400   [8]  FF 7D 7D 00 00 FF FF 7D
08/07/2025 07:41:25AM   can0  0CF00400   [8]  FF 7D 7D 00 00 FF FF 7D
08/07/2025 07:41:25AM   can0  18FEF100   [8]  F7 00 00 30 FF FF 00 FF
08/07/2025 07:41:25AM   can0  0CF00400   [8]  FF 7D 7D 00 00 FF FF 7D
08/07/2025 07:41:25AM   can0  0CF00400   [8]  FF 7D 7D 00 00 FF FF 7D
08/07/2025 07:41:25AM   can0  0CF00400   [8]  FF 7D 7D 00 00 FF FF 7D
08/07/2025 07:41:25AM   can0  0CF00400   [8]  FF 7D 7D 00 00 FF FF 7D
08/07/2025 07:41:25AM   can0  0CF00400   [8]  FF 7D 7D 00 00 FF FF 7D
08/07/2025 07:41:25AM   can0  18FEF100   [8]  F7 00 00 30 FF FF 00 FF
08/07/2025 07:41:25AM   can0  0CF00400   [8]  FF 7D 7D 00 00 FF FF 7D
08/07/2025 07:41:25AM   can0  0CF00400   [8]  FF 7D 7D 00 00 FF FF 7D
08/07/2025 07:41:25AM   can0  0CF00400   [8]  FF 7D 7D 00 00 FF FF 7D
08/07/2025 07:41:25AM   can0  0CF00400   [8]  FF 7D 7D 00 00 FF FF 7D
08/07/2025 07:41:26AM   can0  0CF00400   [8]  FF 7D 7D 00 00 FF FF 7D
08/07/2025 07:41:26AM   can0  18FEF100   [8]  F7 00 00 30 FF FF 00 FF
08/07/2025 07:41:26AM   can0  0CF00400   [8]  FF 7D 7D 00 00 FF FF 7D
08/07/2025 07:41:26AM   can0  0CF00400   [8]  FF 7D 7D 00 00 FF FF 7D
08/07/2025 07:41:26AM   can0  0CF00400   [8]  FF 7D 7D 00 00 FF FF 7D
08/07/2025 07:41:26AM   can0  0CF00400   [8]  FF 7D 7D 00 00 FF FF 7D
08/07/2025 07:41:26AM   can0  0CF00400   [8]  FF 7D 7D 00 00 FF FF 7D
08/07/2025 07:41:26AM   can0  18FEF100   [8]  F7 00 00 30 FF FF 00 FF
08/07/2025 07:41:26AM   can0  0CF00400   [8]  FF 7D 7D 00 00 FF FF 7D
08/07/2025 07:41:26AM   can0  0CF00400   [8]  FF 7D 7D 00 00 FF FF 7D
08/07/2025 07:41:26AM   can0  0CF00400   [8]  FF 7D 7D 00 00 FF FF 7D
08/07/2025 07:41:26AM   can0  0CF00400   [8]  FF 7D 7D 00 00 FF FF 7D
08/07/2025 07:41:26AM   can0  0CF00400   [8]  FF 7D 7D 00 00 FF FF 7D
08/07/2025 07:41:26AM   can0  18FEF100   [8]  F7 00 00 30 FF FF 00 FF
08/07/2025 07:41:26AM   can0  0CF00400   [8]  FF 7D 7D 00 00 FF FF 7D
08/07/2025 07:41:26AM   can0  0CF00400   [8]  FF 7D 7D 00 00 FF FF 7D
08/07/2025 07:41:26AM   can0  0CF00400   [8]  FF 7D 7D 00 00 FF FF 7D
08/07/2025 07:41:26AM   can0  0CF00400   [8]  FF 7D 7D 00 00 FF FF 7D
08/07/2025 07:41:26AM   can0  0CF00400   [8]  FF 7D 7D 00 00 FF FF 7D
08/07/2025 07:41:26AM   can0  18FEF100   [8]  F7 00 00 30 FF FF 00 FF
08/07/2025 07:41:26AM   can0  0CF00400   [8]  FF 7D 7D 00 00 FF FF 7D
08/07/2025 07:41:26AM   can0  0CF00400   [8]  FF 7D 7D 00 00 FF FF 7D
08/07/2025 07:41:26AM   can0  0CF00400   [8]  FF 7D 7D 00 00 FF FF 7D
08/07/2025 07:41:26AM   can0  0CF00400   [8]  FF 7D 7D 00 00 FF FF 7D
08/07/2025 07:41:26AM   can0  0CF00400   [8]  FF 7D 7D 00 00 FF FF 7D
08/07/2025 07:41:26AM   can0  18FEF100   [8]  F7 00 00 30 FF FF 00 FF
