CAN;08/07/2025 12:21:16PM;DOBACK022;6;3;
08/07/2025 12:21:16PM   can0  0CF00400   [8]  F0 7D 8D D4 10 FF FF 8D
08/07/2025 12:21:16PM   can0  18FEF100   [8]  C3 2C 01 40 03 FF 00 FF
08/07/2025 12:21:16PM   can0  0CF00400   [8]  F0 7D 8E D0 10 FF FF 8D
08/07/2025 12:21:16PM   can0  0CF00400   [8]  F0 7D 8D D4 10 FF FF 8D
08/07/2025 12:21:16PM   can0  0CF00400   [8]  F0 7D 8D D7 10 FF FF 8D
08/07/2025 12:21:16PM   can0  0CF00400   [8]  F0 7D 8D EB 10 FF FF 8C
08/07/2025 12:21:16PM   can0  0CF00400   [8]  F0 7D 8C 04 11 FF FF 8B
08/07/2025 12:21:16PM   can0  18FEF100   [8]  C3 46 01 40 03 FF 00 FF
08/07/2025 12:21:16PM   can0  0CF00400   [8]  F0 7D 8C F6 10 FF FF 8C
08/07/2025 12:21:16PM   can0  0CF00400   [8]  F0 7D 8C 09 11 FF FF 8B
08/07/2025 12:21:16PM   can0  0CF00400   [8]  F0 7D 8B 00 11 FF FF 8B
08/07/2025 12:21:16PM   can0  0CF00400   [8]  F0 7D 8C F1 10 FF FF 8C
08/07/2025 12:21:16PM   can0  0CF00400   [8]  F0 7D 8C E8 10 FF FF 8C
08/07/2025 12:21:16PM   can0  18FEF100   [8]  C3 5E 01 40 03 FF 00 FF
08/07/2025 12:21:16PM   can0  0CF00400   [8]  F0 7D 8C E0 10 FF FF 8C
08/07/2025 12:21:16PM   can0  0CF00400   [8]  F0 7D 8D D4 10 FF FF 8D
08/07/2025 12:21:16PM   can0  0CF00400   [8]  F0 7D 8D D6 10 FF FF 8D
08/07/2025 12:21:16PM   can0  0CF00400   [8]  F0 7D 8D D2 10 FF FF 8D
08/07/2025 12:21:16PM   can0  0CF00400   [8]  F0 7D 8C E4 10 FF FF 8C
08/07/2025 12:21:16PM   can0  18FEF100   [8]  C3 75 01 40 03 FF 00 FF
08/07/2025 12:21:16PM   can0  0CF00400   [8]  F0 7D 8C FA 10 FF FF 8B
08/07/2025 12:21:16PM   can0  0CF00400   [8]  F0 7D 8B EF 10 FF FF 8C
08/07/2025 12:21:16PM   can0  0CF00400   [8]  F0 7D 8B FD 10 FF FF 8B
08/07/2025 12:21:16PM   can0  0CF00400   [8]  F0 7D 8A 03 11 FF FF 8B
08/07/2025 12:21:16PM   can0  0CF00400   [8]  F0 7D 8B 08 11 FF FF 8A
08/07/2025 12:21:16PM   can0  18FEF100   [8]  C3 8B 01 40 03 FF 00 FF
08/07/2025 12:21:16PM   can0  0CF00400   [8]  F0 7D 8A 14 11 FF FF 8A
08/07/2025 12:21:16PM   can0  0CF00400   [8]  F0 7D 89 2C 11 FF FF 89
08/07/2025 12:21:17PM   can0  0CF00400   [8]  F0 7D 89 41 11 FF FF 88
08/07/2025 12:21:17PM   can0  0CF00400   [8]  F0 7D 87 60 11 FF FF 86
08/07/2025 12:21:17PM   can0  0CF00400   [8]  F0 7D 86 77 11 FF FF 85
08/07/2025 12:21:17PM   can0  18FEF100   [8]  C3 A5 01 40 03 FF 00 FF
08/07/2025 12:21:17PM   can0  0CF00400   [8]  F0 7D 84 90 11 FF FF 84
08/07/2025 12:21:17PM   can0  0CF00400   [8]  F0 7D 83 A4 11 FF FF 83
08/07/2025 12:21:17PM   can0  0CF00400   [8]  F0 7D 83 98 11 FF FF 83
08/07/2025 12:21:17PM   can0  0CF00400   [8]  F0 7D 83 A0 11 FF FF 82
08/07/2025 12:21:17PM   can0  0CF00400   [8]  F0 7D 82 85 11 FF FF 82
08/07/2025 12:21:17PM   can0  18FEF100   [8]  C3 BD 01 40 03 FF 00 FF
08/07/2025 12:21:17PM   can0  0CF00400   [8]  F0 7D 83 6B 11 FF FF 83
08/07/2025 12:21:17PM   can0  0CF00400   [8]  F0 7D 84 50 11 FF FF 84
08/07/2025 12:21:17PM   can0  0CF00400   [8]  F0 7D 84 30 11 FF FF 85
08/07/2025 12:21:17PM   can0  0CF00400   [8]  F0 7D 85 13 11 FF FF 85
08/07/2025 12:21:17PM   can0  0CF00400   [8]  F0 7D 86 FC 10 FF FF 86
08/07/2025 12:21:17PM   can0  18FEF100   [8]  C3 C6 01 40 03 FF 00 FF
08/07/2025 12:21:17PM   can0  0CF00400   [8]  F0 7D 87 E8 10 FF FF 87
08/07/2025 12:21:17PM   can0  0CF00400   [8]  F0 7D 87 F1 10 FF FF 86
08/07/2025 12:21:17PM   can0  0CF00400   [8]  F0 7D 86 FC 10 FF FF 86
08/07/2025 12:21:17PM   can0  0CF00400   [8]  F0 7D 86 F6 10 FF FF 86
08/07/2025 12:21:17PM   can0  0CF00400   [8]  F0 7D 86 0E 11 FF FF 85
08/07/2025 12:21:17PM   can0  18FEF100   [8]  C3 C2 01 40 03 FF 00 FF
08/07/2025 12:21:17PM   can0  0CF00400   [8]  F0 7D 85 05 11 FF FF 85
08/07/2025 12:21:17PM   can0  0CF00400   [8]  F0 7D 85 04 11 FF FF 85
08/07/2025 12:21:17PM   can0  0CF00400   [8]  F0 7D 85 07 11 FF FF 85
08/07/2025 12:21:17PM   can0  0CF00400   [8]  F0 7D 85 FF 10 FF FF 85
08/07/2025 12:21:17PM   can0  0CF00400   [8]  F0 7D 86 F8 10 FF FF 85
08/07/2025 12:21:17PM   can0  18FEF100   [8]  C3 B8 01 40 03 FF 00 FF
08/07/2025 12:21:17PM   can0  0CF00400   [8]  F0 7D 85 F0 10 FF FF 86
08/07/2025 12:21:17PM   can0  0CF00400   [8]  F0 7D 86 E8 10 FF FF 86
08/07/2025 12:21:17PM   can0  0CF00400   [8]  F0 7D 86 EF 10 FF FF 86
08/07/2025 12:21:17PM   can0  0CF00400   [8]  F0 7D 85 F8 10 FF FF 85
08/07/2025 12:21:17PM   can0  0CF00400   [8]  F0 7D 86 E9 10 FF FF 86
08/07/2025 12:21:17PM   can0  18FEF100   [8]  C3 AF 01 40 03 FF 00 FF
08/07/2025 12:21:17PM   can0  0CF00400   [8]  F0 7D 86 02 11 FF FF 85
08/07/2025 12:21:17PM   can0  0CF00400   [8]  F0 7D 85 F4 10 FF FF 85
08/07/2025 12:21:17PM   can0  0CF00400   [8]  F0 7D 85 E9 10 FF FF 85
08/07/2025 12:21:17PM   can0  0CF00400   [8]  F0 7D 86 E4 10 FF FF 86
08/07/2025 12:21:17PM   can0  0CF00400   [8]  F0 7D 86 D5 10 FF FF 86
08/07/2025 12:21:17PM   can0  18FEF100   [8]  C3 B2 01 40 03 FF 00 FF
08/07/2025 12:21:17PM   can0  0CF00400   [8]  F0 7D 87 C6 10 FF FF 87
08/07/2025 12:21:17PM   can0  0CF00400   [8]  F0 7D 87 BC 10 FF FF 87
08/07/2025 12:21:17PM   can0  0CF00400   [8]  F0 7D 88 B2 10 FF FF 88
08/07/2025 12:21:17PM   can0  0CF00400   [8]  F0 7D 88 BC 10 FF FF 87
08/07/2025 12:21:17PM   can0  0CF00400   [8]  F0 7D 87 CB 10 FF FF 87
08/07/2025 12:21:17PM   can0  0CF00400   [8]  F0 7D 87 BB 10 FF FF 88
08/07/2025 12:21:17PM   can0  18FEF100   [8]  C3 C8 01 40 03 FF 00 FF
08/07/2025 12:21:17PM   can0  0CF00400   [8]  F0 7D 88 C4 10 FF FF 87
08/07/2025 12:21:17PM   can0  0CF00400   [8]  F0 7D 87 C0 10 FF FF 87
08/07/2025 12:21:17PM   can0  0CF00400   [8]  F0 7D 88 B9 10 FF FF 88
08/07/2025 12:21:17PM   can0  0CF00400   [8]  F0 7D 88 B2 10 FF FF 88
08/07/2025 12:21:17PM   can0  18FEF100   [8]  C3 E4 01 40 03 FF 00 FF
08/07/2025 12:21:17PM   can0  0CF00400   [8]  F0 7D 88 AE 10 FF FF 88
08/07/2025 12:21:17PM   can0  0CF00400   [8]  F0 7D 89 9C 10 FF FF 89
08/07/2025 12:21:17PM   can0  0CF00400   [8]  F0 7D 89 A8 10 FF FF 89
08/07/2025 12:21:17PM   can0  0CF00400   [8]  F0 7D 89 A4 10 FF FF 89
08/07/2025 12:21:17PM   can0  0CF00400   [8]  F0 7D 89 B6 10 FF FF 88
08/07/2025 12:21:17PM   can0  18FEF100   [8]  C3 FC 01 40 03 FF 00 FF
08/07/2025 12:21:17PM   can0  0CF00400   [8]  F0 7D 88 CB 10 FF FF 88
08/07/2025 12:21:17PM   can0  0CF00400   [8]  F0 7D 88 C6 10 FF FF 88
08/07/2025 12:21:18PM   can0  0CF00400   [8]  F0 7D 88 CC 10 FF FF 88
08/07/2025 12:21:18PM   can0  0CF00400   [8]  F0 7D 87 D8 10 FF FF 87
08/07/2025 12:21:18PM   can0  0CF00400   [8]  F0 7D 88 D0 10 FF FF 88
08/07/2025 12:21:18PM   can0  18FEF100   [8]  C3 06 02 40 03 FF 00 FF
08/07/2025 12:21:18PM   can0  0CF00400   [8]  F0 7D 88 C4 10 FF FF 88
08/07/2025 12:21:18PM   can0  0CF00400   [8]  F0 7D 88 C5 10 FF FF 88
08/07/2025 12:21:18PM   can0  0CF00400   [8]  F0 7D 89 AA 10 FF FF 89
08/07/2025 12:21:18PM   can0  0CF00400   [8]  F0 7D 89 B0 10 FF FF 89
08/07/2025 12:21:18PM   can0  0CF00400   [8]  F0 7D 89 A7 10 FF FF 8A
08/07/2025 12:21:18PM   can0  18FEF100   [8]  C3 F9 01 40 03 FF 00 FF
08/07/2025 12:21:18PM   can0  0CF00400   [8]  F0 7D 8A AF 10 FF FF 89
08/07/2025 12:21:18PM   can0  0CF00400   [8]  F0 7D 89 C0 10 FF FF 89
08/07/2025 12:21:18PM   can0  0CF00400   [8]  F0 7D 89 BC 10 FF FF 89
08/07/2025 12:21:18PM   can0  0CF00400   [8]  F0 7D 89 BC 10 FF FF 89
08/07/2025 12:21:18PM   can0  0CF00400   [8]  F0 7D 89 CF 10 FF FF 88
08/07/2025 12:21:18PM   can0  18FEF100   [8]  C3 E6 01 40 03 FF 00 FF
08/07/2025 12:21:18PM   can0  0CF00400   [8]  F0 7D 89 C0 10 FF FF 89
08/07/2025 12:21:18PM   can0  0CF00400   [8]  F0 7D 89 B6 10 FF FF 8A
08/07/2025 12:21:18PM   can0  0CF00400   [8]  F0 7D 89 BE 10 FF FF 89
08/07/2025 12:21:18PM   can0  0CF00400   [8]  F0 7D 89 AF 10 FF FF 8A
08/07/2025 12:21:18PM   can0  0CF00400   [8]  F0 7D 8A B7 10 FF FF 8A
08/07/2025 12:21:18PM   can0  18FEF100   [8]  C3 DE 01 40 03 FF 00 FF
08/07/2025 12:21:18PM   can0  0CF00400   [8]  F0 7D 8A B4 10 FF FF 8A
08/07/2025 12:21:18PM   can0  0CF00400   [8]  F0 7D 8A BC 10 FF FF 8A
08/07/2025 12:21:18PM   can0  0CF00400   [8]  F0 7D 89 D0 10 FF FF 89
08/07/2025 12:21:18PM   can0  0CF00400   [8]  F0 7D 88 D8 10 FF FF 89
08/07/2025 12:21:18PM   can0  0CF00400   [8]  F0 7D 89 D7 10 FF FF 89
08/07/2025 12:21:18PM   can0  18FEF100   [8]  C3 DF 01 40 03 FF 00 FF
08/07/2025 12:21:18PM   can0  0CF00400   [8]  F0 7D 89 F2 10 FF FF 88
08/07/2025 12:21:18PM   can0  0CF00400   [8]  F0 7D 88 E4 10 FF FF 88
08/07/2025 12:21:18PM   can0  0CF00400   [8]  F0 7D 88 DC 10 FF FF 89
08/07/2025 12:21:18PM   can0  0CF00400   [8]  F0 7D 88 E8 10 FF FF 88
08/07/2025 12:21:18PM   can0  0CF00400   [8]  F0 7D 88 DC 10 FF FF 89
08/07/2025 12:21:18PM   can0  18FEF100   [8]  C3 E4 01 40 03 FF 00 FF
08/07/2025 12:21:18PM   can0  0CF00400   [8]  F0 7D 89 E3 10 FF FF 88
08/07/2025 12:21:18PM   can0  0CF00400   [8]  F0 7D 88 E0 10 FF FF 88
08/07/2025 12:21:18PM   can0  0CF00400   [8]  F0 7D 88 E7 10 FF FF 88
08/07/2025 12:21:18PM   can0  0CF00400   [8]  F0 7D 88 F7 10 FF FF 88
08/07/2025 12:21:18PM   can0  0CF00400   [8]  F0 7D 87 00 11 FF FF 87
08/07/2025 12:21:18PM   can0  18FEF100   [8]  C3 ED 01 40 03 FF 00 FF
08/07/2025 12:21:18PM   can0  0CF00400   [8]  F0 7D 87 FA 10 FF FF 87
08/07/2025 12:21:18PM   can0  0CF00400   [8]  F0 7D 87 12 11 FF FF 86
08/07/2025 12:21:18PM   can0  0CF00400   [8]  F0 7D 87 00 11 FF FF 87
08/07/2025 12:21:18PM   can0  0CF00400   [8]  F0 7D 87 F4 10 FF FF 87
08/07/2025 12:21:18PM   can0  0CF00400   [8]  F0 7D 87 FA 10 FF FF 87
08/07/2025 12:21:18PM   can0  18FEF100   [8]  C3 FF 01 40 03 FF 00 FF
08/07/2025 12:21:18PM   can0  0CF00400   [8]  F0 7D 87 F3 10 FF FF 87
08/07/2025 12:21:18PM   can0  0CF00400   [8]  F0 7D 87 FC 10 FF FF 87
08/07/2025 12:21:18PM   can0  0CF00400   [8]  F0 7D 87 00 11 FF FF 87
08/07/2025 12:21:18PM   can0  0CF00400   [8]  F0 7D 86 15 11 FF FF 86
08/07/2025 12:21:18PM   can0  0CF00400   [8]  F0 7D 85 34 11 FF FF 84
08/07/2025 12:21:18PM   can0  18FEF100   [8]  C3 17 02 40 03 FF 00 FF
08/07/2025 12:21:18PM   can0  0CF00400   [8]  F0 7D 84 50 11 FF FF 83
08/07/2025 12:21:18PM   can0  0CF00400   [8]  F0 7D 83 54 11 FF FF 83
08/07/2025 12:21:18PM   can0  0CF00400   [8]  F0 7D 82 6F 11 FF FF 82
08/07/2025 12:21:18PM   can0  0CF00400   [8]  F0 7D 82 60 11 FF FF 82
08/07/2025 12:21:18PM   can0  0CF00400   [8]  F0 7D 82 4B 11 FF FF 82
08/07/2025 12:21:18PM   can0  18FEF100   [8]  C3 2E 02 40 03 FF 00 FF
08/07/2025 12:21:18PM   can0  0CF00400   [8]  F0 7D 82 44 11 FF FF 82
08/07/2025 12:21:18PM   can0  0CF00400   [8]  F0 7D 83 27 11 FF FF 83
08/07/2025 12:21:19PM   can0  0CF00400   [8]  F0 7D 84 18 11 FF FF 83
08/07/2025 12:21:19PM   can0  0CF00400   [8]  F0 7D 84 05 11 FF FF 84
08/07/2025 12:21:19PM   can0  0CF00400   [8]  F0 7D 84 FB 10 FF FF 84
08/07/2025 12:21:19PM   can0  18FEF100   [8]  C3 3D 02 40 03 FF 00 FF
08/07/2025 12:21:19PM   can0  0CF00400   [8]  F0 7D 84 FC 10 FF FF 84
08/07/2025 12:21:19PM   can0  0CF00400   [8]  F0 7D 84 F4 10 FF FF 85
08/07/2025 12:21:19PM   can0  0CF00400   [8]  F0 7D 85 ED 10 FF FF 85
08/07/2025 12:21:19PM   can0  0CF00400   [8]  F0 7D 85 01 11 FF FF 84
08/07/2025 12:21:19PM   can0  0CF00400   [8]  F0 7D 84 F2 10 FF FF 84
08/07/2025 12:21:19PM   can0  18FEF100   [8]  C3 42 02 50 03 FF 00 FF
08/07/2025 12:21:19PM   can0  0CF00400   [8]  F0 7D 84 E6 10 FF FF 85
08/07/2025 12:21:19PM   can0  0CF00400   [8]  F0 7D 85 EC 10 FF FF 85
08/07/2025 12:21:19PM   can0  0CF00400   [8]  F0 7D 85 DD 10 FF FF 85
08/07/2025 12:21:19PM   can0  0CF00400   [8]  F0 7D 85 E0 10 FF FF 85
08/07/2025 12:21:19PM   can0  0CF00400   [8]  F0 7D 85 DD 10 FF FF 85
08/07/2025 12:21:19PM   can0  18FEF100   [8]  C3 35 02 50 03 FF 00 FF
08/07/2025 12:21:19PM   can0  0CF00400   [8]  F0 7D 85 E0 10 FF FF 85
08/07/2025 12:21:19PM   can0  0CF00400   [8]  F0 7D 85 EE 10 FF FF 85
08/07/2025 12:21:19PM   can0  0CF00400   [8]  F0 7D 84 F7 10 FF FF 84
08/07/2025 12:21:19PM   can0  0CF00400   [8]  F0 7D 84 F6 10 FF FF 84
08/07/2025 12:21:19PM   can0  0CF00400   [8]  F0 7D 84 12 11 FF FF 83
08/07/2025 12:21:19PM   can0  18FEF100   [8]  C3 20 02 50 03 FF 00 FF
08/07/2025 12:21:19PM   can0  0CF00400   [8]  F0 7D 83 08 11 FF FF 83
08/07/2025 12:21:19PM   can0  0CF00400   [8]  F0 7D 83 00 11 FF FF 84
08/07/2025 12:21:19PM   can0  0CF00400   [8]  F0 7D 83 02 11 FF FF 83
08/07/2025 12:21:19PM   can0  0CF00400   [8]  F0 7D 83 F4 10 FF FF 84
08/07/2025 12:21:19PM   can0  0CF00400   [8]  F0 7D 84 EC 10 FF FF 84
08/07/2025 12:21:19PM   can0  18FEF100   [8]  C3 1C 02 50 03 FF 00 FF
08/07/2025 12:21:19PM   can0  0CF00400   [8]  F0 7D 84 E1 10 FF FF 84
08/07/2025 12:21:19PM   can0  0CF00400   [8]  F0 7D 85 DB 10 FF FF 85
08/07/2025 12:21:19PM   can0  0CF00400   [8]  F0 7D 84 E1 10 FF FF 84
08/07/2025 12:21:19PM   can0  0CF00400   [8]  F0 7D 84 E8 10 FF FF 84
08/07/2025 12:21:19PM   can0  0CF00400   [8]  F0 7D 84 E0 10 FF FF 84
08/07/2025 12:21:19PM   can0  18FEF100   [8]  C3 2D 02 50 03 FF 00 FF
08/07/2025 12:21:19PM   can0  0CF00400   [8]  F0 7D 84 FA 10 FF FF 84
08/07/2025 12:21:19PM   can0  0CF00400   [8]  F0 7D 84 ED 10 FF FF 84
08/07/2025 12:21:19PM   can0  0CF00400   [8]  F0 7D 84 E8 10 FF FF 84
08/07/2025 12:21:19PM   can0  0CF00400   [8]  F0 7D 84 E6 10 FF FF 84
08/07/2025 12:21:19PM   can0  0CF00400   [8]  F0 7D 84 DE 10 FF FF 84
08/07/2025 12:21:19PM   can0  18FEF100   [8]  C3 49 02 50 03 FF 00 FF
08/07/2025 12:21:19PM   can0  0CF00400   [8]  F0 7D 85 DC 10 FF FF 84
08/07/2025 12:21:19PM   can0  0CF00400   [8]  F0 7D 85 D8 10 FF FF 85
08/07/2025 12:21:19PM   can0  0CF00400   [8]  F0 7D 85 D9 10 FF FF 85
08/07/2025 12:21:19PM   can0  0CF00400   [8]  F0 7D 84 E4 10 FF FF 84
08/07/2025 12:21:19PM   can0  0CF00400   [8]  F0 7D 84 F3 10 FF FF 84
08/07/2025 12:21:19PM   can0  18FEF100   [8]  C3 53 02 50 03 FF 00 FF
08/07/2025 12:21:19PM   can0  0CF00400   [8]  F0 7D 84 EB 10 FF FF 84
08/07/2025 12:21:19PM   can0  0CF00400   [8]  F0 7D 84 03 11 FF FF 83
08/07/2025 12:21:19PM   can0  0CF00400   [8]  F0 7D 83 FE 10 FF FF 83
08/07/2025 12:21:19PM   can0  0CF00400   [8]  F0 7D 83 00 11 FF FF 83
08/07/2025 12:21:19PM   can0  0CF00400   [8]  F0 7D 83 04 11 FF FF 83
08/07/2025 12:21:19PM   can0  18FEF100   [8]  C3 3A 02 50 03 FF 00 FF
08/07/2025 12:21:19PM   can0  0CF00400   [8]  F0 7D 83 FF 10 FF FF 83
08/07/2025 12:21:19PM   can0  0CF00400   [8]  F0 7D 83 F9 10 FF FF 83
08/07/2025 12:21:19PM   can0  0CF00400   [8]  F0 7D 83 F4 10 FF FF 83
08/07/2025 12:21:19PM   can0  0CF00400   [8]  F0 7D 83 EF 10 FF FF 83
08/07/2025 12:21:19PM   can0  0CF00400   [8]  F0 7D 83 F5 10 FF FF 83
08/07/2025 12:21:19PM   can0  18FEF100   [8]  C3 13 02 50 03 FF 00 FF
08/07/2025 12:21:19PM   can0  0CF00400   [8]  F0 7D 83 FE 10 FF FF 83
08/07/2025 12:21:19PM   can0  0CF00400   [8]  F0 7D 83 ED 10 FF FF 83
08/07/2025 12:21:20PM   can0  0CF00400   [8]  F0 7D 83 F6 10 FF FF 83
08/07/2025 12:21:20PM   can0  0CF00400   [8]  F0 7D 83 E8 10 FF FF 83
08/07/2025 12:21:20PM   can0  0CF00400   [8]  F0 7D 83 E1 10 FF FF 84
08/07/2025 12:21:20PM   can0  18FEF100   [8]  C3 F0 01 50 03 FF 00 FF
08/07/2025 12:21:20PM   can0  0CF00400   [8]  F0 7D 84 DC 10 FF FF 84
08/07/2025 12:21:20PM   can0  0CF00400   [8]  F0 7D 84 D6 10 FF FF 84
08/07/2025 12:21:20PM   can0  0CF00400   [8]  F0 7D 85 CA 10 FF FF 84
08/07/2025 12:21:20PM   can0  0CF00400   [8]  F0 7D 84 CB 10 FF FF 85
08/07/2025 12:21:20PM   can0  0CF00400   [8]  F0 7D 85 C5 10 FF FF 85
08/07/2025 12:21:20PM   can0  18FEF100   [8]  C3 D6 01 50 03 FF 00 FF
08/07/2025 12:21:20PM   can0  0CF00400   [8]  F0 7D 85 D1 10 FF FF 84
08/07/2025 12:21:20PM   can0  0CF00400   [8]  F0 7D 84 E0 10 FF FF 84
08/07/2025 12:21:20PM   can0  0CF00400   [8]  F0 7D 84 D3 10 FF FF 84
08/07/2025 12:21:20PM   can0  0CF00400   [8]  F0 7D 84 E0 10 FF FF 84
08/07/2025 12:21:20PM   can0  0CF00400   [8]  F0 7D 83 E2 10 FF FF 84
08/07/2025 12:21:20PM   can0  18FEF100   [8]  C3 C6 01 50 03 FF 00 FF
08/07/2025 12:21:20PM   can0  0CF00400   [8]  F0 7D 84 E0 10 FF FF 84
08/07/2025 12:21:20PM   can0  0CF00400   [8]  F0 7D 84 DA 10 FF FF 84
08/07/2025 12:21:20PM   can0  0CF00400   [8]  F0 7D 84 D9 10 FF FF 84
08/07/2025 12:21:20PM   can0  0CF00400   [8]  F0 7D 84 C8 10 FF FF 85
08/07/2025 12:21:20PM   can0  0CF00400   [8]  F0 7D 85 CD 10 FF FF 85
08/07/2025 12:21:20PM   can0  18FEF100   [8]  C3 B8 01 50 03 FF 00 FF
08/07/2025 12:21:20PM   can0  0CF00400   [8]  F0 7D 85 C7 10 FF FF 85
08/07/2025 12:21:20PM   can0  0CF00400   [8]  F0 7D 85 D4 10 FF FF 84
08/07/2025 12:21:20PM   can0  0CF00400   [8]  F0 7D 84 E5 10 FF FF 84
08/07/2025 12:21:20PM   can0  0CF00400   [8]  F0 7D 84 DB 10 FF FF 84
08/07/2025 12:21:20PM   can0  0CF00400   [8]  F0 7D 84 E4 10 FF FF 84
08/07/2025 12:21:20PM   can0  18FEF100   [8]  C3 84 01 50 03 FF 00 FF
08/07/2025 12:21:20PM   can0  0CF00400   [8]  F0 7D 83 F2 10 FF FF 83
08/07/2025 12:21:20PM   can0  0CF00400   [8]  F0 7D 83 F0 10 FF FF 83
08/07/2025 12:21:20PM   can0  0CF00400   [8]  F0 7D 84 EC 10 FF FF 84
08/07/2025 12:21:20PM   can0  0CF00400   [8]  F0 7D 83 F0 10 FF FF 83
08/07/2025 12:21:20PM   can0  0CF00400   [8]  F0 7D 84 E0 10 FF FF 84
08/07/2025 12:21:20PM   can0  18FEF100   [8]  C3 39 01 50 03 FF 00 FF
08/07/2025 12:21:20PM   can0  0CF00400   [8]  F0 7D 84 E5 10 FF FF 84
08/07/2025 12:21:20PM   can0  0CF00400   [8]  F0 7D 84 DE 10 FF FF 84
08/07/2025 12:21:20PM   can0  0CF00400   [8]  F0 7D 84 E8 10 FF FF 84
08/07/2025 12:21:20PM   can0  0CF00400   [8]  F0 7D 84 F3 10 FF FF 83
08/07/2025 12:21:20PM   can0  0CF00400   [8]  F0 7D 83 E8 10 FF FF 84
08/07/2025 12:21:20PM   can0  18FEF100   [8]  C3 F3 00 50 03 FF 00 FF
08/07/2025 12:21:20PM   can0  0CF00400   [8]  F0 7D 84 E8 10 FF FF 83
08/07/2025 12:21:20PM   can0  0CF00400   [8]  F0 7D 83 F2 10 FF FF 83
08/07/2025 12:21:20PM   can0  0CF00400   [8]  F0 7D 83 EC 10 FF FF 83
08/07/2025 12:21:20PM   can0  0CF00400   [8]  F0 7D 83 E8 10 FF FF 83
08/07/2025 12:21:20PM   can0  0CF00400   [8]  F0 7D 83 EC 10 FF FF 83
08/07/2025 12:21:20PM   can0  18FEF100   [8]  C3 C0 00 50 03 FF 00 FF
08/07/2025 12:21:20PM   can0  0CF00400   [8]  F0 7D 83 DA 10 FF FF 84
08/07/2025 12:21:20PM   can0  0CF00400   [8]  F0 7D 83 E0 10 FF FF 83
08/07/2025 12:21:20PM   can0  0CF00400   [8]  F0 7D 84 DA 10 FF FF 84
08/07/2025 12:21:20PM   can0  0CF00400   [8]  F0 7D 84 E5 10 FF FF 83
08/07/2025 12:21:20PM   can0  0CF00400   [8]  F0 7D 83 F3 10 FF FF 83
08/07/2025 12:21:20PM   can0  18FEF100   [8]  C3 A2 00 50 03 FF 00 FF
08/07/2025 12:21:20PM   can0  0CF00400   [8]  F0 7D 83 EE 10 FF FF 83
08/07/2025 12:21:20PM   can0  0CF00400   [8]  F0 7D 83 EC 10 FF FF 83
08/07/2025 12:21:20PM   can0  0CF00400   [8]  F0 7D 83 F8 10 FF FF 83
08/07/2025 12:21:20PM   can0  0CF00400   [8]  F0 7D 83 F0 10 FF FF 83
08/07/2025 12:21:20PM   can0  0CF00400   [8]  F0 7D 83 E6 10 FF FF 83
08/07/2025 12:21:20PM   can0  18FEF100   [8]  C3 93 00 50 03 FF 00 FF
08/07/2025 12:21:20PM   can0  0CF00400   [8]  F0 7D 83 EB 10 FF FF 83
08/07/2025 12:21:20PM   can0  0CF00400   [8]  F0 7D 83 D8 10 FF FF 84
08/07/2025 12:21:21PM   can0  0CF00400   [8]  F0 7D 83 DE 10 FF FF 83
08/07/2025 12:21:21PM   can0  0CF00400   [8]  F0 7D 84 D5 10 FF FF 84
08/07/2025 12:21:21PM   can0  0CF00400   [8]  F0 7D 84 D9 10 FF FF 84
08/07/2025 12:21:21PM   can0  18FEF100   [8]  C3 90 00 50 03 FF 00 FF
08/07/2025 12:21:21PM   can0  0CF00400   [8]  F0 7D 83 E1 10 FF FF 83
08/07/2025 12:21:21PM   can0  0CF00400   [8]  F0 7D 83 DB 10 FF FF 84
08/07/2025 12:21:21PM   can0  0CF00400   [8]  F0 7D 84 D7 10 FF FF 84
08/07/2025 12:21:21PM   can0  0CF00400   [8]  F0 7D 83 E3 10 FF FF 83
08/07/2025 12:21:21PM   can0  0CF00400   [8]  F0 7D 84 D7 10 FF FF 84
08/07/2025 12:21:21PM   can0  18FEF100   [8]  C3 91 00 50 03 FF 00 FF
08/07/2025 12:21:21PM   can0  0CF00400   [8]  F0 7D 84 CC 10 FF FF 84
08/07/2025 12:21:21PM   can0  0CF00400   [8]  F0 7D 84 D3 10 FF FF 84
08/07/2025 12:21:21PM   can0  0CF00400   [8]  F0 7D 84 C2 10 FF FF 84
08/07/2025 12:21:21PM   can0  0CF00400   [8]  F0 7D 84 C4 10 FF FF 84
08/07/2025 12:21:21PM   can0  0CF00400   [8]  F0 7D 84 BF 10 FF FF 84
08/07/2025 12:21:21PM   can0  18FEF100   [8]  C3 94 00 50 03 FF 00 FF
08/07/2025 12:21:21PM   can0  0CF00400   [8]  F0 7D 84 C0 10 FF FF 84
08/07/2025 12:21:21PM   can0  0CF00400   [8]  F0 7D 84 C9 10 FF FF 84
08/07/2025 12:21:21PM   can0  0CF00400   [8]  F0 7D 84 C8 10 FF FF 84
08/07/2025 12:21:21PM   can0  0CF00400   [8]  F0 7D 84 C4 10 FF FF 84
08/07/2025 12:21:21PM   can0  0CF00400   [8]  F0 7D 84 DC 10 FF FF 84
08/07/2025 12:21:21PM   can0  18FEF100   [8]  C3 94 00 50 03 FF 00 FF
08/07/2025 12:21:21PM   can0  0CF00400   [8]  F0 7D 84 CF 10 FF FF 84
08/07/2025 12:21:21PM   can0  0CF00400   [8]  F0 7D 84 C7 10 FF FF 84
08/07/2025 12:21:21PM   can0  0CF00400   [8]  F0 7D 84 CC 10 FF FF 84
08/07/2025 12:21:21PM   can0  0CF00400   [8]  F0 7D 84 C5 10 FF FF 84
08/07/2025 12:21:21PM   can0  0CF00400   [8]  F0 7D 84 C6 10 FF FF 84
08/07/2025 12:21:21PM   can0  18FEF100   [8]  C3 7F 00 50 03 FF 00 FF
08/07/2025 12:21:21PM   can0  0CF00400   [8]  F0 7D 84 C4 10 FF FF 84
08/07/2025 12:21:21PM   can0  0CF00400   [8]  F0 7D 84 C6 10 FF FF 84
08/07/2025 12:21:21PM   can0  0CF00400   [8]  F0 7D 84 CF 10 FF FF 84
08/07/2025 12:21:21PM   can0  0CF00400   [8]  F0 7D 84 D4 10 FF FF 84
08/07/2025 12:21:21PM   can0  0CF00400   [8]  F0 7D 84 C5 10 FF FF 84
08/07/2025 12:21:21PM   can0  18FEF100   [8]  C3 59 00 50 03 FF 00 FF
08/07/2025 12:21:21PM   can0  0CF00400   [8]  F0 7D 84 CE 10 FF FF 84
08/07/2025 12:21:21PM   can0  0CF00400   [8]  F0 7D 85 9C 10 FF FF 85
08/07/2025 12:21:21PM   can0  0CF00400   [8]  F0 7D 86 5D 10 FF FF 87
08/07/2025 12:21:21PM   can0  0CF00400   [8]  F0 7D 88 07 10 FF FF 89
08/07/2025 12:21:21PM   can0  0CF00400   [8]  F0 7D 89 DA 0F FF FF 8A
08/07/2025 12:21:21PM   can0  18FEF100   [8]  C3 33 00 50 03 FF 00 FF
08/07/2025 12:21:21PM   can0  0CF00400   [8]  F0 7D 8A CC 0F FF FF 8A
08/07/2025 12:21:21PM   can0  0CF00400   [8]  F0 7D 8A EE 0F FF FF 8A
08/07/2025 12:21:21PM   can0  0CF00400   [8]  F0 7D 8A 10 10 FF FF 89
08/07/2025 12:21:21PM   can0  0CF00400   [8]  F0 7D 89 4B 10 FF FF 88
08/07/2025 12:21:21PM   can0  0CF00400   [8]  F0 7D 88 7A 10 FF FF 88
08/07/2025 12:21:21PM   can0  18FEF100   [8]  C3 17 00 50 03 FF 00 FF
08/07/2025 12:21:21PM   can0  0CF00400   [8]  F0 7D 87 9C 10 FF FF 87
08/07/2025 12:21:21PM   can0  0CF00400   [8]  F0 7D 87 B9 10 FF FF 86
08/07/2025 12:21:21PM   can0  0CF00400   [8]  F0 7D 86 E5 10 FF FF 85
08/07/2025 12:21:21PM   can0  0CF00400   [8]  F0 7D 85 F6 10 FF FF 85
08/07/2025 12:21:21PM   can0  0CF00400   [8]  F0 7D 85 04 11 FF FF 85
08/07/2025 12:21:21PM   can0  18FEF100   [8]  C3 05 00 10 03 FF 00 FF
08/07/2025 12:21:21PM   can0  0CF00400   [8]  F0 7D 84 18 11 FF FF 84
08/07/2025 12:21:21PM   can0  0CF00400   [8]  F0 7D 84 0E 11 FF FF 84
08/07/2025 12:21:21PM   can0  0CF00400   [8]  F0 7D 84 1C 11 FF FF 84
08/07/2025 12:21:21PM   can0  0CF00400   [8]  F0 7D 84 1A 11 FF FF 84
08/07/2025 12:21:21PM   can0  0CF00400   [8]  F0 7D 84 28 11 FF FF 84
08/07/2025 12:21:21PM   can0  18FEF100   [8]  C3 00 00 10 03 FF 00 FF
08/07/2025 12:21:21PM   can0  0CF00400   [8]  F0 7D 84 33 11 FF FF 84
08/07/2025 12:21:21PM   can0  0CF00400   [8]  F0 7D 84 2C 11 FF FF 84
08/07/2025 12:21:22PM   can0  0CF00400   [8]  F0 7D 84 2D 11 FF FF 84
08/07/2025 12:21:22PM   can0  0CF00400   [8]  F0 7D 84 3E 11 FF FF 84
08/07/2025 12:21:22PM   can0  0CF00400   [8]  F0 7D 84 3C 11 FF FF 84
08/07/2025 12:21:22PM   can0  18FEF100   [8]  C3 00 00 10 03 FF 00 FF
08/07/2025 12:21:22PM   can0  0CF00400   [8]  F0 7D 84 37 11 FF FF 84
08/07/2025 12:21:22PM   can0  0CF00400   [8]  F0 7D 83 39 11 FF FF 84
08/07/2025 12:21:22PM   can0  0CF00400   [8]  F0 7D 84 24 11 FF FF 84
08/07/2025 12:21:22PM   can0  0CF00400   [8]  F0 7D 84 25 11 FF FF 84
08/07/2025 12:21:22PM   can0  0CF00400   [8]  F0 7D 84 19 11 FF FF 84
08/07/2025 12:21:22PM   can0  18FEF100   [8]  C3 00 00 50 03 FF 00 FF
08/07/2025 12:21:22PM   can0  0CF00400   [8]  F0 7D 84 1D 11 FF FF 84
08/07/2025 12:21:22PM   can0  0CF00400   [8]  F0 7D 84 20 11 FF FF 84
08/07/2025 12:21:22PM   can0  0CF00400   [8]  F0 7D 84 12 11 FF FF 84
08/07/2025 12:21:22PM   can0  0CF00400   [8]  F0 7D 84 11 11 FF FF 84
08/07/2025 12:21:22PM   can0  0CF00400   [8]  F0 7D 83 14 11 FF FF 83
08/07/2025 12:21:22PM   can0  18FEF100   [8]  C3 00 00 50 03 FF 00 FF
08/07/2025 12:21:22PM   can0  0CF00400   [8]  F0 7D 83 0F 11 FF FF 83
08/07/2025 12:21:22PM   can0  0CF00400   [8]  F0 7D 83 00 11 FF FF 83
08/07/2025 12:21:22PM   can0  0CF00400   [8]  F0 7D 83 FD 10 FF FF 83
08/07/2025 12:21:22PM   can0  0CF00400   [8]  F0 7D 84 E6 10 FF FF 84
08/07/2025 12:21:22PM   can0  0CF00400   [8]  F0 7D 84 E7 10 FF FF 84
08/07/2025 12:21:22PM   can0  18FEF100   [8]  C3 00 00 50 03 FF 00 FF
08/07/2025 12:21:22PM   can0  0CF00400   [8]  F0 7D 84 DC 10 FF FF 84
08/07/2025 12:21:22PM   can0  0CF00400   [8]  F0 7D 84 E5 10 FF FF 84
08/07/2025 12:21:22PM   can0  0CF00400   [8]  F0 7D 84 F3 10 FF FF 84
08/07/2025 12:21:22PM   can0  0CF00400   [8]  F0 7D 84 E8 10 FF FF 84
08/07/2025 12:21:22PM   can0  0CF00400   [8]  F0 7D 84 E9 10 FF FF 84
08/07/2025 12:21:22PM   can0  18FEF100   [8]  C3 00 00 50 03 FF 00 FF
08/07/2025 12:21:22PM   can0  0CF00400   [8]  F0 7D 83 F4 10 FF FF 84
08/07/2025 12:21:22PM   can0  0CF00400   [8]  F0 7D 84 EE 10 FF FF 84
08/07/2025 12:21:22PM   can0  0CF00400   [8]  F0 7D 84 E8 10 FF FF 84
08/07/2025 12:21:22PM   can0  0CF00400   [8]  F0 7D 84 ED 10 FF FF 84
08/07/2025 12:21:22PM   can0  0CF00400   [8]  F0 7D 84 DD 10 FF FF 84
08/07/2025 12:21:22PM   can0  18FEF100   [8]  C3 00 00 50 03 FF 00 FF
08/07/2025 12:21:22PM   can0  0CF00400   [8]  F0 7D 84 E4 10 FF FF 84
08/07/2025 12:21:22PM   can0  0CF00400   [8]  F0 7D 84 E0 10 FF FF 84
08/07/2025 12:21:22PM   can0  0CF00400   [8]  F0 7D 84 EB 10 FF FF 84
08/07/2025 12:21:22PM   can0  0CF00400   [8]  F0 7D 84 FB 10 FF FF 83
08/07/2025 12:21:22PM   can0  0CF00400   [8]  F0 7D 83 F7 10 FF FF 83
08/07/2025 12:21:22PM   can0  18FEF100   [8]  C3 00 00 50 03 FF 00 FF
08/07/2025 12:21:22PM   can0  0CF00400   [8]  F0 7D 83 F8 10 FF FF 83
08/07/2025 12:21:22PM   can0  0CF00400   [8]  F0 7D 83 07 11 FF FF 83
08/07/2025 12:21:22PM   can0  0CF00400   [8]  F0 7D 83 FD 10 FF FF 83
08/07/2025 12:21:22PM   can0  0CF00400   [8]  F0 7D 83 F5 10 FF FF 83
08/07/2025 12:21:22PM   can0  0CF00400   [8]  F0 7D 83 FA 10 FF FF 83
08/07/2025 12:21:22PM   can0  18FEF100   [8]  C3 00 00 50 03 FF 00 FF
08/07/2025 12:21:22PM   can0  0CF00400   [8]  F0 7D 83 E8 10 FF FF 84
08/07/2025 12:21:22PM   can0  0CF00400   [8]  F0 7D 84 EE 10 FF FF 84
08/07/2025 12:21:22PM   can0  0CF00400   [8]  F0 7D 84 E0 10 FF FF 84
08/07/2025 12:21:22PM   can0  0CF00400   [8]  F0 7D 84 D8 10 FF FF 84
08/07/2025 12:21:22PM   can0  0CF00400   [8]  F0 7D 84 D8 10 FF FF 84
08/07/2025 12:21:22PM   can0  18FEF100   [8]  C3 00 00 50 03 FF 00 FF
08/07/2025 12:21:22PM   can0  0CF00400   [8]  F0 7D 84 C9 10 FF FF 85
08/07/2025 12:21:22PM   can0  0CF00400   [8]  F0 7D 85 BE 10 FF FF 85
08/07/2025 12:21:22PM   can0  0CF00400   [8]  F0 7D 85 C8 10 FF FF 85
08/07/2025 12:21:22PM   can0  0CF00400   [8]  F0 7D 85 B9 10 FF FF 85
08/07/2025 12:21:22PM   can0  0CF00400   [8]  F0 7D 85 AC 10 FF FF 86
08/07/2025 12:21:22PM   can0  18FEF100   [8]  C3 00 00 50 03 FF 00 FF
08/07/2025 12:21:22PM   can0  0CF00400   [8]  F0 7D 85 B2 10 FF FF 85
08/07/2025 12:21:22PM   can0  0CF00400   [8]  F0 7D 86 A3 10 FF FF 86
08/07/2025 12:21:23PM   can0  0CF00400   [8]  F0 7D 86 AF 10 FF FF 86
08/07/2025 12:21:23PM   can0  0CF00400   [8]  F0 7D 86 B0 10 FF FF 86
08/07/2025 12:21:23PM   can0  0CF00400   [8]  F0 7D 86 BD 10 FF FF 86
08/07/2025 12:21:23PM   can0  18FEF100   [8]  C3 00 00 50 03 FF 00 FF
08/07/2025 12:21:23PM   can0  0CF00400   [8]  F0 7D 85 D0 10 FF FF 85
08/07/2025 12:21:23PM   can0  0CF00400   [8]  F0 7D 85 DA 10 FF FF 85
08/07/2025 12:21:23PM   can0  0CF00400   [8]  F0 7D 85 DB 10 FF FF 85
08/07/2025 12:21:23PM   can0  0CF00400   [8]  F0 7D 85 F7 10 FF FF 85
08/07/2025 12:21:23PM   can0  0CF00400   [8]  F0 7D 85 ED 10 FF FF 85
08/07/2025 12:21:23PM   can0  18FEF100   [8]  C3 00 00 50 03 FF 00 FF
08/07/2025 12:21:23PM   can0  0CF00400   [8]  F0 7D 85 E2 10 FF FF 85
08/07/2025 12:21:23PM   can0  0CF00400   [8]  F0 7D 85 E8 10 FF FF 85
08/07/2025 12:21:23PM   can0  0CF00400   [8]  F0 7D 85 DD 10 FF FF 85
08/07/2025 12:21:23PM   can0  0CF00400   [8]  F0 7D 85 DC 10 FF FF 85
08/07/2025 12:21:23PM   can0  0CF00400   [8]  F0 7D 85 D9 10 FF FF 85
08/07/2025 12:21:23PM   can0  18FEF100   [8]  C3 00 00 50 03 FF 00 FF
08/07/2025 12:21:23PM   can0  0CF00400   [8]  F0 7D 85 DB 10 FF FF 85
08/07/2025 12:21:23PM   can0  0CF00400   [8]  F0 7D 85 E6 10 FF FF 85
08/07/2025 12:21:23PM   can0  0CF00400   [8]  F0 7D 85 ED 10 FF FF 85
08/07/2025 12:21:23PM   can0  0CF00400   [8]  F0 7D 85 E7 10 FF FF 85
08/07/2025 12:21:23PM   can0  0CF00400   [8]  F0 7D 85 00 11 FF FF 85
08/07/2025 12:21:23PM   can0  18FEF100   [8]  C3 00 00 50 03 FF 00 FF
08/07/2025 12:21:23PM   can0  0CF00400   [8]  F0 7D 85 F5 10 FF FF 85
08/07/2025 12:21:23PM   can0  0CF00400   [8]  F0 7D 85 EC 10 FF FF 85
08/07/2025 12:21:23PM   can0  0CF00400   [8]  F0 7D 85 F0 10 FF FF 85
08/07/2025 12:21:23PM   can0  0CF00400   [8]  F0 7D 85 EA 10 FF FF 85
08/07/2025 12:21:23PM   can0  0CF00400   [8]  F0 7D 85 E7 10 FF FF 85
08/07/2025 12:21:23PM   can0  18FEF100   [8]  C3 00 00 50 03 FF 00 FF
08/07/2025 12:21:23PM   can0  0CF00400   [8]  F0 7D 85 E3 10 FF FF 85
08/07/2025 12:21:23PM   can0  0CF00400   [8]  F0 7D 85 E4 10 FF FF 85
08/07/2025 12:21:23PM   can0  0CF00400   [8]  F0 7D 85 EF 10 FF FF 85
08/07/2025 12:21:23PM   can0  0CF00400   [8]  F0 7D 85 FC 10 FF FF 85
08/07/2025 12:21:23PM   can0  0CF00400   [8]  F0 7D 85 F0 10 FF FF 85
08/07/2025 12:21:23PM   can0  18FEF100   [8]  C3 03 00 40 03 FF 00 FF
08/07/2025 12:21:23PM   can0  0CF00400   [8]  F0 7D 85 0A 11 FF FF 85
08/07/2025 12:21:23PM   can0  0CF00400   [8]  F0 7D 85 00 11 FF FF 85
08/07/2025 12:21:23PM   can0  0CF00400   [8]  F0 7D 85 FA 10 FF FF 85
08/07/2025 12:21:23PM   can0  0CF00400   [8]  F0 7D 85 F8 10 FF FF 85
08/07/2025 12:21:23PM   can0  0CF00400   [8]  F0 7D 85 EC 10 FF FF 85
08/07/2025 12:21:23PM   can0  18FEF100   [8]  C3 0A 00 40 03 FF 00 FF
08/07/2025 12:21:23PM   can0  0CF00400   [8]  F0 7D 85 E4 10 FF FF 85
08/07/2025 12:21:23PM   can0  0CF00400   [8]  F0 7D 85 DE 10 FF FF 85
08/07/2025 12:21:23PM   can0  0CF00400   [8]  F0 7D 86 DA 10 FF FF 86
08/07/2025 12:21:23PM   can0  0CF00400   [8]  F0 7D 85 E2 10 FF FF 85
08/07/2025 12:21:23PM   can0  0CF00400   [8]  F0 7D 85 ED 10 FF FF 85
08/07/2025 12:21:23PM   can0  18FEF100   [8]  C3 12 00 40 03 FF 00 FF
08/07/2025 12:21:23PM   can0  0CF00400   [8]  F0 7D 85 E0 10 FF FF 85
08/07/2025 12:21:23PM   can0  0CF00400   [8]  F0 7D 85 F4 10 FF FF 85
08/07/2025 12:21:23PM   can0  0CF00400   [8]  F0 7D 85 ED 10 FF FF 85
08/07/2025 12:21:23PM   can0  0CF00400   [8]  F0 7D 85 E7 10 FF FF 85
08/07/2025 12:21:23PM   can0  0CF00400   [8]  F0 7D 85 E2 10 FF FF 85
08/07/2025 12:21:23PM   can0  18FEF100   [8]  C3 19 00 40 03 FF 00 FF
08/07/2025 12:21:23PM   can0  0CF00400   [8]  F0 7D 85 D8 10 FF FF 86
08/07/2025 12:21:23PM   can0  0CF00400   [8]  F0 7D 86 CC 10 FF FF 86
08/07/2025 12:21:23PM   can0  0CF00400   [8]  F0 7D 86 CB 10 FF FF 86
08/07/2025 12:21:23PM   can0  0CF00400   [8]  F0 7D 86 C4 10 FF FF 86
08/07/2025 12:21:23PM   can0  0CF00400   [8]  F0 7D 86 CE 10 FF FF 86
08/07/2025 12:21:23PM   can0  18FEF100   [8]  C3 1D 00 40 03 FF 00 FF
08/07/2025 12:21:23PM   can0  0CF00400   [8]  F0 7D 86 DA 10 FF FF 86
08/07/2025 12:21:23PM   can0  0CF00400   [8]  F0 7D 86 C9 10 FF FF 86
08/07/2025 12:21:24PM   can0  0CF00400   [8]  F0 7D 86 CD 10 FF FF 86
08/07/2025 12:21:24PM   can0  0CF00400   [8]  F0 7D 86 C7 10 FF FF 86
08/07/2025 12:21:24PM   can0  0CF00400   [8]  F0 7D 87 BF 10 FF FF 87
08/07/2025 12:21:24PM   can0  18FEF100   [8]  C3 20 00 40 03 FF 00 FF
08/07/2025 12:21:24PM   can0  0CF00400   [8]  F0 7D 87 B6 10 FF FF 87
08/07/2025 12:21:24PM   can0  0CF00400   [8]  F0 7D 87 B0 10 FF FF 88
08/07/2025 12:21:24PM   can0  0CF00400   [8]  F0 7D 88 98 10 FF FF 89
08/07/2025 12:21:24PM   can0  0CF00400   [8]  F0 7D 88 9E 10 FF FF 89
08/07/2025 12:21:24PM   can0  0CF00400   [8]  F0 7D 89 96 10 FF FF 89
08/07/2025 12:21:24PM   can0  18FEF100   [8]  C3 21 00 40 03 FF 00 FF
08/07/2025 12:21:24PM   can0  0CF00400   [8]  F0 7D 89 A4 10 FF FF 89
08/07/2025 12:21:24PM   can0  0CF00400   [8]  F0 7E 88 B5 10 FF FF 88
08/07/2025 12:21:24PM   can0  0CF00400   [8]  F0 80 88 AA 10 FF FF 89
08/07/2025 12:21:24PM   can0  0CF00400   [8]  F0 82 89 AA 10 FF FF 89
08/07/2025 12:21:24PM   can0  0CF00400   [8]  F0 84 88 AE 10 FF FF 89
08/07/2025 12:21:24PM   can0  18FEF100   [8]  C3 21 00 40 03 FF 00 FF
08/07/2025 12:21:24PM   can0  0CF00400   [8]  F0 86 89 A4 10 FF FF 89
08/07/2025 12:21:24PM   can0  0CF00400   [8]  F1 88 8A 98 10 FF FF 8A
08/07/2025 12:21:24PM   can0  0CF00400   [8]  F1 8B 8A 9D 10 FF FF 8B
08/07/2025 12:21:24PM   can0  0CF00400   [8]  F1 8C 8B 8A 10 FF FF 8C
08/07/2025 12:21:24PM   can0  0CF00400   [8]  F1 8D 8D 93 10 FF FF 8D
08/07/2025 12:21:24PM   can0  18FEF100   [8]  C3 21 00 40 03 FF 00 FF
08/07/2025 12:21:24PM   can0  0CF00400   [8]  F1 8F 8E 94 10 FF FF 8F
08/07/2025 12:21:24PM   can0  0CF00400   [8]  F1 90 90 A4 10 FF FF 90
08/07/2025 12:21:24PM   can0  0CF00400   [8]  F1 91 91 C8 10 FF FF 91
08/07/2025 12:21:24PM   can0  0CF00400   [8]  F1 92 91 E0 10 FF FF 92
08/07/2025 12:21:24PM   can0  0CF00400   [8]  F1 94 93 FB 10 FF FF 94
08/07/2025 12:21:24PM   can0  18FEF100   [8]  C3 21 00 40 03 FF 00 FF
08/07/2025 12:21:24PM   can0  0CF00400   [8]  F1 94 94 35 11 FF FF 94
08/07/2025 12:21:24PM   can0  0CF00400   [8]  F1 95 95 4B 11 FF FF 95
08/07/2025 12:21:24PM   can0  0CF00400   [8]  F1 96 95 73 11 FF FF 96
08/07/2025 12:21:24PM   can0  0CF00400   [8]  F1 95 95 BA 11 FF FF 95
08/07/2025 12:21:24PM   can0  0CF00400   [8]  F1 95 95 E8 11 FF FF 95
08/07/2025 12:21:24PM   can0  18FEF100   [8]  C3 1E 00 40 03 FF 00 FF
08/07/2025 12:21:24PM   can0  0CF00400   [8]  F1 93 94 3D 12 FF FF 93
08/07/2025 12:21:24PM   can0  0CF00400   [8]  F1 92 93 84 12 FF FF 92
08/07/2025 12:21:24PM   can0  0CF00400   [8]  F1 90 91 DA 12 FF FF 90
08/07/2025 12:21:24PM   can0  0CF00400   [8]  F1 8F 8F 25 13 FF FF 8F
08/07/2025 12:21:24PM   can0  0CF00400   [8]  F1 8F 8F 42 13 FF FF 8F
08/07/2025 12:21:24PM   can0  18FEF100   [8]  C3 17 00 40 03 FF 00 FF
08/07/2025 12:21:24PM   can0  0CF00400   [8]  F1 8F 8F 6F 13 FF FF 8F
08/07/2025 12:21:24PM   can0  0CF00400   [8]  F1 90 8F 74 13 FF FF 90
08/07/2025 12:21:24PM   can0  0CF00400   [8]  F1 91 91 7D 13 FF FF 91
08/07/2025 12:21:24PM   can0  0CF00400   [8]  F1 92 92 9C 13 FF FF 92
08/07/2025 12:21:24PM   can0  0CF00400   [8]  F1 93 93 B0 13 FF FF 93
08/07/2025 12:21:24PM   can0  18FEF100   [8]  C3 0E 00 40 03 FF 00 FF
08/07/2025 12:21:24PM   can0  0CF00400   [8]  F1 93 93 DE 13 FF FF 93
08/07/2025 12:21:24PM   can0  0CF00400   [8]  F1 92 92 12 14 FF FF 92
08/07/2025 12:21:24PM   can0  0CF00400   [8]  F1 91 91 51 14 FF FF 91
08/07/2025 12:21:24PM   can0  0CF00400   [8]  F1 90 90 7D 14 FF FF 90
08/07/2025 12:21:24PM   can0  0CF00400   [8]  F1 8F 90 A6 14 FF FF 8F
08/07/2025 12:21:24PM   can0  18FEF100   [8]  C3 07 00 40 03 FF 00 FF
08/07/2025 12:21:24PM   can0  0CF00400   [8]  F1 8E 8E C1 14 FF FF 8E
08/07/2025 12:21:24PM   can0  0CF00400   [8]  F1 8E 8E CA 14 FF FF 8E
08/07/2025 12:21:24PM   can0  0CF00400   [8]  F1 8E 8E E4 14 FF FF 8E
08/07/2025 12:21:24PM   can0  0CF00400   [8]  F1 8E 8E E8 14 FF FF 8E
08/07/2025 12:21:24PM   can0  0CF00400   [8]  F1 8D 8D 00 15 FF FF 8D
08/07/2025 12:21:24PM   can0  18FEF100   [8]  C3 02 00 40 03 FF 00 FF
08/07/2025 12:21:24PM   can0  0CF00400   [8]  F1 8D 8D 0E 15 FF FF 8D
08/07/2025 12:21:24PM   can0  0CF00400   [8]  F1 8C 8C 23 15 FF FF 8C
08/07/2025 12:21:25PM   can0  0CF00400   [8]  F1 8C 8C 1F 15 FF FF 8C
08/07/2025 12:21:25PM   can0  0CF00400   [8]  F1 8C 8C 1F 15 FF FF 8C
08/07/2025 12:21:25PM   can0  0CF00400   [8]  F1 8D 8D 0A 15 FF FF 8D
08/07/2025 12:21:25PM   can0  18FEF100   [8]  C3 00 00 40 03 FF 00 FF
08/07/2025 12:21:25PM   can0  0CF00400   [8]  F1 8E 8D F6 14 FF FF 8E
08/07/2025 12:21:25PM   can0  0CF00400   [8]  F1 8E 8E F4 14 FF FF 8E
08/07/2025 12:21:25PM   can0  0CF00400   [8]  F1 8E 8E E8 14 FF FF 8E
08/07/2025 12:21:25PM   can0  0CF00400   [8]  F1 8E 8E F2 14 FF FF 8E
08/07/2025 12:21:25PM   can0  0CF00400   [8]  F1 8D 8D FE 14 FF FF 8D
08/07/2025 12:21:25PM   can0  18FEF100   [8]  C3 00 00 40 03 FF 00 FF
08/07/2025 12:21:25PM   can0  0CF00400   [8]  F1 8C 8C 14 15 FF FF 8C
08/07/2025 12:21:25PM   can0  0CF00400   [8]  F1 8C 8C 0C 15 FF FF 8C
08/07/2025 12:21:25PM   can0  0CF00400   [8]  F1 8C 8C 10 15 FF FF 8C
08/07/2025 12:21:25PM   can0  0CF00400   [8]  F1 8D 8D F9 14 FF FF 8D
08/07/2025 12:21:25PM   can0  0CF00400   [8]  F1 8F 8E E4 14 FF FF 8F
08/07/2025 12:21:25PM   can0  18FEF100   [8]  C3 03 00 40 03 FF 00 FF
08/07/2025 12:21:25PM   can0  0CF00400   [8]  F1 90 90 E3 14 FF FF 90
08/07/2025 12:21:25PM   can0  0CF00400   [8]  F1 92 91 DD 14 FF FF 92
08/07/2025 12:21:25PM   can0  0CF00400   [8]  F1 93 92 EB 14 FF FF 93
08/07/2025 12:21:25PM   can0  0CF00400   [8]  F1 94 93 05 15 FF FF 94
08/07/2025 12:21:25PM   can0  0CF00400   [8]  F1 93 94 38 15 FF FF 93
08/07/2025 12:21:25PM   can0  18FEF100   [8]  C3 10 00 40 03 FF 00 FF
08/07/2025 12:21:25PM   can0  0CF00400   [8]  F1 94 94 4F 15 FF FF 94
08/07/2025 12:21:25PM   can0  0CF00400   [8]  F1 94 94 84 15 FF FF 94
08/07/2025 12:21:25PM   can0  0CF00400   [8]  F1 94 94 9A 15 FF FF 94
08/07/2025 12:21:25PM   can0  0CF00400   [8]  F1 95 94 BA 15 FF FF 95
08/07/2025 12:21:25PM   can0  0CF00400   [8]  F1 94 94 E9 15 FF FF 94
08/07/2025 12:21:25PM   can0  18FEF100   [8]  C3 1F 00 40 03 FF 00 FF
08/07/2025 12:21:25PM   can0  0CF00400   [8]  F1 93 94 20 16 FF FF 93
08/07/2025 12:21:25PM   can0  0CF00400   [8]  F1 92 92 4D 16 FF FF 92
08/07/2025 12:21:25PM   can0  0CF00400   [8]  F1 90 90 90 16 FF FF 90
08/07/2025 12:21:25PM   can0  0CF00400   [8]  F1 8E 8E C0 16 FF FF 8E
08/07/2025 12:21:25PM   can0  0CF00400   [8]  F1 8D 8D CB 16 FF FF 8D
08/07/2025 12:21:25PM   can0  18FEF100   [8]  C3 2C 00 40 03 FF 00 FF
08/07/2025 12:21:25PM   can0  0CF00400   [8]  F1 8C 8C D5 16 FF FF 8C
08/07/2025 12:21:25PM   can0  0CF00400   [8]  F1 8C 8C CC 16 FF FF 8C
08/07/2025 12:21:25PM   can0  0CF00400   [8]  F1 8C 8C CE 16 FF FF 8C
08/07/2025 12:21:25PM   can0  0CF00400   [8]  F1 8C 8C C5 16 FF FF 8C
08/07/2025 12:21:25PM   can0  0CF00400   [8]  F1 8C 8C C1 16 FF FF 8C
08/07/2025 12:21:25PM   can0  18FEF100   [8]  C3 35 00 40 03 FF 00 FF
08/07/2025 12:21:25PM   can0  0CF00400   [8]  F1 8B 8C C5 16 FF FF 8B
08/07/2025 12:21:25PM   can0  0CF00400   [8]  F1 8B 8B C7 16 FF FF 8B
08/07/2025 12:21:25PM   can0  0CF00400   [8]  F1 8C 8B AD 16 FF FF 8C
08/07/2025 12:21:25PM   can0  0CF00400   [8]  F1 8C 8B A3 16 FF FF 8C
08/07/2025 12:21:25PM   can0  0CF00400   [8]  F1 8C 8C 8F 16 FF FF 8C
08/07/2025 12:21:25PM   can0  18FEF100   [8]  C3 40 00 40 03 FF 00 FF
08/07/2025 12:21:25PM   can0  0CF00400   [8]  F1 8D 8D 7C 16 FF FF 8D
08/07/2025 12:21:25PM   can0  0CF00400   [8]  F1 8E 8D 62 16 FF FF 8E
08/07/2025 12:21:25PM   can0  0CF00400   [8]  F1 8D 8D 62 16 FF FF 8D
08/07/2025 12:21:25PM   can0  0CF00400   [8]  F1 8D 8E 60 16 FF FF 8D
08/07/2025 12:21:25PM   can0  0CF00400   [8]  F1 8D 8D 6A 16 FF FF 8D
08/07/2025 12:21:25PM   can0  18FEF100   [8]  C3 5C 00 40 03 FF 00 FF
08/07/2025 12:21:25PM   can0  0CF00400   [8]  F1 8E 8D 61 16 FF FF 8E
08/07/2025 12:21:25PM   can0  0CF00400   [8]  F1 8E 8E 65 16 FF FF 8E
08/07/2025 12:21:25PM   can0  0CF00400   [8]  F1 8F 8F 52 16 FF FF 8F
08/07/2025 12:21:25PM   can0  0CF00400   [8]  F1 91 90 48 16 FF FF 91
08/07/2025 12:21:25PM   can0  0CF00400   [8]  F1 92 91 4B 16 FF FF 92
08/07/2025 12:21:25PM   can0  18FEF100   [8]  C3 7F 00 40 03 FF 00 FF
08/07/2025 12:21:25PM   can0  0CF00400   [8]  F1 93 93 53 16 FF FF 93
08/07/2025 12:21:25PM   can0  0CF00400   [8]  F1 94 94 66 16 FF FF 94
08/07/2025 12:21:26PM   can0  0CF00400   [8]  F1 94 94 97 16 FF FF 94
08/07/2025 12:21:26PM   can0  0CF00400   [8]  F1 94 94 C3 16 FF FF 94
08/07/2025 12:21:26PM   can0  0CF00400   [8]  F1 94 94 E4 16 FF FF 94
08/07/2025 12:21:26PM   can0  18FEF100   [8]  C3 A1 00 40 03 FF 00 FF
08/07/2025 12:21:26PM   can0  0CF00400   [8]  F1 94 94 09 17 FF FF 94
08/07/2025 12:21:26PM   can0  0CF00400   [8]  F1 95 94 24 17 FF FF 95
08/07/2025 12:21:26PM   can0  0CF00400   [8]  F1 95 95 52 17 FF FF 95
08/07/2025 12:21:26PM   can0  0CF00400   [8]  F1 94 95 83 17 FF FF 94
08/07/2025 12:21:26PM   can0  0CF00400   [8]  F1 94 94 B3 17 FF FF 94
08/07/2025 12:21:26PM   can0  18FEF100   [8]  C3 CC 00 40 03 FF 00 FF
08/07/2025 12:21:26PM   can0  0CF00400   [8]  F1 93 94 F4 17 FF FF 93
08/07/2025 12:21:26PM   can0  0CF00400   [8]  F1 93 93 27 18 FF FF 93
08/07/2025 12:21:26PM   can0  0CF00400   [8]  F1 93 93 47 18 FF FF 93
08/07/2025 12:21:26PM   can0  0CF00400   [8]  F1 94 93 65 18 FF FF 94
08/07/2025 12:21:26PM   can0  0CF00400   [8]  F1 95 95 7A 18 FF FF 95
08/07/2025 12:21:26PM   can0  18FEF100   [8]  C3 F8 00 40 03 FF 00 FF
08/07/2025 12:21:26PM   can0  0CF00400   [8]  F1 96 95 9C 18 FF FF 96
08/07/2025 12:21:26PM   can0  0CF00400   [8]  F1 96 96 C8 18 FF FF 96
08/07/2025 12:21:26PM   can0  0CF00400   [8]  F1 96 96 04 19 FF FF 96
08/07/2025 12:21:26PM   can0  0CF00400   [8]  F1 95 96 4F 19 FF FF 95
08/07/2025 12:21:26PM   can0  0CF00400   [8]  F1 95 95 78 19 FF FF 95
08/07/2025 12:21:26PM   can0  18FEF100   [8]  C3 1E 01 40 03 FF 00 FF
08/07/2025 12:21:26PM   can0  0CF00400   [8]  F1 95 95 A8 19 FF FF 95
08/07/2025 12:21:26PM   can0  0CF00400   [8]  F1 96 96 C5 19 FF FF 96
08/07/2025 12:21:26PM   can0  0CF00400   [8]  F1 95 96 F8 19 FF FF 95
08/07/2025 12:21:26PM   can0  0CF00400   [8]  F1 95 95 2C 1A FF FF 95
08/07/2025 12:21:26PM   can0  0CF00400   [8]  F1 94 94 60 1A FF FF 94
08/07/2025 12:21:26PM   can0  18FEF100   [8]  C3 3F 01 40 03 FF 00 FF
08/07/2025 12:21:26PM   can0  0CF00400   [8]  F1 92 93 9C 1A FF FF 92
08/07/2025 12:21:26PM   can0  0CF00400   [8]  F1 92 92 B8 1A FF FF 92
08/07/2025 12:21:26PM   can0  0CF00400   [8]  F1 92 92 CF 1A FF FF 92
08/07/2025 12:21:26PM   can0  0CF00400   [8]  F1 92 92 CD 1A FF FF 92
08/07/2025 12:21:26PM   can0  0CF00400   [8]  F1 92 92 D7 1A FF FF 92
08/07/2025 12:21:26PM   can0  18FEF100   [8]  C3 59 01 40 03 FF 00 FF
08/07/2025 12:21:26PM   can0  0CF00400   [8]  F1 92 92 DC 1A FF FF 92
08/07/2025 12:21:26PM   can0  0CF00400   [8]  F1 92 92 E6 1A FF FF 92
08/07/2025 12:21:26PM   can0  0CF00400   [8]  F1 91 91 FE 1A FF FF 91
08/07/2025 12:21:26PM   can0  0CF00400   [8]  F1 91 91 FA 1A FF FF 91
08/07/2025 12:21:26PM   can0  0CF00400   [8]  F1 91 91 FB 1A FF FF 91
08/07/2025 12:21:26PM   can0  18FEF100   [8]  C3 74 01 40 03 FF 00 FF
08/07/2025 12:21:26PM   can0  0CF00400   [8]  F1 92 92 E9 1A FF FF 92
08/07/2025 12:21:26PM   can0  0CF00400   [8]  F1 93 92 DF 1A FF FF 93
08/07/2025 12:21:26PM   can0  0CF00400   [8]  F1 93 93 DB 1A FF FF 93
08/07/2025 12:21:26PM   can0  0CF00400   [8]  F1 94 94 DA 1A FF FF 94
08/07/2025 12:21:26PM   can0  0CF00400   [8]  F1 93 93 EC 1A FF FF 93
08/07/2025 12:21:26PM   can0  18FEF100   [8]  C3 8E 01 40 03 FF 00 FF
08/07/2025 12:21:26PM   can0  0CF00400   [8]  F1 94 93 E8 1A FF FF 94
08/07/2025 12:21:26PM   can0  0CF00400   [8]  F1 94 94 EE 1A FF FF 94
08/07/2025 12:21:26PM   can0  0CF00400   [8]  F1 95 95 E7 1A FF FF 95
08/07/2025 12:21:26PM   can0  0CF00400   [8]  F1 95 95 ED 1A FF FF 95
08/07/2025 12:21:26PM   can0  0CF00400   [8]  F1 95 96 FC 1A FF FF 95
08/07/2025 12:21:26PM   can0  18FEF100   [8]  C3 A7 01 40 03 FF 00 FF
08/07/2025 12:21:26PM   can0  0CF00400   [8]  F1 95 95 10 1B FF FF 95
08/07/2025 12:21:26PM   can0  0CF00400   [8]  F1 95 95 2C 1B FF FF 95
08/07/2025 12:21:26PM   can0  0CF00400   [8]  F1 95 95 2D 1B FF FF 95
08/07/2025 12:21:26PM   can0  0CF00400   [8]  F1 96 95 30 1B FF FF 96
08/07/2025 12:21:26PM   can0  0CF00400   [8]  F1 96 96 2A 1B FF FF 96
08/07/2025 12:21:26PM   can0  18FEF100   [8]  C3 C0 01 40 03 FF 00 FF
08/07/2025 12:21:26PM   can0  0CF00400   [8]  F1 96 96 37 1B FF FF 96
08/07/2025 12:21:26PM   can0  0CF00400   [8]  F1 96 97 43 1B FF FF 96
08/07/2025 12:21:27PM   can0  0CF00400   [8]  F1 96 96 59 1B FF FF 96
08/07/2025 12:21:27PM   can0  0CF00400   [8]  F1 95 96 73 1B FF FF 95
08/07/2025 12:21:27PM   can0  0CF00400   [8]  F1 96 96 6C 1B FF FF 96
08/07/2025 12:21:27PM   can0  18FEF100   [8]  C3 DD 01 40 03 FF 00 FF
08/07/2025 12:21:27PM   can0  0CF00400   [8]  F1 96 96 69 1B FF FF 96
08/07/2025 12:21:27PM   can0  0CF00400   [8]  F1 97 97 5D 1B FF FF 97
08/07/2025 12:21:27PM   can0  0CF00400   [8]  F1 97 97 64 1B FF FF 97
08/07/2025 12:21:27PM   can0  0CF00400   [8]  F1 97 98 70 1B FF FF 97
08/07/2025 12:21:27PM   can0  0CF00400   [8]  F1 97 97 86 1B FF FF 97
08/07/2025 12:21:27PM   can0  18FEF100   [8]  C3 FB 01 40 03 FF 00 FF
08/07/2025 12:21:27PM   can0  0CF00400   [8]  F1 96 96 9D 1B FF FF 96
08/07/2025 12:21:27PM   can0  0CF00400   [8]  F1 97 97 91 1B FF FF 97
08/07/2025 12:21:27PM   can0  0CF00400   [8]  F1 97 97 8C 1B FF FF 97
08/07/2025 12:21:27PM   can0  0CF00400   [8]  F1 98 98 89 1B FF FF 98
08/07/2025 12:21:27PM   can0  0CF00400   [8]  F1 98 98 8D 1B FF FF 98
08/07/2025 12:21:27PM   can0  18FEF100   [8]  C3 18 02 40 03 FF 00 FF
08/07/2025 12:21:27PM   can0  0CF00400   [8]  F1 98 98 9C 1B FF FF 98
08/07/2025 12:21:27PM   can0  0CF00400   [8]  F1 97 98 B0 1B FF FF 97
08/07/2025 12:21:27PM   can0  0CF00400   [8]  F1 97 97 B5 1B FF FF 97
08/07/2025 12:21:27PM   can0  0CF00400   [8]  F1 98 98 A7 1B FF FF 98
08/07/2025 12:21:27PM   can0  0CF00400   [8]  F1 99 98 98 1B FF FF 99
08/07/2025 12:21:27PM   can0  18FEF100   [8]  C3 39 02 40 03 FF 00 FF
08/07/2025 12:21:27PM   can0  0CF00400   [8]  F1 99 99 91 1B FF FF 99
08/07/2025 12:21:27PM   can0  0CF00400   [8]  F1 9A 99 86 1B FF FF 9A
08/07/2025 12:21:27PM   can0  0CF00400   [8]  F1 9A 9A 94 1B FF FF 9A
08/07/2025 12:21:27PM   can0  0CF00400   [8]  F1 9A 9A AA 1B FF FF 9A
08/07/2025 12:21:27PM   can0  0CF00400   [8]  F1 9A 9A A4 1B FF FF 9A
08/07/2025 12:21:27PM   can0  18FEF100   [8]  C3 5A 02 40 03 FF 00 FF
08/07/2025 12:21:27PM   can0  0CF00400   [8]  F1 9B 9B AA 1B FF FF 9B
08/07/2025 12:21:27PM   can0  0CF00400   [8]  F1 9C 9C 9C 1B FF FF 9C
08/07/2025 12:21:27PM   can0  0CF00400   [8]  F1 9C 9C A0 1B FF FF 9C
08/07/2025 12:21:27PM   can0  0CF00400   [8]  F1 9C 9C A6 1B FF FF 9C
08/07/2025 12:21:27PM   can0  0CF00400   [8]  F1 9D 9D AF 1B FF FF 9D
08/07/2025 12:21:27PM   can0  18FEF100   [8]  C3 7A 02 40 03 FF 00 FF
08/07/2025 12:21:27PM   can0  0CF00400   [8]  F1 9C 9C C3 1B FF FF 9C
08/07/2025 12:21:27PM   can0  0CF00400   [8]  F1 9D 9D B4 1B FF FF 9D
08/07/2025 12:21:27PM   can0  0CF00400   [8]  F1 9E 9E BA 1B FF FF 9E
08/07/2025 12:21:27PM   can0  0CF00400   [8]  F1 9E 9E AC 1B FF FF 9E
08/07/2025 12:21:27PM   can0  0CF00400   [8]  F1 9E 9E BD 1B FF FF 9E
08/07/2025 12:21:27PM   can0  18FEF100   [8]  C3 A9 02 40 03 FF 00 FF
08/07/2025 12:21:27PM   can0  0CF00400   [8]  F1 9E 9E CF 1B FF FF 9E
08/07/2025 12:21:27PM   can0  0CF00400   [8]  F1 9D 9E E4 1B FF FF 9D
08/07/2025 12:21:27PM   can0  0CF00400   [8]  F1 9D 9D FC 1B FF FF 9D
08/07/2025 12:21:27PM   can0  0CF00400   [8]  F1 9E 9D E9 1B FF FF 9E
08/07/2025 12:21:27PM   can0  0CF00400   [8]  F1 9E 9D E4 1B FF FF 9E
08/07/2025 12:21:27PM   can0  18FEF100   [8]  C3 ED 02 40 03 FF 00 FF
08/07/2025 12:21:27PM   can0  0CF00400   [8]  F1 9E 9E E0 1B FF FF 9E
08/07/2025 12:21:27PM   can0  0CF00400   [8]  F1 9E 9E F1 1B FF FF 9E
08/07/2025 12:21:27PM   can0  0CF00400   [8]  F1 9D 9D 0B 1C FF FF 9D
08/07/2025 12:21:27PM   can0  0CF00400   [8]  F1 9C 9D 26 1C FF FF 9C
08/07/2025 12:21:27PM   can0  0CF00400   [8]  F1 9C 9C 2B 1C FF FF 9C
08/07/2025 12:21:27PM   can0  18FEF100   [8]  C3 34 03 40 03 FF 00 FF
08/07/2025 12:21:27PM   can0  0CF00400   [8]  F1 9D 9D 20 1C FF FF 9D
08/07/2025 12:21:27PM   can0  0CF00400   [8]  F1 9D 9D 16 1C FF FF 9D
08/07/2025 12:21:27PM   can0  0CF00400   [8]  F1 9D 9D 1C 1C FF FF 9D
08/07/2025 12:21:27PM   can0  0CF00400   [8]  F1 9D 9D 1E 1C FF FF 9D
08/07/2025 12:21:27PM   can0  0CF00400   [8]  F1 9C 9C 31 1C FF FF 9C
08/07/2025 12:21:27PM   can0  18FEF100   [8]  C3 78 03 40 03 FF 00 FF
08/07/2025 12:21:27PM   can0  0CF00400   [8]  F1 9C 9C 47 1C FF FF 9C
08/07/2025 12:21:27PM   can0  0CF00400   [8]  F1 9C 9B 3E 1C FF FF 9C
08/07/2025 12:21:28PM   can0  0CF00400   [8]  F1 9C 9C 42 1C FF FF 9C
08/07/2025 12:21:28PM   can0  0CF00400   [8]  F1 9D 9D 32 1C FF FF 9D
08/07/2025 12:21:28PM   can0  0CF00400   [8]  F1 9D 9D 39 1C FF FF 9D
08/07/2025 12:21:28PM   can0  18FEF100   [8]  C3 BD 03 40 03 FF 00 FF
08/07/2025 12:21:28PM   can0  0CF00400   [8]  F1 9D 9D 40 1C FF FF 9D
08/07/2025 12:21:28PM   can0  0CF00400   [8]  F1 9D 9D 4F 1C FF FF 9D
08/07/2025 12:21:28PM   can0  0CF00400   [8]  F1 9D 9D 68 1C FF FF 9D
08/07/2025 12:21:28PM   can0  0CF00400   [8]  F1 9E 9E 5D 1C FF FF 9E
08/07/2025 12:21:28PM   can0  0CF00400   [8]  F1 9F 9E 60 1C FF FF 9F
08/07/2025 12:21:28PM   can0  18FEF100   [8]  C3 04 04 40 03 FF 00 FF
08/07/2025 12:21:28PM   can0  0CF00400   [8]  F1 9F 9F 6B 1C FF FF 9F
08/07/2025 12:21:28PM   can0  0CF00400   [8]  F1 9F 9F 8A 1C FF FF 9F
08/07/2025 12:21:28PM   can0  0CF00400   [8]  F1 9E 9E B8 1C FF FF 9E
08/07/2025 12:21:28PM   can0  0CF00400   [8]  F1 9D 9D E1 1C FF FF 9D
08/07/2025 12:21:28PM   can0  0CF00400   [8]  F1 9C 9C EC 1C FF FF 9C
08/07/2025 12:21:28PM   can0  18FEF100   [8]  C3 4B 04 40 03 FF 00 FF
08/07/2025 12:21:28PM   can0  0CF00400   [8]  F1 9B 9C FD 1C FF FF 9B
08/07/2025 12:21:28PM   can0  0CF00400   [8]  F1 9B 9B FD 1C FF FF 9B
08/07/2025 12:21:28PM   can0  0CF00400   [8]  F1 99 9A 0D 1D FF FF 99
08/07/2025 12:21:28PM   can0  0CF00400   [8]  F1 98 99 1E 1D FF FF 98
08/07/2025 12:21:28PM   can0  0CF00400   [8]  F1 97 97 2C 1D FF FF 97
08/07/2025 12:21:28PM   can0  18FEF100   [8]  C3 98 04 40 03 FF 00 FF
08/07/2025 12:21:28PM   can0  0CF00400   [8]  F1 95 96 3E 1D FF FF 95
08/07/2025 12:21:28PM   can0  0CF00400   [8]  F1 95 95 2B 1D FF FF 95
08/07/2025 12:21:28PM   can0  0CF00400   [8]  F1 94 94 1B 1D FF FF 94
08/07/2025 12:21:28PM   can0  0CF00400   [8]  F1 93 93 09 1D FF FF 93
08/07/2025 12:21:28PM   can0  0CF00400   [8]  F1 92 92 F6 1C FF FF 92
08/07/2025 12:21:28PM   can0  18FEF100   [8]  C3 EA 04 40 03 FF 00 FF
08/07/2025 12:21:28PM   can0  0CF00400   [8]  F1 91 91 F1 1C FF FF 91
08/07/2025 12:21:28PM   can0  0CF00400   [8]  F1 8F 90 F3 1C FF FF 8F
08/07/2025 12:21:28PM   can0  0CF00400   [8]  F1 8E 8E E5 1C FF FF 8E
08/07/2025 12:21:28PM   can0  0CF00400   [8]  F1 8C 8D E0 1C FF FF 8C
08/07/2025 12:21:28PM   can0  0CF00400   [8]  F1 8C 8C CA 1C FF FF 8C
08/07/2025 12:21:28PM   can0  18FEF100   [8]  C3 3C 05 40 03 FF 00 FF
08/07/2025 12:21:28PM   can0  0CF00400   [8]  F1 8A 8B BD 1C FF FF 8A
08/07/2025 12:21:28PM   can0  0CF00400   [8]  F1 8A 8A AA 1C FF FF 8A
08/07/2025 12:21:28PM   can0  0CF00400   [8]  F1 89 89 A4 1C FF FF 89
08/07/2025 12:21:28PM   can0  0CF00400   [8]  F1 87 88 AB 1C FF FF 87
08/07/2025 12:21:28PM   can0  0CF00400   [8]  F1 86 87 A4 1C FF FF 86
08/07/2025 12:21:28PM   can0  18FEF100   [8]  C3 82 05 40 03 FF 00 FF
08/07/2025 12:21:28PM   can0  0CF00400   [8]  F1 84 85 AC 1C FF FF 84
08/07/2025 12:21:28PM   can0  0CF00400   [8]  F1 83 84 A0 1C FF FF 83
08/07/2025 12:21:28PM   can0  0CF00400   [8]  F1 83 83 87 1C FF FF 83
08/07/2025 12:21:28PM   can0  0CF00400   [8]  F1 82 82 75 1C FF FF 82
08/07/2025 12:21:28PM   can0  0CF00400   [8]  F1 81 82 6E 1C FF FF 81
08/07/2025 12:21:28PM   can0  18FEF100   [8]  C3 B4 05 40 03 FF 00 FF
08/07/2025 12:21:28PM   can0  0CF00400   [8]  F1 80 81 63 1C FF FF 80
08/07/2025 12:21:28PM   can0  0CF00400   [8]  F1 7F 80 64 1C FF FF 7F
08/07/2025 12:21:28PM   can0  0CF00400   [8]  F1 7E 7E 61 1C FF FF 7E
08/07/2025 12:21:28PM   can0  0CF00400   [8]  F1 7D 7D 61 1C FF FF 7D
08/07/2025 12:21:28PM   can0  0CF00400   [8]  F0 7D 7D 5A 1C FF FF 7D
08/07/2025 12:21:28PM   can0  18FEF100   [8]  C3 D3 05 40 03 FF 00 FF
08/07/2025 12:21:28PM   can0  0CF00400   [8]  F0 7D 7D 4C 1C FF FF 7D
08/07/2025 12:21:28PM   can0  0CF00400   [8]  F0 7D 7D 52 1C FF FF 7D
08/07/2025 12:21:28PM   can0  0CF00400   [8]  F0 7D 7D 58 1C FF FF 7D
08/07/2025 12:21:28PM   can0  0CF00400   [8]  F0 7D 7D 6B 1C FF FF 7D
08/07/2025 12:21:28PM   can0  0CF00400   [8]  F0 7D 7D 80 1C FF FF 7D
08/07/2025 12:21:28PM   can0  18FEF100   [8]  C3 E7 05 40 03 FF 00 FF
08/07/2025 12:21:28PM   can0  0CF00400   [8]  F0 7D 7D A7 1C FF FF 7D
08/07/2025 12:21:28PM   can0  0CF00400   [8]  F0 7D 7D CF 1C FF FF 7D
08/07/2025 12:21:29PM   can0  0CF00400   [8]  F0 7D 7D 0C 1D FF FF 7D
08/07/2025 12:21:29PM   can0  0CF00400   [8]  F0 7D 7D 45 1D FF FF 7D
08/07/2025 12:21:29PM   can0  0CF00400   [8]  F0 7D 7D 80 1D FF FF 7D
08/07/2025 12:21:29PM   can0  18FEF100   [8]  C3 E9 05 40 03 FF 00 FF
08/07/2025 12:21:29PM   can0  0CF00400   [8]  F0 7D 7D C0 1D FF FF 7D
08/07/2025 12:21:29PM   can0  0CF00400   [8]  F1 7E 7D F4 1D FF FF 7E
08/07/2025 12:21:29PM   can0  0CF00400   [8]  F1 81 80 29 1E FF FF 81
08/07/2025 12:21:29PM   can0  0CF00400   [8]  F1 85 83 63 1E FF FF 85
08/07/2025 12:21:29PM   can0  0CF00400   [8]  F1 87 86 CD 1E FF FF 87
08/07/2025 12:21:29PM   can0  18FEF100   [8]  C3 E1 05 40 03 FF 00 FF
08/07/2025 12:21:29PM   can0  0CF00400   [8]  F1 8A 89 34 1F FF FF 8A
08/07/2025 12:21:29PM   can0  0CF00400   [8]  F1 8C 8B AC 1F FF FF 8C
08/07/2025 12:21:29PM   can0  0CF00400   [8]  F1 8D 8C 31 20 FF FF 8D
08/07/2025 12:21:29PM   can0  0CF00400   [8]  F1 8E 8E AD 20 FF FF 8E
08/07/2025 12:21:29PM   can0  0CF00400   [8]  F1 8F 8F 32 21 FF FF 8F
08/07/2025 12:21:29PM   can0  18FEF100   [8]  C3 DF 05 40 03 FF 00 FF
08/07/2025 12:21:29PM   can0  0CF00400   [8]  F1 90 8F BD 21 FF FF 90
08/07/2025 12:21:29PM   can0  0CF00400   [8]  F1 90 90 3F 22 FF FF 90
08/07/2025 12:21:29PM   can0  0CF00400   [8]  F1 90 90 AC 22 FF FF 90
08/07/2025 12:21:29PM   can0  0CF00400   [8]  F1 8F 8F 14 23 FF FF 8F
08/07/2025 12:21:29PM   can0  0CF00400   [8]  F1 8D 8E 6A 23 FF FF 8D
08/07/2025 12:21:29PM   can0  18FEF100   [8]  C3 F0 05 40 03 FF 00 FF
08/07/2025 12:21:29PM   can0  0CF00400   [8]  F1 8B 8C C3 23 FF FF 8B
08/07/2025 12:21:29PM   can0  0CF00400   [8]  F1 89 8A F6 23 FF FF 89
08/07/2025 12:21:29PM   can0  0CF00400   [8]  F1 87 88 1A 24 FF FF 87
08/07/2025 12:21:29PM   can0  0CF00400   [8]  F1 86 86 21 24 FF FF 86
08/07/2025 12:21:29PM   can0  0CF00400   [8]  F1 85 85 12 24 FF FF 85
08/07/2025 12:21:29PM   can0  18FEF100   [8]  C3 1E 06 40 03 FF 00 FF
08/07/2025 12:21:29PM   can0  0CF00400   [8]  F1 84 84 FF 23 FF FF 84
08/07/2025 12:21:29PM   can0  0CF00400   [8]  F1 83 83 D8 23 FF FF 83
08/07/2025 12:21:29PM   can0  0CF00400   [8]  F1 84 83 A3 23 FF FF 84
08/07/2025 12:21:29PM   can0  0CF00400   [8]  F1 85 84 61 23 FF FF 85
08/07/2025 12:21:29PM   can0  0CF00400   [8]  F1 86 86 11 23 FF FF 86
08/07/2025 12:21:29PM   can0  18FEF100   [8]  C3 67 06 40 03 FF 00 FF
08/07/2025 12:21:29PM   can0  0CF00400   [8]  F1 88 87 CC 22 FF FF 88
08/07/2025 12:21:29PM   can0  0CF00400   [8]  F1 8A 89 80 22 FF FF 8A
08/07/2025 12:21:29PM   can0  0CF00400   [8]  F1 8B 8B 42 22 FF FF 8B
08/07/2025 12:21:29PM   can0  0CF00400   [8]  F1 8D 8C 08 22 FF FF 8D
08/07/2025 12:21:29PM   can0  0CF00400   [8]  F1 8F 8E CB 21 FF FF 8F
08/07/2025 12:21:29PM   can0  18FEF100   [8]  C3 AD 06 40 03 FF 00 FF
08/07/2025 12:21:29PM   can0  0CF00400   [8]  F1 90 90 9B 21 FF FF 90
08/07/2025 12:21:29PM   can0  0CF00400   [8]  F1 91 91 78 21 FF FF 91
08/07/2025 12:21:29PM   can0  0CF00400   [8]  F1 92 92 4E 21 FF FF 92
08/07/2025 12:21:29PM   can0  0CF00400   [8]  F1 93 92 32 21 FF FF 93
08/07/2025 12:21:29PM   can0  0CF00400   [8]  F1 94 93 18 21 FF FF 94
08/07/2025 12:21:29PM   can0  18FEF100   [8]  C3 E0 06 40 03 FF 00 FF
08/07/2025 12:21:29PM   can0  0CF00400   [8]  F1 94 94 09 21 FF FF 94
08/07/2025 12:21:29PM   can0  0CF00400   [8]  F1 94 94 02 21 FF FF 94
08/07/2025 12:21:29PM   can0  0CF00400   [8]  F1 93 93 09 21 FF FF 93
08/07/2025 12:21:29PM   can0  0CF00400   [8]  F1 93 94 FF 20 FF FF 93
08/07/2025 12:21:29PM   can0  0CF00400   [8]  F1 94 94 F3 20 FF FF 94
08/07/2025 12:21:29PM   can0  18FEF100   [8]  C3 F5 06 40 03 FF 00 FF
08/07/2025 12:21:29PM   can0  0CF00400   [8]  F1 94 95 F6 20 FF FF 94
08/07/2025 12:21:29PM   can0  0CF00400   [8]  F1 94 95 FC 20 FF FF 94
08/07/2025 12:21:29PM   can0  0CF00400   [8]  F1 94 95 1C 21 FF FF 94
08/07/2025 12:21:29PM   can0  0CF00400   [8]  F1 95 95 2F 21 FF FF 95
08/07/2025 12:21:29PM   can0  0CF00400   [8]  F1 95 95 42 21 FF FF 95
08/07/2025 12:21:29PM   can0  18FEF100   [8]  C3 F0 06 40 03 FF 00 FF
08/07/2025 12:21:29PM   can0  0CF00400   [8]  F1 95 96 52 21 FF FF 95
08/07/2025 12:21:29PM   can0  0CF00400   [8]  F1 95 96 68 21 FF FF 95
08/07/2025 12:21:30PM   can0  0CF00400   [8]  F1 95 96 8F 21 FF FF 95
08/07/2025 12:21:30PM   can0  0CF00400   [8]  F1 95 96 D0 21 FF FF 95
08/07/2025 12:21:30PM   can0  0CF00400   [8]  F1 95 96 F3 21 FF FF 95
08/07/2025 12:21:30PM   can0  18FEF100   [8]  C3 DE 06 40 03 FF 00 FF
08/07/2025 12:21:30PM   can0  0CF00400   [8]  F1 96 96 1A 22 FF FF 96
08/07/2025 12:21:30PM   can0  0CF00400   [8]  F1 96 97 48 22 FF FF 96
08/07/2025 12:21:30PM   can0  0CF00400   [8]  F1 96 97 7A 22 FF FF 96
08/07/2025 12:21:30PM   can0  0CF00400   [8]  F1 96 97 C4 22 FF FF 96
08/07/2025 12:21:30PM   can0  0CF00400   [8]  F1 96 97 02 23 FF FF 96
08/07/2025 12:21:30PM   can0  18FEF100   [8]  C3 CD 06 40 03 FF 00 FF
08/07/2025 12:21:30PM   can0  0CF00400   [8]  F1 97 97 40 23 FF FF 97
08/07/2025 12:21:30PM   can0  0CF00400   [8]  F1 98 99 7C 23 FF FF 98
08/07/2025 12:21:30PM   can0  0CF00400   [8]  F1 99 99 C2 23 FF FF 99
08/07/2025 12:21:30PM   can0  0CF00400   [8]  F1 99 99 20 24 FF FF 99
08/07/2025 12:21:30PM   can0  0CF00400   [8]  F1 9A 9B 8A 24 FF FF 9A
08/07/2025 12:21:30PM   can0  18FEF100   [8]  C3 C6 06 40 03 FF 00 FF
08/07/2025 12:21:30PM   can0  0CF00400   [8]  F1 9A 9B EC 24 FF FF 9A
08/07/2025 12:21:30PM   can0  0CF00400   [8]  F1 9A 9A 43 25 FF FF 9A
08/07/2025 12:21:30PM   can0  0CF00400   [8]  F1 9A 9B AD 25 FF FF 9A
08/07/2025 12:21:30PM   can0  0CF00400   [8]  F1 9B 9B 19 26 FF FF 9B
08/07/2025 12:21:30PM   can0  0CF00400   [8]  F1 9A 9A 94 26 FF FF 9A
08/07/2025 12:21:30PM   can0  18FEF100   [8]  C3 D1 06 40 03 FF 00 FF
08/07/2025 12:21:30PM   can0  0CF00400   [8]  F1 99 9A F8 26 FF FF 99
08/07/2025 12:21:30PM   can0  0CF00400   [8]  F1 99 9A 58 27 FF FF 99
08/07/2025 12:21:30PM   can0  0CF00400   [8]  F1 9A 9A B3 27 FF FF 9A
08/07/2025 12:21:30PM   can0  0CF00400   [8]  F1 98 99 12 28 FF FF 98
08/07/2025 12:21:30PM   can0  0CF00400   [8]  F1 98 98 60 28 FF FF 98
08/07/2025 12:21:30PM   can0  18FEF100   [8]  C3 F3 06 40 03 FF 00 FF
08/07/2025 12:21:30PM   can0  0CF00400   [8]  F1 97 98 9B 28 FF FF 97
08/07/2025 12:21:30PM   can0  0CF00400   [8]  F1 97 97 DB 28 FF FF 97
08/07/2025 12:21:30PM   can0  0CF00400   [8]  F1 96 96 06 29 FF FF 96
08/07/2025 12:21:30PM   can0  0CF00400   [8]  F1 96 96 38 29 FF FF 96
08/07/2025 12:21:30PM   can0  0CF00400   [8]  F1 96 96 51 29 FF FF 96
08/07/2025 12:21:30PM   can0  18FEF100   [8]  C3 30 07 00 03 FF 00 FF
08/07/2025 12:21:30PM   can0  0CF00400   [8]  F1 95 96 68 29 FF FF 95
08/07/2025 12:21:30PM   can0  0CF00400   [8]  F1 96 97 79 29 FF FF 96
08/07/2025 12:21:30PM   can0  0CF00400   [8]  F1 96 97 8D 29 FF FF 96
08/07/2025 12:21:30PM   can0  0CF00400   [8]  F1 97 98 9B 29 FF FF 97
08/07/2025 12:21:30PM   can0  0CF00400   [8]  F1 97 98 A0 29 FF FF 97
08/07/2025 12:21:30PM   can0  18FEF100   [8]  C3 7E 07 00 03 FF 00 FF
08/07/2025 12:21:30PM   can0  0CF00400   [8]  F1 97 98 AE 29 FF FF 97
08/07/2025 12:21:30PM   can0  0CF00400   [8]  F1 97 98 B7 29 FF FF 97
08/07/2025 12:21:30PM   can0  0CF00400   [8]  F1 97 98 D0 29 FF FF 97
08/07/2025 12:21:30PM   can0  0CF00400   [8]  F1 97 98 D4 29 FF FF 97
08/07/2025 12:21:30PM   can0  0CF00400   [8]  F1 97 98 DC 29 FF FF 97
08/07/2025 12:21:30PM   can0  18FEF100   [8]  C3 D0 07 00 03 FF 00 FF
08/07/2025 12:21:30PM   can0  0CF00400   [8]  F1 96 97 E5 29 FF FF 96
08/07/2025 12:21:30PM   can0  0CF00400   [8]  F1 97 98 F4 29 FF FF 97
08/07/2025 12:21:30PM   can0  0CF00400   [8]  F1 97 98 04 2A FF FF 97
08/07/2025 12:21:30PM   can0  0CF00400   [8]  F1 98 99 0E 2A FF FF 98
08/07/2025 12:21:30PM   can0  0CF00400   [8]  F1 98 99 25 2A FF FF 98
08/07/2025 12:21:30PM   can0  18FEF100   [8]  C3 14 08 00 03 FF 00 FF
08/07/2025 12:21:30PM   can0  0CF00400   [8]  F1 98 99 38 2A FF FF 98
08/07/2025 12:21:30PM   can0  0CF00400   [8]  F1 99 9A 63 2A FF FF 99
08/07/2025 12:21:30PM   can0  0CF00400   [8]  F1 99 9A 7C 2A FF FF 99
08/07/2025 12:21:30PM   can0  0CF00400   [8]  F1 98 99 98 2A FF FF 98
08/07/2025 12:21:30PM   can0  0CF00400   [8]  F1 97 98 BC 2A FF FF 97
08/07/2025 12:21:30PM   can0  18FEF100   [8]  C3 47 08 00 03 FF 00 FF
08/07/2025 12:21:30PM   can0  0CF00400   [8]  F1 98 99 E0 2A FF FF 98
08/07/2025 12:21:30PM   can0  0CF00400   [8]  F1 97 98 00 2B FF FF 97
08/07/2025 12:21:31PM   can0  0CF00400   [8]  F1 97 98 27 2B FF FF 97
08/07/2025 12:21:31PM   can0  0CF00400   [8]  F1 97 98 44 2B FF FF 97
08/07/2025 12:21:31PM   can0  0CF00400   [8]  F1 97 98 66 2B FF FF 97
08/07/2025 12:21:31PM   can0  18FEF100   [8]  C3 6C 08 00 03 FF 00 FF
08/07/2025 12:21:31PM   can0  0CF00400   [8]  F1 97 98 95 2B FF FF 97
08/07/2025 12:21:31PM   can0  0CF00400   [8]  F1 98 98 BA 2B FF FF 98
08/07/2025 12:21:31PM   can0  0CF00400   [8]  F1 97 98 E5 2B FF FF 97
08/07/2025 12:21:31PM   can0  0CF00400   [8]  F1 98 99 04 2C FF FF 98
08/07/2025 12:21:31PM   can0  0CF00400   [8]  F1 98 99 40 2C FF FF 98
08/07/2025 12:21:31PM   can0  18FEF100   [8]  C3 87 08 00 03 FF 00 FF
08/07/2025 12:21:31PM   can0  0CF00400   [8]  F1 98 99 6E 2C FF FF 98
08/07/2025 12:21:31PM   can0  0CF00400   [8]  F1 97 98 9E 2C FF FF 97
08/07/2025 12:21:31PM   can0  0CF00400   [8]  F1 97 98 C7 2C FF FF 97
08/07/2025 12:21:31PM   can0  0CF00400   [8]  F1 96 97 03 2D FF FF 96
08/07/2025 12:21:31PM   can0  0CF00400   [8]  F1 96 97 24 2D FF FF 96
08/07/2025 12:21:31PM   can0  18FEF100   [8]  C3 9F 08 00 03 FF 00 FF
08/07/2025 12:21:31PM   can0  0CF00400   [8]  F1 95 96 53 2D FF FF 95
08/07/2025 12:21:31PM   can0  0CF00400   [8]  F1 95 96 79 2D FF FF 95
08/07/2025 12:21:31PM   can0  0CF00400   [8]  F1 95 96 AA 2D FF FF 95
08/07/2025 12:21:31PM   can0  0CF00400   [8]  F1 94 95 C8 2D FF FF 94
08/07/2025 12:21:31PM   can0  0CF00400   [8]  F1 94 95 EF 2D FF FF 94
08/07/2025 12:21:31PM   can0  18FEF100   [8]  C3 BA 08 00 03 FF 00 FF
08/07/2025 12:21:31PM   can0  0CF00400   [8]  F1 94 95 0C 2E FF FF 94
08/07/2025 12:21:31PM   can0  0CF00400   [8]  F1 93 94 38 2E FF FF 93
08/07/2025 12:21:31PM   can0  0CF00400   [8]  F1 93 94 4B 2E FF FF 93
08/07/2025 12:21:31PM   can0  0CF00400   [8]  F1 93 94 6D 2E FF FF 93
08/07/2025 12:21:31PM   can0  0CF00400   [8]  F1 91 92 80 2E FF FF 92
08/07/2025 12:21:31PM   can0  18FEF100   [8]  C3 DC 08 00 03 FF 00 FF
08/07/2025 12:21:31PM   can0  0CF00400   [8]  F1 8C 91 A4 2E FF FF 90
08/07/2025 12:21:31PM   can0  0CF00400   [8]  F1 86 8F AA 2E FF FF 8E
08/07/2025 12:21:31PM   can0  0CF00400   [8]  F1 7D 8C B7 2E FF FF 8B
08/07/2025 12:21:31PM   can0  0CF00400   [8]  F1 7D 86 A4 2E FF FF 87
08/07/2025 12:21:31PM   can0  0CF00400   [8]  F1 7D 81 89 2E FF FF 82
08/07/2025 12:21:31PM   can0  18FEF100   [8]  C3 03 09 40 03 FF 00 FF
08/07/2025 12:21:31PM   can0  0CF00400   [8]  F0 7D 7D 43 2E FF FF 7D
08/07/2025 12:21:31PM   can0  0CF00400   [8]  F0 7D 7D E0 2D FF FF 7D
08/07/2025 12:21:31PM   can0  0CF00400   [8]  F0 7D 7D 62 2D FF FF 7D
08/07/2025 12:21:31PM   can0  0CF00400   [8]  F0 7D 7D F4 2C FF FF 7D
08/07/2025 12:21:31PM   can0  0CF00400   [8]  F0 7D 7D 89 2C FF FF 7D
08/07/2025 12:21:31PM   can0  18FEF100   [8]  C3 28 09 40 03 FF 00 FF
08/07/2025 12:21:31PM   can0  0CF00400   [8]  F0 7D 7D 23 2C FF FF 7D
08/07/2025 12:21:31PM   can0  0CF00400   [8]  F0 7D 7D B8 2B FF FF 7D
08/07/2025 12:21:31PM   can0  0CF00400   [8]  F0 7D 7D 58 2B FF FF 7D
08/07/2025 12:21:31PM   can0  0CF00400   [8]  F0 7D 7D FF 2A FF FF 7D
08/07/2025 12:21:31PM   can0  0CF00400   [8]  F0 7D 7D A3 2A FF FF 7D
08/07/2025 12:21:31PM   can0  18FEF100   [8]  C3 43 09 40 03 FF 00 FF
08/07/2025 12:21:31PM   can0  0CF00400   [8]  F0 7D 7D 41 2A FF FF 7D
08/07/2025 12:21:31PM   can0  0CF00400   [8]  F0 7D 7D DC 29 FF FF 7D
08/07/2025 12:21:31PM   can0  0CF00400   [8]  F0 7D 7D 83 29 FF FF 7D
08/07/2025 12:21:31PM   can0  0CF00400   [8]  F0 7D 7D 28 29 FF FF 7D
08/07/2025 12:21:31PM   can0  0CF00400   [8]  F0 7D 7D CF 28 FF FF 7D
08/07/2025 12:21:31PM   can0  18FEF100   [8]  C3 46 09 40 03 FF 00 FF
08/07/2025 12:21:31PM   can0  0CF00400   [8]  F0 7D 7D 69 28 FF FF 7D
08/07/2025 12:21:31PM   can0  0CF00400   [8]  F0 7D 7D 09 28 FF FF 7D
08/07/2025 12:21:31PM   can0  0CF00400   [8]  F0 7D 7D B8 27 FF FF 7D
08/07/2025 12:21:31PM   can0  0CF00400   [8]  F0 7D 7D 5D 27 FF FF 7D
08/07/2025 12:21:31PM   can0  0CF00400   [8]  F0 7D 7D 02 27 FF FF 7D
08/07/2025 12:21:31PM   can0  18FEF100   [8]  C3 30 09 40 03 FF 00 FF
08/07/2025 12:21:31PM   can0  0CF00400   [8]  F0 7D 7D A3 26 FF FF 7D
08/07/2025 12:21:31PM   can0  0CF00400   [8]  F0 7D 7D 4D 26 FF FF 7D
08/07/2025 12:21:32PM   can0  0CF00400   [8]  F0 7D 7D F4 25 FF FF 7D
08/07/2025 12:21:32PM   can0  0CF00400   [8]  F0 7D 7D A0 25 FF FF 7D
08/07/2025 12:21:32PM   can0  0CF00400   [8]  F0 7D 7D 42 25 FF FF 7D
08/07/2025 12:21:32PM   can0  18FEF100   [8]  C3 21 09 40 03 FF 00 FF
08/07/2025 12:21:32PM   can0  0CF00400   [8]  F0 7D 7D E9 24 FF FF 7D
08/07/2025 12:21:32PM   can0  0CF00400   [8]  F0 7D 7D 93 24 FF FF 7D
08/07/2025 12:21:32PM   can0  0CF00400   [8]  F0 7D 7D 43 24 FF FF 7D
08/07/2025 12:21:32PM   can0  0CF00400   [8]  F0 7D 7D EF 23 FF FF 7D
08/07/2025 12:21:32PM   can0  0CF00400   [8]  F0 7D 7D 99 23 FF FF 7D
08/07/2025 12:21:32PM   can0  18FEF100   [8]  C3 3F 09 40 03 FF 00 FF
08/07/2025 12:21:32PM   can0  0CF00400   [8]  F0 7D 7D 48 23 FF FF 7D
08/07/2025 12:21:32PM   can0  0CF00400   [8]  F0 7D 7D EB 22 FF FF 7D
08/07/2025 12:21:32PM   can0  0CF00400   [8]  F0 7D 7D A0 22 FF FF 7D
08/07/2025 12:21:32PM   can0  0CF00400   [8]  F0 7D 7D 50 22 FF FF 7D
08/07/2025 12:21:32PM   can0  0CF00400   [8]  F0 7D 7D 08 22 FF FF 7D
08/07/2025 12:21:32PM   can0  18FEF100   [8]  C3 6B 09 40 03 FF 00 FF
08/07/2025 12:21:32PM   can0  0CF00400   [8]  F0 7D 7D B1 21 FF FF 7D
08/07/2025 12:21:32PM   can0  0CF00400   [8]  F0 7D 7D 5F 21 FF FF 7D
08/07/2025 12:21:32PM   can0  0CF00400   [8]  F0 7D 7D 10 21 FF FF 7D
08/07/2025 12:21:32PM   can0  0CF00400   [8]  F0 7D 7D C7 20 FF FF 7D
08/07/2025 12:21:32PM   can0  0CF00400   [8]  F0 7D 7D 79 20 FF FF 7D
08/07/2025 12:21:32PM   can0  18FEF100   [8]  C3 85 09 40 03 FF 00 FF
08/07/2025 12:21:32PM   can0  0CF00400   [8]  F0 7D 7D 2C 20 FF FF 7D
08/07/2025 12:21:32PM   can0  0CF00400   [8]  F0 7D 7D DA 1F FF FF 7D
08/07/2025 12:21:32PM   can0  0CF00400   [8]  F0 7D 7D 84 1F FF FF 7D
08/07/2025 12:21:32PM   can0  0CF00400   [8]  F0 7D 7D 3D 1F FF FF 7D
08/07/2025 12:21:32PM   can0  0CF00400   [8]  F0 7D 7D F2 1E FF FF 7D
08/07/2025 12:21:32PM   can0  18FEF100   [8]  C3 79 09 40 03 FF 00 FF
08/07/2025 12:21:32PM   can0  0CF00400   [8]  F1 80 7F AD 1E FF FF 80
08/07/2025 12:21:32PM   can0  0CF00400   [8]  F1 83 82 6D 1E FF FF 83
08/07/2025 12:21:32PM   can0  0CF00400   [8]  F1 84 83 40 1E FF FF 84
08/07/2025 12:21:32PM   can0  0CF00400   [8]  F1 86 85 28 1E FF FF 86
08/07/2025 12:21:32PM   can0  0CF00400   [8]  F1 86 86 22 1E FF FF 86
08/07/2025 12:21:32PM   can0  18FEF100   [8]  C3 31 09 40 03 FF 00 FF
08/07/2025 12:21:32PM   can0  0CF00400   [8]  F1 86 87 28 1E FF FF 86
08/07/2025 12:21:32PM   can0  0CF00400   [8]  F1 87 88 1C 1E FF FF 87
08/07/2025 12:21:32PM   can0  0CF00400   [8]  F1 88 89 22 1E FF FF 88
08/07/2025 12:21:32PM   can0  0CF00400   [8]  F1 89 8A 25 1E FF FF 89
08/07/2025 12:21:32PM   can0  0CF00400   [8]  F1 8B 8C 2D 1E FF FF 8B
08/07/2025 12:21:32PM   can0  18FEF100   [8]  C3 F0 08 40 03 FF 00 FF
08/07/2025 12:21:32PM   can0  0CF00400   [8]  F1 8D 8E 48 1E FF FF 8D
08/07/2025 12:21:32PM   can0  0CF00400   [8]  F1 8F 90 76 1E FF FF 8F
08/07/2025 12:21:32PM   can0  0CF00400   [8]  F1 90 91 9E 1E FF FF 90
08/07/2025 12:21:32PM   can0  0CF00400   [8]  F1 90 91 D5 1E FF FF 90
08/07/2025 12:21:32PM   can0  0CF00400   [8]  F1 90 91 EE 1E FF FF 90
08/07/2025 12:21:32PM   can0  18FEF100   [8]  C3 F7 08 40 03 FF 00 FF
08/07/2025 12:21:32PM   can0  0CF00400   [8]  F1 90 91 FF 1E FF FF 90
08/07/2025 12:21:32PM   can0  0CF00400   [8]  F1 90 91 30 1F FF FF 90
08/07/2025 12:21:32PM   can0  0CF00400   [8]  F1 90 91 75 1F FF FF 90
08/07/2025 12:21:32PM   can0  0CF00400   [8]  F1 91 92 98 1F FF FF 91
08/07/2025 12:21:32PM   can0  0CF00400   [8]  F1 91 92 C0 1F FF FF 91
08/07/2025 12:21:32PM   can0  18FEF100   [8]  C3 03 09 40 03 FF 00 FF
08/07/2025 12:21:32PM   can0  0CF00400   [8]  F1 92 93 E8 1F FF FF 92
08/07/2025 12:21:32PM   can0  0CF00400   [8]  F1 94 95 08 20 FF FF 94
08/07/2025 12:21:32PM   can0  0CF00400   [8]  F1 94 95 2E 20 FF FF 94
08/07/2025 12:21:32PM   can0  0CF00400   [8]  F1 97 98 60 20 FF FF 97
08/07/2025 12:21:32PM   can0  0CF00400   [8]  F1 9B 9A 74 20 FF FF 9A
08/07/2025 12:21:32PM   can0  18FEF100   [8]  C3 F7 08 40 03 FF 00 FF
08/07/2025 12:21:32PM   can0  0CF00400   [8]  F1 9D 9C 92 20 FF FF 9B
08/07/2025 12:21:32PM   can0  0CF00400   [8]  F1 A0 9E C1 20 FF FF 9D
08/07/2025 12:21:33PM   can0  0CF00400   [8]  F1 A2 A0 F1 20 FF FF 9F
08/07/2025 12:21:33PM   can0  0CF00400   [8]  F1 A3 A2 2B 21 FF FF A2
08/07/2025 12:21:33PM   can0  0CF00400   [8]  F1 A3 A4 67 21 FF FF A3
08/07/2025 12:21:33PM   can0  18FEF100   [8]  C3 F8 08 40 03 FF 00 FF
08/07/2025 12:21:33PM   can0  0CF00400   [8]  F1 A3 A4 98 21 FF FF A3
08/07/2025 12:21:33PM   can0  0CF00400   [8]  F1 A2 A3 B5 21 FF FF A2
08/07/2025 12:21:33PM   can0  0CF00400   [8]  F1 A2 A3 DF 21 FF FF A2
08/07/2025 12:21:33PM   can0  0CF00400   [8]  F1 A2 A3 FC 21 FF FF A2
08/07/2025 12:21:33PM   can0  0CF00400   [8]  F1 A1 A2 1A 22 FF FF A1
08/07/2025 12:21:33PM   can0  18FEF100   [8]  C3 12 09 40 03 FF 00 FF
08/07/2025 12:21:33PM   can0  0CF00400   [8]  F1 A1 A2 17 22 FF FF A1
08/07/2025 12:21:33PM   can0  0CF00400   [8]  F1 A1 A2 08 22 FF FF A1
08/07/2025 12:21:33PM   can0  0CF00400   [8]  F1 A1 A2 FA 21 FF FF A1
08/07/2025 12:21:33PM   can0  0CF00400   [8]  F1 A1 A2 FA 21 FF FF A1
08/07/2025 12:21:33PM   can0  0CF00400   [8]  F1 A1 A2 FF 21 FF FF A1
08/07/2025 12:21:33PM   can0  18FEF100   [8]  C3 41 09 40 03 FF 00 FF
08/07/2025 12:21:33PM   can0  0CF00400   [8]  F1 A1 A2 01 22 FF FF A1
08/07/2025 12:21:33PM   can0  0CF00400   [8]  F1 A1 A2 F4 21 FF FF A1
08/07/2025 12:21:33PM   can0  0CF00400   [8]  F1 A1 A2 D9 21 FF FF A1
08/07/2025 12:21:33PM   can0  0CF00400   [8]  F1 A2 A3 E0 21 FF FF A2
08/07/2025 12:21:33PM   can0  0CF00400   [8]  F1 A3 A4 E4 21 FF FF A3
08/07/2025 12:21:33PM   can0  18FEF100   [8]  C3 77 09 40 03 FF 00 FF
08/07/2025 12:21:33PM   can0  0CF00400   [8]  F1 A4 A5 F4 21 FF FF A4
08/07/2025 12:21:33PM   can0  0CF00400   [8]  F1 A5 A5 EF 21 FF FF A5
08/07/2025 12:21:33PM   can0  0CF00400   [8]  F1 A6 A6 F0 21 FF FF A6
08/07/2025 12:21:33PM   can0  0CF00400   [8]  F1 A6 A7 05 22 FF FF A6
08/07/2025 12:21:33PM   can0  0CF00400   [8]  F1 A7 A8 32 22 FF FF A7
08/07/2025 12:21:33PM   can0  18FEF100   [8]  C3 A3 09 40 03 FF 00 FF
08/07/2025 12:21:33PM   can0  0CF00400   [8]  F1 A7 A8 58 22 FF FF A7
08/07/2025 12:21:33PM   can0  0CF00400   [8]  F1 A6 A7 8C 22 FF FF A6
08/07/2025 12:21:33PM   can0  0CF00400   [8]  F1 A6 A7 B0 22 FF FF A6
08/07/2025 12:21:33PM   can0  0CF00400   [8]  F1 A6 A7 CB 22 FF FF A6
08/07/2025 12:21:33PM   can0  0CF00400   [8]  F1 A5 A6 09 23 FF FF A5
08/07/2025 12:21:33PM   can0  18FEF100   [8]  C3 C3 09 40 03 FF 00 FF
08/07/2025 12:21:33PM   can0  0CF00400   [8]  F1 A5 A6 4F 23 FF FF A5
08/07/2025 12:21:33PM   can0  0CF00400   [8]  F1 A5 A6 98 23 FF FF A5
08/07/2025 12:21:33PM   can0  0CF00400   [8]  F1 A4 A5 C5 23 FF FF A4
08/07/2025 12:21:33PM   can0  0CF00400   [8]  F1 A5 A6 FC 23 FF FF A5
08/07/2025 12:21:33PM   can0  0CF00400   [8]  F1 A5 A5 3C 24 FF FF A5
08/07/2025 12:21:33PM   can0  18FEF100   [8]  C3 DC 09 00 03 FF 00 FF
08/07/2025 12:21:33PM   can0  0CF00400   [8]  F1 A5 A5 80 24 FF FF A5
08/07/2025 12:21:33PM   can0  0CF00400   [8]  F1 A5 A6 D4 24 FF FF A5
08/07/2025 12:21:33PM   can0  0CF00400   [8]  F1 A6 A6 0C 25 FF FF A6
08/07/2025 12:21:33PM   can0  0CF00400   [8]  F1 A6 A7 44 25 FF FF A6
08/07/2025 12:21:33PM   can0  0CF00400   [8]  F1 A6 A7 8C 25 FF FF A6
08/07/2025 12:21:33PM   can0  18FEF100   [8]  C3 F9 09 00 03 FF 00 FF
08/07/2025 12:21:33PM   can0  0CF00400   [8]  F1 A6 A7 D7 25 FF FF A6
08/07/2025 12:21:33PM   can0  0CF00400   [8]  F1 A7 A7 2C 26 FF FF A7
08/07/2025 12:21:33PM   can0  0CF00400   [8]  F1 A7 A7 62 26 FF FF A7
08/07/2025 12:21:33PM   can0  0CF00400   [8]  F1 A7 A7 A0 26 FF FF A7
08/07/2025 12:21:33PM   can0  0CF00400   [8]  F1 A7 A8 E7 26 FF FF A7
08/07/2025 12:21:33PM   can0  18FEF100   [8]  C3 24 0A 00 03 FF 00 FF
08/07/2025 12:21:33PM   can0  0CF00400   [8]  F1 A6 A7 32 27 FF FF A6
08/07/2025 12:21:33PM   can0  0CF00400   [8]  F1 A6 A7 85 27 FF FF A6
08/07/2025 12:21:33PM   can0  0CF00400   [8]  F1 A6 A7 AF 27 FF FF A6
08/07/2025 12:21:33PM   can0  0CF00400   [8]  F1 A5 A6 DC 27 FF FF A5
08/07/2025 12:21:33PM   can0  0CF00400   [8]  F1 A6 A6 0F 28 FF FF A6
08/07/2025 12:21:33PM   can0  18FEF100   [8]  C3 64 0A 00 03 FF 00 FF
08/07/2025 12:21:33PM   can0  0CF00400   [8]  F1 A6 A6 4C 28 FF FF A6
08/07/2025 12:21:33PM   can0  0CF00400   [8]  F1 A6 A6 77 28 FF FF A6
08/07/2025 12:21:34PM   can0  0CF00400   [8]  F1 A5 A6 91 28 FF FF A5
08/07/2025 12:21:34PM   can0  0CF00400   [8]  F1 A5 A6 BA 28 FF FF A5
08/07/2025 12:21:34PM   can0  0CF00400   [8]  F1 A5 A6 DF 28 FF FF A5
08/07/2025 12:21:34PM   can0  18FEF100   [8]  C3 B6 0A 00 03 FF 00 FF
08/07/2025 12:21:34PM   can0  0CF00400   [8]  F1 A4 A5 0C 29 FF FF A4
08/07/2025 12:21:34PM   can0  0CF00400   [8]  F1 A4 A5 18 29 FF FF A4
08/07/2025 12:21:34PM   can0  0CF00400   [8]  F1 A4 A5 24 29 FF FF A4
08/07/2025 12:21:34PM   can0  0CF00400   [8]  F1 A3 A4 3A 29 FF FF A3
08/07/2025 12:21:34PM   can0  0CF00400   [8]  F1 A3 A4 48 29 FF FF A3
08/07/2025 12:21:34PM   can0  18FEF100   [8]  C3 0E 0B 00 03 FF 00 FF
08/07/2025 12:21:34PM   can0  0CF00400   [8]  F1 A3 A4 64 29 FF FF A3
08/07/2025 12:21:34PM   can0  0CF00400   [8]  F1 A3 A4 62 29 FF FF A3
08/07/2025 12:21:34PM   can0  0CF00400   [8]  F1 A3 A4 6A 29 FF FF A3
08/07/2025 12:21:34PM   can0  0CF00400   [8]  F1 A3 A4 80 29 FF FF A3
08/07/2025 12:21:34PM   can0  0CF00400   [8]  F1 A3 A4 9F 29 FF FF A3
08/07/2025 12:21:34PM   can0  18FEF100   [8]  C3 62 0B 00 03 FF 00 FF
08/07/2025 12:21:34PM   can0  0CF00400   [8]  F1 A3 A4 AC 29 FF FF A3
08/07/2025 12:21:34PM   can0  0CF00400   [8]  F1 A2 A3 BB 29 FF FF A2
08/07/2025 12:21:34PM   can0  0CF00400   [8]  F1 A2 A3 D9 29 FF FF A2
08/07/2025 12:21:34PM   can0  0CF00400   [8]  F1 A2 A3 EF 29 FF FF A2
08/07/2025 12:21:34PM   can0  0CF00400   [8]  F1 A2 A3 1C 2A FF FF A2
08/07/2025 12:21:34PM   can0  18FEF100   [8]  C3 AA 0B 00 03 FF 00 FF
08/07/2025 12:21:34PM   can0  0CF00400   [8]  F1 A2 A3 31 2A FF FF A2
08/07/2025 12:21:34PM   can0  0CF00400   [8]  F1 A1 A2 46 2A FF FF A1
08/07/2025 12:21:34PM   can0  0CF00400   [8]  F1 A1 A2 68 2A FF FF A1
08/07/2025 12:21:34PM   can0  0CF00400   [8]  F1 A1 A2 9B 2A FF FF A1
08/07/2025 12:21:34PM   can0  0CF00400   [8]  F1 A1 A2 BB 2A FF FF A1
08/07/2025 12:21:34PM   can0  18FEF100   [8]  C3 E0 0B 00 03 FF 00 FF
08/07/2025 12:21:34PM   can0  0CF00400   [8]  F1 A0 A1 DE 2A FF FF A0
08/07/2025 12:21:34PM   can0  0CF00400   [8]  F1 A0 A1 07 2B FF FF A0
08/07/2025 12:21:34PM   can0  0CF00400   [8]  F1 9F A0 3B 2B FF FF 9F
08/07/2025 12:21:34PM   can0  0CF00400   [8]  F1 9F A0 70 2B FF FF 9F
08/07/2025 12:21:34PM   can0  0CF00400   [8]  F1 9F A0 97 2B FF FF 9F
08/07/2025 12:21:34PM   can0  18FEF100   [8]  C3 0A 0C 00 03 FF 00 FF
08/07/2025 12:21:34PM   can0  0CF00400   [8]  F1 9E 9F D0 2B FF FF 9E
08/07/2025 12:21:34PM   can0  0CF00400   [8]  F1 9F A0 08 2C FF FF 9F
08/07/2025 12:21:34PM   can0  0CF00400   [8]  F1 9E 9F 52 2C FF FF 9E
08/07/2025 12:21:34PM   can0  0CF00400   [8]  F1 9F A0 84 2C FF FF 9F
08/07/2025 12:21:34PM   can0  0CF00400   [8]  F1 9F A0 BC 2C FF FF 9F
08/07/2025 12:21:34PM   can0  18FEF100   [8]  C3 34 0C 00 03 FF 00 FF
08/07/2025 12:21:34PM   can0  0CF00400   [8]  F1 9F A0 FB 2C FF FF 9F
08/07/2025 12:21:34PM   can0  0CF00400   [8]  F1 9F A0 4B 2D FF FF 9F
08/07/2025 12:21:34PM   can0  0CF00400   [8]  F1 9F A0 83 2D FF FF 9F
08/07/2025 12:21:34PM   can0  0CF00400   [8]  F1 9E 9F BF 2D FF FF 9E
08/07/2025 12:21:34PM   can0  0CF00400   [8]  F1 9E 9F F5 2D FF FF 9E
08/07/2025 12:21:34PM   can0  18FEF100   [8]  C3 60 0C 00 03 FF 00 FF
08/07/2025 12:21:34PM   can0  0CF00400   [8]  F1 9D 9E 38 2E FF FF 9D
08/07/2025 12:21:34PM   can0  0CF00400   [8]  F1 9D 9E 5D 2E FF FF 9D
08/07/2025 12:21:34PM   can0  0CF00400   [8]  F1 9C 9D 87 2E FF FF 9C
08/07/2025 12:21:34PM   can0  0CF00400   [8]  F1 9C 9D A8 2E FF FF 9C
08/07/2025 12:21:34PM   can0  0CF00400   [8]  F1 9B 9C D8 2E FF FF 9B
08/07/2025 12:21:34PM   can0  18FEF100   [8]  C3 96 0C 00 03 FF 00 FF
08/07/2025 12:21:34PM   can0  0CF00400   [8]  F1 9B 9C EC 2E FF FF 9B
08/07/2025 12:21:34PM   can0  0CF00400   [8]  F1 9B 9C 00 2F FF FF 9B
08/07/2025 12:21:34PM   can0  0CF00400   [8]  F1 99 9A 10 2F FF FF 99
08/07/2025 12:21:34PM   can0  0CF00400   [8]  F1 99 9A 26 2F FF FF 99
08/07/2025 12:21:34PM   can0  0CF00400   [8]  F1 99 9A 1C 2F FF FF 99
08/07/2025 12:21:34PM   can0  18FEF100   [8]  C3 DA 0C 00 03 FF 00 FF
08/07/2025 12:21:34PM   can0  0CF00400   [8]  F1 99 9A 1E 2F FF FF 99
08/07/2025 12:21:34PM   can0  0CF00400   [8]  F1 99 9A 1A 2F FF FF 99
08/07/2025 12:21:35PM   can0  0CF00400   [8]  F1 99 9A 2A 2F FF FF 99
08/07/2025 12:21:35PM   can0  0CF00400   [8]  F1 99 9A 25 2F FF FF 99
08/07/2025 12:21:35PM   can0  0CF00400   [8]  F1 99 9A 26 2F FF FF 99
08/07/2025 12:21:35PM   can0  18FEF100   [8]  C3 21 0D 00 03 FF 00 FF
08/07/2025 12:21:35PM   can0  0CF00400   [8]  F1 99 9A 24 2F FF FF 99
08/07/2025 12:21:35PM   can0  0CF00400   [8]  F1 99 9A 40 2F FF FF 99
08/07/2025 12:21:35PM   can0  0CF00400   [8]  F1 99 9A 48 2F FF FF 99
08/07/2025 12:21:35PM   can0  0CF00400   [8]  F1 99 9A 55 2F FF FF 99
08/07/2025 12:21:35PM   can0  0CF00400   [8]  F1 99 9A 65 2F FF FF 99
08/07/2025 12:21:35PM   can0  18FEF100   [8]  C3 5F 0D 00 03 FF 00 FF
08/07/2025 12:21:35PM   can0  0CF00400   [8]  F1 99 9A 8A 2F FF FF 99
08/07/2025 12:21:35PM   can0  0CF00400   [8]  F1 98 99 A0 2F FF FF 98
08/07/2025 12:21:35PM   can0  0CF00400   [8]  F1 98 99 BA 2F FF FF 98
08/07/2025 12:21:35PM   can0  0CF00400   [8]  F1 98 99 D1 2F FF FF 98
08/07/2025 12:21:35PM   can0  0CF00400   [8]  F1 98 99 FD 2F FF FF 98
08/07/2025 12:21:35PM   can0  18FEF100   [8]  C3 8E 0D 00 03 FF 00 FF
08/07/2025 12:21:35PM   can0  0CF00400   [8]  F1 98 99 1A 30 FF FF 98
08/07/2025 12:21:35PM   can0  0CF00400   [8]  F1 97 98 34 30 FF FF 97
08/07/2025 12:21:35PM   can0  0CF00400   [8]  F1 97 98 4D 30 FF FF 97
08/07/2025 12:21:35PM   can0  0CF00400   [8]  F1 97 98 7A 30 FF FF 97
08/07/2025 12:21:35PM   can0  0CF00400   [8]  F1 97 98 90 30 FF FF 97
08/07/2025 12:21:35PM   can0  18FEF100   [8]  C3 AE 0D 00 03 FF 00 FF
08/07/2025 12:21:35PM   can0  0CF00400   [8]  F1 96 97 B3 30 FF FF 96
08/07/2025 12:21:35PM   can0  0CF00400   [8]  F1 96 97 CB 30 FF FF 96
08/07/2025 12:21:35PM   can0  0CF00400   [8]  F1 96 97 E8 30 FF FF 96
08/07/2025 12:21:35PM   can0  0CF00400   [8]  F1 96 97 04 31 FF FF 96
08/07/2025 12:21:35PM   can0  0CF00400   [8]  F1 96 97 1E 31 FF FF 96
08/07/2025 12:21:35PM   can0  18FEF100   [8]  C3 CA 0D 00 03 FF 00 FF
08/07/2025 12:21:35PM   can0  0CF00400   [8]  F1 95 96 3A 31 FF FF 95
08/07/2025 12:21:35PM   can0  0CF00400   [8]  F1 95 96 50 31 FF FF 95
08/07/2025 12:21:35PM   can0  0CF00400   [8]  F1 95 96 63 31 FF FF 95
08/07/2025 12:21:35PM   can0  0CF00400   [8]  F1 94 95 68 31 FF FF 95
08/07/2025 12:21:35PM   can0  0CF00400   [8]  F1 94 95 88 31 FF FF 94
08/07/2025 12:21:35PM   can0  18FEF100   [8]  C3 E8 0D 00 03 FF 00 FF
08/07/2025 12:21:35PM   can0  0CF00400   [8]  F1 94 95 8C 31 FF FF 94
08/07/2025 12:21:35PM   can0  0CF00400   [8]  F1 93 94 9C 31 FF FF 93
08/07/2025 12:21:35PM   can0  0CF00400   [8]  F1 94 95 A0 31 FF FF 94
08/07/2025 12:21:35PM   can0  0CF00400   [8]  F1 94 95 C0 31 FF FF 94
08/07/2025 12:21:35PM   can0  0CF00400   [8]  F1 94 95 CE 31 FF FF 94
08/07/2025 12:21:35PM   can0  18FEF100   [8]  C3 08 0E 00 03 FF 00 FF
08/07/2025 12:21:35PM   can0  0CF00400   [8]  F1 94 95 E0 31 FF FF 94
08/07/2025 12:21:35PM   can0  0CF00400   [8]  F1 93 94 F1 31 FF FF 94
08/07/2025 12:21:35PM   can0  0CF00400   [8]  F1 93 94 1A 32 FF FF 93
08/07/2025 12:21:35PM   can0  0CF00400   [8]  F1 90 92 2F 32 FF FF 92
08/07/2025 12:21:35PM   can0  0CF00400   [8]  F1 8A 91 34 32 FF FF 90
08/07/2025 12:21:35PM   can0  18FEF100   [8]  C3 2A 0E 00 03 FF 00 FF
08/07/2025 12:21:35PM   can0  0CF00400   [8]  F1 83 8C 1E 32 FF FF 8B
08/07/2025 12:21:35PM   can0  0CF00400   [8]  F1 7D 86 17 32 FF FF 87
08/07/2025 12:21:35PM   can0  0CF00400   [8]  F1 7D 81 E8 31 FF FF 82
08/07/2025 12:21:35PM   can0  0CF00400   [8]  F0 7D 7D 95 31 FF FF 7D
08/07/2025 12:21:35PM   can0  0CF00400   [8]  F0 7D 7D 46 31 FF FF 7D
08/07/2025 12:21:35PM   can0  18FEF100   [8]  C3 4A 0E 40 03 FF 00 FF
08/07/2025 12:21:35PM   can0  0CF00400   [8]  F0 7D 7D CD 30 FF FF 7D
08/07/2025 12:21:35PM   can0  0CF00400   [8]  F0 7D 7D 60 30 FF FF 7D
08/07/2025 12:21:35PM   can0  0CF00400   [8]  F0 7D 7D F1 2F FF FF 7D
08/07/2025 12:21:35PM   can0  0CF00400   [8]  F0 7D 7D 8E 2F FF FF 7D
08/07/2025 12:21:35PM   can0  0CF00400   [8]  F0 7D 7D 21 2F FF FF 7D
08/07/2025 12:21:35PM   can0  18FEF100   [8]  C3 65 0E 40 03 FF 00 FF
08/07/2025 12:21:35PM   can0  0CF00400   [8]  F0 7D 7D BA 2E FF FF 7D
08/07/2025 12:21:35PM   can0  0CF00400   [8]  F0 7D 7D 4C 2E FF FF 7D
08/07/2025 12:21:36PM   can0  0CF00400   [8]  F0 7D 7D EE 2D FF FF 7D
08/07/2025 12:21:36PM   can0  0CF00400   [8]  F0 7D 7D 82 2D FF FF 7D
08/07/2025 12:21:36PM   can0  0CF00400   [8]  F0 7D 7D 1D 2D FF FF 7D
08/07/2025 12:21:36PM   can0  18FEF100   [8]  C3 6E 0E 40 03 FF 00 FF
08/07/2025 12:21:36PM   can0  0CF00400   [8]  F0 7D 7D A8 2C FF FF 7D
08/07/2025 12:21:36PM   can0  0CF00400   [8]  F0 7D 7D 44 2C FF FF 7D
08/07/2025 12:21:36PM   can0  0CF00400   [8]  F0 7D 7D DC 2B FF FF 7D
08/07/2025 12:21:36PM   can0  0CF00400   [8]  F0 7D 7D 75 2B FF FF 7D
08/07/2025 12:21:36PM   can0  0CF00400   [8]  F0 7D 7D 09 2B FF FF 7D
08/07/2025 12:21:36PM   can0  18FEF100   [8]  C3 5B 0E 40 03 FF 00 FF
08/07/2025 12:21:36PM   can0  0CF00400   [8]  F0 7D 7D 98 2A FF FF 7D
08/07/2025 12:21:36PM   can0  0CF00400   [8]  F0 7D 7D 38 2A FF FF 7D
08/07/2025 12:21:36PM   can0  0CF00400   [8]  F0 7D 7D D4 29 FF FF 7D
08/07/2025 12:21:36PM   can0  0CF00400   [8]  F0 7D 7D 69 29 FF FF 7D
08/07/2025 12:21:36PM   can0  0CF00400   [8]  F0 7D 7D 02 29 FF FF 7D
08/07/2025 12:21:36PM   can0  18FEF100   [8]  C3 70 0E 40 03 FF 00 FF
08/07/2025 12:21:36PM   can0  0CF00400   [8]  F0 7D 7D 9F 28 FF FF 7D
08/07/2025 12:21:36PM   can0  0CF00400   [8]  F0 7D 7D 39 28 FF FF 7D
08/07/2025 12:21:36PM   can0  0CF00400   [8]  F0 7D 7D D7 27 FF FF 7D
08/07/2025 12:21:36PM   can0  0CF00400   [8]  F0 7D 7D 6F 27 FF FF 7D
08/07/2025 12:21:36PM   can0  0CF00400   [8]  F0 7D 7D 04 27 FF FF 7D
08/07/2025 12:21:36PM   can0  18FEF100   [8]  C3 B3 0E 40 03 FF 00 FF
08/07/2025 12:21:36PM   can0  0CF00400   [8]  F0 7D 7D AC 26 FF FF 7D
08/07/2025 12:21:36PM   can0  0CF00400   [8]  F0 7D 7D 48 26 FF FF 7D
08/07/2025 12:21:36PM   can0  0CF00400   [8]  F0 7D 7D ED 25 FF FF 7D
08/07/2025 12:21:36PM   can0  0CF00400   [8]  F0 7D 7D 80 25 FF FF 7D
08/07/2025 12:21:36PM   can0  0CF00400   [8]  F0 7D 7D 1C 25 FF FF 7D
08/07/2025 12:21:36PM   can0  18FEF100   [8]  C3 D1 0E 40 03 FF 00 FF
08/07/2025 12:21:36PM   can0  0CF00400   [8]  F0 7D 7D C2 24 FF FF 7D
08/07/2025 12:21:36PM   can0  0CF00400   [8]  F0 7D 7D 64 24 FF FF 7D
08/07/2025 12:21:36PM   can0  0CF00400   [8]  F0 7D 7D 0B 24 FF FF 7D
08/07/2025 12:21:36PM   can0  0CF00400   [8]  F0 7D 7D A4 23 FF FF 7D
08/07/2025 12:21:36PM   can0  0CF00400   [8]  F0 7D 7D 42 23 FF FF 7D
08/07/2025 12:21:36PM   can0  18FEF100   [8]  C3 D9 0E 40 03 FF 00 FF
08/07/2025 12:21:36PM   can0  0CF00400   [8]  F0 7D 7D E9 22 FF FF 7D
08/07/2025 12:21:36PM   can0  0CF00400   [8]  F0 7D 7D 8B 22 FF FF 7D
08/07/2025 12:21:36PM   can0  0CF00400   [8]  F0 7D 7D 31 22 FF FF 7D
08/07/2025 12:21:36PM   can0  0CF00400   [8]  F0 7D 7D D2 21 FF FF 7D
08/07/2025 12:21:36PM   can0  0CF00400   [8]  F0 7D 7D 6E 21 FF FF 7D
08/07/2025 12:21:36PM   can0  18FEF100   [8]  C3 E2 0E 40 03 FF 00 FF
08/07/2025 12:21:36PM   can0  0CF00400   [8]  F0 7D 7D 14 21 FF FF 7D
08/07/2025 12:21:36PM   can0  0CF00400   [8]  F0 7D 7D C0 20 FF FF 7D
08/07/2025 12:21:36PM   can0  0CF00400   [8]  F0 7D 7D 65 20 FF FF 7D
08/07/2025 12:21:36PM   can0  0CF00400   [8]  F0 7D 7D 12 20 FF FF 7D
08/07/2025 12:21:36PM   can0  0CF00400   [8]  F0 7D 7D B4 1F FF FF 7D
08/07/2025 12:21:36PM   can0  18FEF100   [8]  C3 D6 0E 40 03 FF 00 FF
08/07/2025 12:21:36PM   can0  0CF00400   [8]  F0 7D 7D 57 1F FF FF 7D
08/07/2025 12:21:36PM   can0  0CF00400   [8]  F0 7D 7D FE 1E FF FF 7D
08/07/2025 12:21:36PM   can0  0CF00400   [8]  F0 7D 7D B0 1E FF FF 7D
08/07/2025 12:21:36PM   can0  0CF00400   [8]  F0 7D 7D 5B 1E FF FF 7D
08/07/2025 12:21:36PM   can0  0CF00400   [8]  F0 7D 7D 08 1E FF FF 7D
08/07/2025 12:21:36PM   can0  18FEF100   [8]  C3 DD 0E 40 03 FF 00 FF
08/07/2025 12:21:36PM   can0  0CF00400   [8]  F0 7D 7D AA 1D FF FF 7D
08/07/2025 12:21:36PM   can0  0CF00400   [8]  F0 7D 7D 50 1D FF FF 7D
08/07/2025 12:21:36PM   can0  0CF00400   [8]  F0 7D 7D FF 1C FF FF 7D
08/07/2025 12:21:36PM   can0  0CF00400   [8]  F0 7D 7D B2 1C FF FF 7D
08/07/2025 12:21:36PM   can0  0CF00400   [8]  F0 7D 7D 5E 1C FF FF 7D
08/07/2025 12:21:36PM   can0  18FEF100   [8]  C3 14 0F 40 03 FF 00 FF
08/07/2025 12:21:36PM   can0  0CF00400   [8]  F0 7D 7D 19 1C FF FF 7D
08/07/2025 12:21:36PM   can0  0CF00400   [8]  F0 7D 7D C4 1B FF FF 7D
08/07/2025 12:21:37PM   can0  0CF00400   [8]  F0 7D 7D 6D 1B FF FF 7D
08/07/2025 12:21:37PM   can0  0CF00400   [8]  F0 7D 7D 1B 1B FF FF 7D
08/07/2025 12:21:37PM   can0  0CF00400   [8]  F0 7D 7D C5 1A FF FF 7D
08/07/2025 12:21:37PM   can0  18FEF100   [8]  C3 1F 0F 40 03 FF 00 FF
08/07/2025 12:21:37PM   can0  0CF00400   [8]  F0 7D 7D 7C 1A FF FF 7D
08/07/2025 12:21:37PM   can0  0CF00400   [8]  F0 7D 7D 2C 1A FF FF 7D
08/07/2025 12:21:37PM   can0  0CF00400   [8]  F0 7D 7D E7 19 FF FF 7D
08/07/2025 12:21:37PM   can0  0CF00400   [8]  F0 7D 7D 92 19 FF FF 7D
08/07/2025 12:21:37PM   can0  0CF00400   [8]  F1 84 83 3B 19 FF FF 84
08/07/2025 12:21:37PM   can0  18FEF100   [8]  C3 07 0F 40 03 FF 00 FF
08/07/2025 12:21:37PM   can0  0CF00400   [8]  F1 87 86 E4 18 FF FF 87
08/07/2025 12:21:37PM   can0  0CF00400   [8]  F1 87 87 C4 18 FF FF 87
08/07/2025 12:21:37PM   can0  0CF00400   [8]  F1 88 88 C6 18 FF FF 88
08/07/2025 12:21:37PM   can0  0CF00400   [8]  F1 8A 8B CB 18 FF FF 8A
08/07/2025 12:21:37PM   can0  0CF00400   [8]  F1 8E 8F BD 18 FF FF 8E
08/07/2025 12:21:37PM   can0  18FEF100   [8]  C3 20 0F 40 03 FF 00 FF
08/07/2025 12:21:37PM   can0  0CF00400   [8]  F1 95 96 C8 18 FF FF 95
08/07/2025 12:21:37PM   can0  0CF00400   [8]  F1 9A 99 EC 18 FF FF 99
08/07/2025 12:21:37PM   can0  0CF00400   [8]  F1 9E 9C 4D 19 FF FF 9C
08/07/2025 12:21:37PM   can0  0CF00400   [8]  F1 9F A0 DB 19 FF FF 9F
08/07/2025 12:21:37PM   can0  0CF00400   [8]  F1 9F A0 8D 1A FF FF 9F
08/07/2025 12:21:37PM   can0  18FEF100   [8]  C3 15 0F 40 03 FF 00 FF
08/07/2025 12:21:37PM   can0  0CF00400   [8]  F1 9E 9F 79 1B FF FF 9E
08/07/2025 12:21:37PM   can0  0CF00400   [8]  F1 9D 9E 43 1C FF FF 9D
08/07/2025 12:21:37PM   can0  0CF00400   [8]  F1 9D 9E 0E 1D FF FF 9D
08/07/2025 12:21:37PM   can0  0CF00400   [8]  F1 9B 9C DD 1D FF FF 9B
08/07/2025 12:21:37PM   can0  0CF00400   [8]  F1 9A 9B 9F 1E FF FF 9A
08/07/2025 12:21:37PM   can0  18FEF100   [8]  C3 E7 0E 40 03 FF 00 FF
08/07/2025 12:21:37PM   can0  0CF00400   [8]  F1 98 99 51 1F FF FF 98
08/07/2025 12:21:37PM   can0  0CF00400   [8]  F1 97 98 13 20 FF FF 97
08/07/2025 12:21:37PM   can0  0CF00400   [8]  F1 95 96 C2 20 FF FF 95
08/07/2025 12:21:37PM   can0  0CF00400   [8]  F1 94 95 68 21 FF FF 94
08/07/2025 12:21:37PM   can0  0CF00400   [8]  F1 92 94 08 22 FF FF 92
08/07/2025 12:21:37PM   can0  18FEF100   [8]  C3 DC 0E 40 03 FF 00 FF
08/07/2025 12:21:37PM   can0  0CF00400   [8]  F1 91 92 B0 22 FF FF 91
08/07/2025 12:21:37PM   can0  0CF00400   [8]  F1 90 91 42 23 FF FF 90
08/07/2025 12:21:37PM   can0  0CF00400   [8]  F1 8F 90 DD 23 FF FF 8F
08/07/2025 12:21:37PM   can0  0CF00400   [8]  F1 8F 8F 6E 24 FF FF 8F
08/07/2025 12:21:37PM   can0  0CF00400   [8]  F1 8E 8F E4 24 FF FF 8E
08/07/2025 12:21:37PM   can0  18FEF100   [8]  C3 DC 0E 40 03 FF 00 FF
08/07/2025 12:21:37PM   can0  0CF00400   [8]  F1 8D 8E 51 25 FF FF 8D
08/07/2025 12:21:37PM   can0  0CF00400   [8]  F1 8C 8D AD 25 FF FF 8C
08/07/2025 12:21:37PM   can0  0CF00400   [8]  F1 8B 8C F8 25 FF FF 8B
08/07/2025 12:21:37PM   can0  0CF00400   [8]  F1 8A 8B 2E 26 FF FF 8A
08/07/2025 12:21:37PM   can0  0CF00400   [8]  F1 8A 8B 4E 26 FF FF 8A
08/07/2025 12:21:37PM   can0  0CF00400   [8]  F1 8A 8B 6C 26 FF FF 8A
08/07/2025 12:21:37PM   can0  18FEF100   [8]  C3 D9 0E 40 03 FF 00 FF
08/07/2025 12:21:37PM   can0  0CF00400   [8]  F1 89 8A 80 26 FF FF 89
08/07/2025 12:21:37PM   can0  0CF00400   [8]  F1 89 8A 90 26 FF FF 89
08/07/2025 12:21:37PM   can0  0CF00400   [8]  F1 89 8A A8 26 FF FF 89
08/07/2025 12:21:37PM   can0  0CF00400   [8]  F1 89 8A 9F 26 FF FF 89
08/07/2025 12:21:37PM   can0  18FEF100   [8]  C3 EC 0E 40 03 FF 00 FF
08/07/2025 12:21:37PM   can0  0CF00400   [8]  F1 89 8A 82 26 FF FF 89
08/07/2025 12:21:37PM   can0  0CF00400   [8]  F1 89 8A 57 26 FF FF 89
08/07/2025 12:21:37PM   can0  0CF00400   [8]  F1 89 8A 16 26 FF FF 89
08/07/2025 12:21:37PM   can0  0CF00400   [8]  F1 8A 8B C1 25 FF FF 8A
08/07/2025 12:21:37PM   can0  0CF00400   [8]  F1 8B 8C 6C 25 FF FF 8B
08/07/2025 12:21:37PM   can0  18FEF100   [8]  C3 14 0F 40 03 FF 00 FF
08/07/2025 12:21:37PM   can0  0CF00400   [8]  F1 8D 8E 18 25 FF FF 8D
08/07/2025 12:21:37PM   can0  0CF00400   [8]  F1 8F 90 CC 24 FF FF 8F
08/07/2025 12:21:38PM   can0  0CF00400   [8]  F1 90 91 86 24 FF FF 90
08/07/2025 12:21:38PM   can0  0CF00400   [8]  F1 91 92 41 24 FF FF 91
08/07/2025 12:21:38PM   can0  0CF00400   [8]  F1 92 93 20 24 FF FF 92
08/07/2025 12:21:38PM   can0  18FEF100   [8]  C3 47 0F 40 03 FF 00 FF
08/07/2025 12:21:38PM   can0  0CF00400   [8]  F1 93 94 0A 24 FF FF 93
08/07/2025 12:21:38PM   can0  0CF00400   [8]  F1 94 95 05 24 FF FF 94
08/07/2025 12:21:38PM   can0  0CF00400   [8]  F1 95 96 13 24 FF FF 95
08/07/2025 12:21:38PM   can0  0CF00400   [8]  F1 96 97 22 24 FF FF 96
08/07/2025 12:21:38PM   can0  0CF00400   [8]  F1 96 97 3F 24 FF FF 96
08/07/2025 12:21:38PM   can0  18FEF100   [8]  C3 61 0F 40 03 FF 00 FF
08/07/2025 12:21:38PM   can0  0CF00400   [8]  F1 97 98 74 24 FF FF 97
08/07/2025 12:21:38PM   can0  0CF00400   [8]  F1 98 99 BE 24 FF FF 98
08/07/2025 12:21:38PM   can0  0CF00400   [8]  F1 98 99 14 25 FF FF 98
08/07/2025 12:21:38PM   can0  0CF00400   [8]  F1 99 9A 50 25 FF FF 99
08/07/2025 12:21:38PM   can0  0CF00400   [8]  F1 9A 9B 88 25 FF FF 9A
08/07/2025 12:21:38PM   can0  18FEF100   [8]  C3 51 0F 00 03 FF 00 FF
08/07/2025 12:21:38PM   can0  0CF00400   [8]  F1 9A 9B CC 25 FF FF 9A
08/07/2025 12:21:38PM   can0  0CF00400   [8]  F1 9A 9B 20 26 FF FF 9A
08/07/2025 12:21:38PM   can0  0CF00400   [8]  F1 9A 9B 7C 26 FF FF 9A
08/07/2025 12:21:38PM   can0  0CF00400   [8]  F1 9A 9B A7 26 FF FF 9A
08/07/2025 12:21:38PM   can0  0CF00400   [8]  F1 99 9A B6 26 FF FF 99
08/07/2025 12:21:38PM   can0  18FEF100   [8]  C3 39 0F 00 03 FF 00 FF
08/07/2025 12:21:38PM   can0  0CF00400   [8]  F1 99 9A C9 26 FF FF 99
08/07/2025 12:21:38PM   can0  0CF00400   [8]  F1 99 9A D6 26 FF FF 99
08/07/2025 12:21:38PM   can0  0CF00400   [8]  F1 99 9A C8 26 FF FF 99
08/07/2025 12:21:38PM   can0  0CF00400   [8]  F1 98 99 9E 26 FF FF 98
08/07/2025 12:21:38PM   can0  0CF00400   [8]  F1 99 9A 7C 26 FF FF 99
08/07/2025 12:21:38PM   can0  18FEF100   [8]  C3 3C 0F 00 03 FF 00 FF
08/07/2025 12:21:38PM   can0  0CF00400   [8]  F1 99 9A 5A 26 FF FF 99
08/07/2025 12:21:38PM   can0  0CF00400   [8]  F1 9A 9B 29 26 FF FF 9A
08/07/2025 12:21:38PM   can0  0CF00400   [8]  F1 9B 9C F4 25 FF FF 9B
08/07/2025 12:21:38PM   can0  0CF00400   [8]  F1 9D 9D BD 25 FF FF 9C
08/07/2025 12:21:38PM   can0  0CF00400   [8]  F1 9F 9F A0 25 FF FF 9F
08/07/2025 12:21:38PM   can0  18FEF100   [8]  C3 60 0F 00 03 FF 00 FF
08/07/2025 12:21:38PM   can0  0CF00400   [8]  F1 A2 A1 8E 25 FF FF A1
08/07/2025 12:21:38PM   can0  0CF00400   [8]  F1 A4 A3 A1 25 FF FF A3
08/07/2025 12:21:38PM   can0  0CF00400   [8]  F1 A5 A5 BA 25 FF FF A4
08/07/2025 12:21:38PM   can0  0CF00400   [8]  F1 A6 A6 DB 25 FF FF A5
08/07/2025 12:21:38PM   can0  0CF00400   [8]  F1 A5 A6 1C 26 FF FF A5
08/07/2025 12:21:38PM   can0  18FEF100   [8]  C3 87 0F 00 03 FF 00 FF
08/07/2025 12:21:38PM   can0  0CF00400   [8]  F1 A5 A6 73 26 FF FF A5
08/07/2025 12:21:38PM   can0  0CF00400   [8]  F1 A4 A5 D1 26 FF FF A4
08/07/2025 12:21:38PM   can0  0CF00400   [8]  F1 A2 A3 16 27 FF FF A2
08/07/2025 12:21:38PM   can0  0CF00400   [8]  F1 A2 A2 54 27 FF FF A2
08/07/2025 12:21:38PM   can0  0CF00400   [8]  F1 9F A1 8C 27 FF FF 9F
08/07/2025 12:21:38PM   can0  18FEF100   [8]  C3 9A 0F 00 03 FF 00 FF
08/07/2025 12:21:38PM   can0  0CF00400   [8]  F1 9F A0 C6 27 FF FF 9F
08/07/2025 12:21:38PM   can0  0CF00400   [8]  F1 9E 9F 06 28 FF FF 9E
08/07/2025 12:21:38PM   can0  0CF00400   [8]  F1 9D 9E 18 28 FF FF 9D
08/07/2025 12:21:38PM   can0  0CF00400   [8]  F1 9E 9E 28 28 FF FF 9E
08/07/2025 12:21:38PM   can0  0CF00400   [8]  F1 9D 9E 34 28 FF FF 9D
08/07/2025 12:21:38PM   can0  18FEF100   [8]  C3 AD 0F 00 03 FF 00 FF
08/07/2025 12:21:38PM   can0  0CF00400   [8]  F1 9C 9D 3B 28 FF FF 9C
08/07/2025 12:21:38PM   can0  0CF00400   [8]  F1 9C 9D 48 28 FF FF 9C
08/07/2025 12:21:38PM   can0  0CF00400   [8]  F1 9C 9D 30 28 FF FF 9C
08/07/2025 12:21:38PM   can0  0CF00400   [8]  F1 9C 9D 1C 28 FF FF 9C
08/07/2025 12:21:38PM   can0  0CF00400   [8]  F1 9C 9D 03 28 FF FF 9C
08/07/2025 12:21:38PM   can0  18FEF100   [8]  C3 D8 0F 00 03 FF 00 FF
08/07/2025 12:21:38PM   can0  0CF00400   [8]  F1 9C 9D F1 27 FF FF 9C
08/07/2025 12:21:38PM   can0  0CF00400   [8]  F1 9D 9E DF 27 FF FF 9D
08/07/2025 12:21:39PM   can0  0CF00400   [8]  F1 9D 9E C4 27 FF FF 9D
08/07/2025 12:21:39PM   can0  0CF00400   [8]  F1 9D 9E BB 27 FF FF 9D
08/07/2025 12:21:39PM   can0  0CF00400   [8]  F1 9D 9E AF 27 FF FF 9D
08/07/2025 12:21:39PM   can0  18FEF100   [8]  C3 0F 10 00 03 FF 00 FF
08/07/2025 12:21:39PM   can0  0CF00400   [8]  F1 9D 9E C2 27 FF FF 9D
08/07/2025 12:21:39PM   can0  0CF00400   [8]  F1 9D 9E BC 27 FF FF 9D
08/07/2025 12:21:39PM   can0  0CF00400   [8]  F1 9D 9E C5 27 FF FF 9D
08/07/2025 12:21:39PM   can0  0CF00400   [8]  F1 9D 9E DF 27 FF FF 9D
08/07/2025 12:21:39PM   can0  0CF00400   [8]  F1 9D 9E F4 27 FF FF 9D
08/07/2025 12:21:39PM   can0  18FEF100   [8]  C3 3F 10 00 03 FF 00 FF
08/07/2025 12:21:39PM   can0  0CF00400   [8]  F1 9D 9E 29 28 FF FF 9D
08/07/2025 12:21:39PM   can0  0CF00400   [8]  F1 9D 9E 46 28 FF FF 9D
08/07/2025 12:21:39PM   can0  0CF00400   [8]  F1 9C 9D 67 28 FF FF 9C
08/07/2025 12:21:39PM   can0  0CF00400   [8]  F1 9C 9D 91 28 FF FF 9C
08/07/2025 12:21:39PM   can0  0CF00400   [8]  F1 9B 9D C3 28 FF FF 9B
08/07/2025 12:21:39PM   can0  18FEF100   [8]  C3 5B 10 00 03 FF 00 FF
08/07/2025 12:21:39PM   can0  0CF00400   [8]  F1 9A 9B F7 28 FF FF 9A
08/07/2025 12:21:39PM   can0  0CF00400   [8]  F1 9A 9B 0C 29 FF FF 9A
08/07/2025 12:21:39PM   can0  0CF00400   [8]  F1 9A 9B 32 29 FF FF 9A
08/07/2025 12:21:39PM   can0  0CF00400   [8]  F1 99 9A 50 29 FF FF 99
08/07/2025 12:21:39PM   can0  0CF00400   [8]  F1 99 9A 7E 29 FF FF 99
08/07/2025 12:21:39PM   can0  18FEF100   [8]  C3 6F 10 00 03 FF 00 FF
08/07/2025 12:21:39PM   can0  0CF00400   [8]  F1 99 9A 94 29 FF FF 99
08/07/2025 12:21:39PM   can0  0CF00400   [8]  F1 99 9A B4 29 FF FF 99
08/07/2025 12:21:39PM   can0  0CF00400   [8]  F1 98 99 DA 29 FF FF 98
08/07/2025 12:21:39PM   can0  0CF00400   [8]  F1 98 99 FB 29 FF FF 98
08/07/2025 12:21:39PM   can0  0CF00400   [8]  F1 98 99 15 2A FF FF 98
08/07/2025 12:21:39PM   can0  18FEF100   [8]  C3 8C 10 00 03 FF 00 FF
08/07/2025 12:21:39PM   can0  0CF00400   [8]  F1 98 99 21 2A FF FF 98
08/07/2025 12:21:39PM   can0  0CF00400   [8]  F1 96 97 38 2A FF FF 96
08/07/2025 12:21:39PM   can0  0CF00400   [8]  F1 95 96 38 2A FF FF 95
08/07/2025 12:21:39PM   can0  0CF00400   [8]  F1 94 95 40 2A FF FF 94
08/07/2025 12:21:39PM   can0  0CF00400   [8]  F1 91 93 2A 2A FF FF 92
08/07/2025 12:21:39PM   can0  18FEF100   [8]  C3 B7 10 00 03 FF 00 FF
08/07/2025 12:21:39PM   can0  0CF00400   [8]  F1 90 91 08 2A FF FF 91
08/07/2025 12:21:39PM   can0  0CF00400   [8]  F1 8F 90 DC 29 FF FF 90
08/07/2025 12:21:39PM   can0  0CF00400   [8]  F1 8E 8F AD 29 FF FF 8F
08/07/2025 12:21:39PM   can0  0CF00400   [8]  F1 8E 8F 71 29 FF FF 8F
08/07/2025 12:21:39PM   can0  0CF00400   [8]  F1 8E 8F 3E 29 FF FF 8F
08/07/2025 12:21:39PM   can0  18FEF100   [8]  C3 EB 10 00 03 FF 00 FF
08/07/2025 12:21:39PM   can0  0CF00400   [8]  F1 8E 8F 0C 29 FF FF 8E
08/07/2025 12:21:39PM   can0  0CF00400   [8]  F1 8E 8F CD 28 FF FF 8E
08/07/2025 12:21:39PM   can0  0CF00400   [8]  F1 8E 8F AC 28 FF FF 8E
08/07/2025 12:21:39PM   can0  0CF00400   [8]  F1 8E 8F 89 28 FF FF 8E
08/07/2025 12:21:39PM   can0  0CF00400   [8]  F1 8E 8F 73 28 FF FF 8E
08/07/2025 12:21:39PM   can0  18FEF100   [8]  C3 14 11 00 03 FF 00 FF
08/07/2025 12:21:39PM   can0  0CF00400   [8]  F1 8D 8E 5D 28 FF FF 8D
08/07/2025 12:21:39PM   can0  0CF00400   [8]  F1 8D 8E 5F 28 FF FF 8D
08/07/2025 12:21:39PM   can0  0CF00400   [8]  F1 8D 8E 6B 28 FF FF 8D
08/07/2025 12:21:39PM   can0  0CF00400   [8]  F1 8C 8D 7C 28 FF FF 8C
08/07/2025 12:21:39PM   can0  0CF00400   [8]  F1 8C 8D 94 28 FF FF 8C
08/07/2025 12:21:39PM   can0  18FEF100   [8]  C3 1E 11 00 03 FF 00 FF
08/07/2025 12:21:39PM   can0  0CF00400   [8]  F1 8B 8C B0 28 FF FF 8B
08/07/2025 12:21:39PM   can0  0CF00400   [8]  F1 8A 8B DF 28 FF FF 8B
08/07/2025 12:21:39PM   can0  0CF00400   [8]  F1 8A 8B FD 28 FF FF 8A
08/07/2025 12:21:39PM   can0  0CF00400   [8]  F1 89 8A 21 29 FF FF 89
08/07/2025 12:21:39PM   can0  0CF00400   [8]  F1 89 8A 38 29 FF FF 89
08/07/2025 12:21:39PM   can0  18FEF100   [8]  C3 09 11 00 03 FF 00 FF
08/07/2025 12:21:39PM   can0  0CF00400   [8]  F1 89 8A 48 29 FF FF 89
08/07/2025 12:21:39PM   can0  0CF00400   [8]  F1 88 89 6B 29 FF FF 89
08/07/2025 12:21:40PM   can0  0CF00400   [8]  F1 87 87 81 29 FF FF 87
08/07/2025 12:21:40PM   can0  0CF00400   [8]  F1 85 86 84 29 FF FF 87
08/07/2025 12:21:40PM   can0  0CF00400   [8]  F1 82 84 7B 29 FF FF 85
08/07/2025 12:21:40PM   can0  18FEF100   [8]  C3 F2 10 00 03 FF 00 FF
08/07/2025 12:21:40PM   can0  0CF00400   [8]  F1 80 82 84 29 FF FF 83
08/07/2025 12:21:40PM   can0  0CF00400   [8]  F1 7E 81 70 29 FF FF 82
08/07/2025 12:21:40PM   can0  0CF00400   [8]  F1 7D 7F 56 29 FF FF 80
08/07/2025 12:21:40PM   can0  0CF00400   [8]  F0 7D 7D 34 29 FF FF 7E
08/07/2025 12:21:40PM   can0  0CF00400   [8]  F0 7D 7D F5 28 FF FF 7D
08/07/2025 12:21:40PM   can0  18FEF100   [8]  C3 EA 10 00 03 FF 00 FF
08/07/2025 12:21:40PM   can0  0CF00400   [8]  F0 7D 7D BF 28 FF FF 7D
08/07/2025 12:21:40PM   can0  0CF00400   [8]  F0 7D 7D 88 28 FF FF 7D
08/07/2025 12:21:40PM   can0  0CF00400   [8]  F0 7D 7D 51 28 FF FF 7D
08/07/2025 12:21:40PM   can0  0CF00400   [8]  F0 7D 7D 20 28 FF FF 7D
08/07/2025 12:21:40PM   can0  0CF00400   [8]  F0 7D 7D 04 28 FF FF 7D
08/07/2025 12:21:40PM   can0  18FEF100   [8]  C3 F6 10 00 03 FF 00 FF
08/07/2025 12:21:40PM   can0  0CF00400   [8]  F0 7D 7D F0 27 FF FF 7D
08/07/2025 12:21:40PM   can0  0CF00400   [8]  F0 7D 7D E6 27 FF FF 7D
08/07/2025 12:21:40PM   can0  0CF00400   [8]  F0 7D 7D E2 27 FF FF 7D
